(00.003518) can0 E3#00800004A6C6F704
(00.004706) can0 DC#39100016084DF6AE2A0AFADCE834280000000000FFFF8D64FEC3000000000000
(00.006657) can0 DB#390E0020B136F0F7D77E831A3F9B7F15414DC116B3281D5C060300F1FFFFFFFF8E7B191C000000000000000000000000
(00.007522) can0 44#04
(00.007942) can0 D9#3913001508EEF42EA0408D064F1238F1FFFFFFFFFF8D08378300000000000000
(00.011676) can0 DB#390F00155E92F120FFFF7FCFFFFF3FFFFFFFFFFFFF8F07FC8F00000000000000
(00.013497) can0 2D#4717FA05C4090090709758626F5205000800A0FEFFFF7F4802D235FFFFFFFF00FEFF94C7AC7700000000000000000000
(00.014020) can0 D4#39040604831D3489
(00.014790) can0 18E19490#0300009A019A010000000000000100020000000000000000000000000000000000B90C011000E40C00000000000054D9055916D20CC409001311001505150000
(00.024750) can0 DC#391000162CE5F7AE2A0AFADCE834280000000000FFFF8F5B0E6F000000000000
(00.026573) can0 DB#390E010F1435FFFFFFFFFFFFFF0FD308BCFDFF390E00202512F1F7D77E831A3F9B7F15414DC116B3281D5C060300F1FFFFFFFF90687169000000000000000000
(00.027662) can0 D9#391300159A11F52EA0404D064F1238F1FFFFFFFFFF8F49033400000000000000
(00.028234) can0 E3#4100050800800343CB839484
(00.031691) can0 DB#390F001578A3F220FFFF7FCFFFFF3FFFFFFFFFFFFF9148A72A00000000000000
(00.033498) can0 2D#581EFB05C4090090709758626F5205000800A0FEFFFF7F4802D235FFFFFFFF00FEFF9677D11F00000000000000000000
(00.034025) can0 D4#39040C050E0FF4FFFF391501143FE991EDF85FF5FFFFFFFFFE07009F2801FEFFFF390C140CFFFFFF01FEFFFFFFFFFFFFFF000000000000000000000000000000
(00.038172) can0 E3#39060B080051511400C0CFFF39042208003B867E780FFAFF
(00.038512) can0 4F#20020CA000499B59
(00.044745) can0 DC#39100016369CF8AE2A0AFADCE834280000000000FFFF91DC0CA8000000000000
(00.045128) can0 18E19490#040400030003008836EE0C410D2201F8000806010101010200000000000000000000000000000000000000000000000000000000000000001311001505150000
(00.046540) can0 DB#390F01064B850460C01A390E0020997FF2F7D77E831A3F9B7F15414DC116B3281D5C060300F1FFFFFFFF927D83EF0000
(00.047762) can0 D9#39130015CCCFF62EA0408D064F1238F1FFFFFFFFFF91D5E69D3913010B4CBAE8549500FE03BAFFEF0000000000000000
(00.048274) can0 E3#4100050801E712E7F564D4C2
(00.051692) can0 DB#390F00159AB3F320FFFF7FCFFFFF3FFFFFFFFFFFFF93AB667D00000000000000
(00.053473) can0 2D#0521FC05C4090090709758626F5205000800A0FEFFFF7F4802D235FFFFFFFF00FEFF98A2749600000000000000000000
(00.053998) can0 DC085B#4003080400000000
(00.064693) can0 DC#391000161234F9AE2A0AFADCE834280000000000FFFF938C190A000000000000
(00.066511) can0 DB#390E00200D5BF3F7D77E831A3F9B7F15414DC116B3281D5C060300F1FFFFFFFF954B1204000000000000000000000000
(00.067607) can0 D9#39130015FB69F72EA0400D074F1238F1FFFFFFFFFF95A7230500000000000000
(00.071685) can0 DB#390F001534C1F420FFFF7FCFFFFF3FFFFFFFFFFFFF9531C84A00000000000000
(00.073480) can0 2D#1A28FD05C4090090709758626F5205000800A0FEFFFF7F4802D235FFFFFFFF00FEFF9A73C8C800000000000000000000
(00.074799) can0 18E19490#000000A50000005001000000000000000000001A5A8E00000000010000000000000000004A4A4BEA00E9001301FC00F500F6004A4A4AEE001311001505150000
(00.084808) can0 DC#39100110153F410043009606109C002205F0FFF5391000165FDCFAAE2A0AFADCE834280000000000FFFF9640B5910000
(00.086512) can0 DB#390E0020E1A4F4F7D77E831A3F9B7F15414DC116B3281D5C060300F1FFFFFFFF96108334000000000000000000000000
(00.088380) can0 4F#28010C000A40EE60
(00.088706) can0 D9#39130015309FF82EA0400D064F1238F1FFFFFFFFFF977E0CB000000000000000
(00.091674) can0 DB#390F0015D6D1F520FFFF7FCFFFFF3FFFFFFFFFFFFF97D18B3A00000000000000
(00.093543) can0 2D#3B33FE05C4090090709758626F5205000800A0FEFFFF7F4802D235FFFFFFFF00FEFF9CCEF20900000000000000000000
(00.098110) can0 E3#3A020004F4FFFFFF
(00.103505) can0 E3#008000044812F804
(00.104711) can0 DC#391000167B74FBAE2A0AFADCE834280000000000FFFF98BE04D5000000000000
(00.105094) can0 18E19490#0103003A0DF800800CFF00BC02060600000000401F020000AC0D2B2B012003000002AE012C1200000202C103C8380000AC0D401F0C5F034B1311001505150000
(00.106656) can0 DB#390E00207580F5F7D77E831A3F9B7F15414DC116B3281D5C060300F1FFFFFFFF98B4F200000000000000000000000000
(00.107681) can0 D9#391300159DD0F92EA0404D054F1238F1FFFFFFFFFF99505CB900000000000000
(00.111673) can0 DB#390F0015F0E0F620FFFF7FCFFFFF3FFFFFFFFFFFFF99AFB39500000000000000
(00.113507) can0 2D#243AFF05C4090090709758626F5205000800A0FEFFFF7F4802D235FFFFFFFF00FEFF9EA9EF5300000000000000000000
(00.114030) can0 D4#39040604376B3589
(00.118166) can0 E3#0280000814074B0183331883
(00.123538) can0 E3#4100050800800343CB839E160500000CF5FCFF0000000000A18BDEA800000000
(00.124705) can0 DC#39100016E41CFCAE2A0AFADCE834280000000000FFFF9A9DCDBF000000000000
(00.126534) can0 DB#390E010F0C35FFFFFFFFFFFFFF0FD308BCFDFF390E0020C9EDF6F7D77E831A3F9B7F15414DC116B3281D5C060300F1FFFFFFFF9AC7CB50000000000000000000
(00.127681) can0 D9#39130015CB0EFA2EA0408D054F1238F1FFFFFFFFFF9B7A78F000000000000000
(00.131672) can0 DB#390F001512F0F720FFFF7FCFFFFF3FFFFFFFFFFFFF9B49092300000000000000
(00.133479) can0 2D#36470005C4090090709758626F5205000800A0FEFFFF7F4802D235FFFFFFFF00FEFFA074724800000000000000000000
(00.134004) can0 D4#39040C050E0FF4FFFF390C140CFFFFFF01FEFFFFFFFFFFFFFF00000000000000
(00.134871) can0 18E19490#02880064646401000000E312A0EC000000000000E800EB00BD04000000000000000000004B14CC058805871300000000B90C800C280F2C0D1311001505150000
(00.138102) can0 E3#39060B080051511400C0CFFF39042208003B877E780FFAFF
(00.144817) can0 DC#39100016C0B4FDAE2A0AFADCE834280000000000FFFF9C2B0D17000000000000
(00.146529) can0 DB#390E00205DC9F7F7D77E831A3F9B7F15414DC116B3281D5C060300F1FFFFFFFF9C9D0A00000000000000000000000000
(00.147618) can0 D9#39130015C6F4FB2EA0404D064F1238F1FFFFFFFFFF9D3A7C713913010B4CBAE8549500FE03BAFFEF0000000000000000
(00.148157) can0 E3#41000508012A5E2BC89BB3C83980000C00FF409029D2AFFEA34CB3A93E800108C302799BB702E0FF0000000000000000
(00.151712) can0 DB#390F0015AC05F820FFFF7FCFFFFF3FFFFFFFFFFFFF9D5D29AF00000000000000
(00.153494) can0 2D#294E0105C4090090709758626F5205000800A0FEFFFF7F4802D235FFFFFFFF00FEFFA274002700000000000000000000
(00.164699) can0 DC#391000168D5CFEAE2A0AFADCE834280000000000FFFF9EA73126000000000000
(00.165080) can0 18E19490#030000980198010000000000000200020000000000000000000000000000000000B90C011000E40C00000000000054DA055916D40CC409001311001505150000
(00.166560) can0 DB#390E00203002F8F7D77E831A3F9B7F15414DC116B3281D5C060300F1FFFFFFFF9F15DF08000000000000000000000000
(00.167757) can0 D9#39130015CDDFFC2EA0400D074F1238F1FFFFFFFFFF9F1235F700000000000000
(00.171682) can0 DB#390F00154E15F920FFFF7FCFFFFF3FFFFFFFFFFFFFA091CD5700000000000000
(00.173471) can0 2D#08550205C4090090709758626F5205000800A0FEFFFF7F4802D235FFFFFFFF00FEFFA4E5B13F00000000000000000000
(00.184751) can0 DC#39100110153F410043009E06109C002205F0FFF539100016A9F4FFAE2A0AFADCE834280000000000FFFFA0A4B8E50000
(00.186509) can0 DB#390E0020A426F9F7D77E831A3F9B7F15414DC116B3281D5C060300F1FFFFFFFFA16DA536000000000000000000000000
(00.188578) can0 D9#391300152A23FD2EA040CD064F1238F1FFFFFFFFFFA139E9F300000000000000
(00.191672) can0 DB#390F00156824FA20FFFF7FCFFFFF3FFFFFFFFFFFFFA2B9B7BA00000000000000
(00.193494) can0 2D#175C0305C4090090709758626F5205000800A0FEFFFF7F4802D235FFFFFFFF00FEFFA68E8D5600000000000000000000
(00.194808) can0 18E19490#040300030003008836EE0C400D2201F8000806010101010200000000000000000000000000000000000000000000000000000000000000001311001505150000
(00.002445) can0 DB#390F00158D6E8B20FFFF7FCFFFFF3FFFFFFFFFFFFFC35468CD00000000000000
(00.004222) can0 2D#BE3D9405C4090090709758626F5205000800A0FEFFFF7F4802D235FFFFFFFF00FEFFC71057A900000000000000000000
(00.005311) can0 18E19490#000000A50000005001000000000000000000001A5A8E00000000010000000000000000004A4A4BE900E8001301FC00F400F6004A4A4A1D011311001505150000
(00.015392) can0 DC#39100110153F41004300EE46109C002205F0FFF5391000169E4291AE2A0AFADCEC34280000000000FFFFC3DC7F700000
(00.017270) can0 DB#390E00203F3C8BF7E77E831A3F9F7F95414DC116B3281D5C060300F1FFFFFFFFC484CC66000000000000000000000000
(00.018247) can0 D9#391300150DAF8F2EA041CD034F1240F1FFFFFFFFFFC4859FBB00000000000000
(00.022434) can0 DB#390F0015231C8C20FFFF7FCFFFFF3FFFFFFFFFFFFFC52C762B00000000000000
(00.024261) can0 2D#A1349505C4090090709758626F5205000800A0FEFFFF7F4802D235FFFFFFFF00FEFFCABE760A00000000000000000000
(00.034260) can0 E3#00800004F017E304
(00.035324) can0 DC#39100016D3AA92AE2A0AFADCEC34280000000000FFFFC5564A7A000000000000
(00.035703) can0 18E19490#0103003B0DF800800CFA00BC02060600000000401F020000AC0D2B2B012003000002AE012E1200000202C00397380000AC0D401F0C4A2B4B1311001505150000
(00.037414) can0 DB#390E0020D3C38CF7E77E831A3F9F7F95414DC116B3281D5C060300F1FFFFFFFFC6188FF2000000000000000000000000
(00.038276) can0 44#04
(00.038393) can0 D9#3913001559F9902EA0414D044F1240F1FFFFFFFFFFC5DD8D9F00000000000000
(00.042433) can0 DB#390F0015C10C8D20FFFF7FCFFFFF3FFFFFFFFFFFFFC7E5BD0A00000000000000
(00.044248) can0 2D#802F9605C4090090709758626F5205000800A0FEFFFF7F4802D235FFFFFFFF00FEFFCC75C69D00000000000000000000
(00.044773) can0 D4#39040604D5CC2089
(00.055308) can0 DC#39100016F70293AE2A0AFADCEC34280000000000FFFFC7027AB1000000000000
(00.057279) can0 DB#390E010F1435FFFFFFFFFFFFFF0FD308BCFDFF390E002047E78DF7E77E831A3F9F7F95414DC116B3281D5C060300F1FFFFFFFFC8F0E263000000000000000000
(00.058240) can0 D9#39130015E175912EA0408D034F1240F1FFFFFFFFFFC76BE2B400000000000000
(00.058934) can0 E3#4100050800800343CB82CC77
(00.062447) can0 DB#390F0015E73D8E20FFFF7FCFFFFF3FFFFFFFFFFFFFC97BFBD400000000000000
(00.064234) can0 2D#9F269705C4090090709758626F5205000800A0FEFFFF7F4802D235FFFFFFFF00FEFFCE39737400000000000000000000
(00.064759) can0 D4#39040C050E0FF4FFFF391501143FE9910DF95FF5FFFFFFFFFE07009F2801FEFFFF390C140CFFFFFF01FEFFFFFFFFFFFFFF000000000000000000000000000000
(00.065438) can0 18E19490#028800646464010000009412A0EC000000000000E900EB00BD04010001000000FFFF00004E14CD058505871300000000B90C800C030F2C0D1311001505150000
(00.068841) can0 E3#39060B080051511400C0CFFF39042208003B867E780FFAFF
(00.069166) can0 4F#20F908A000499B57
(00.075451) can0 DC#39100016686A94AE2A0AFADCEC34280000000000FFFFC9B8C433000000000000
(00.077298) can0 DB#390F01064B850460C01A390E0020FB8A8EF7E77E831A3F9F7F95414DC116B3281D5C060300F1FFFFFFFFCA73322D0000
(00.078453) can0 D9#391300157665922EA041CD034F1240F1FFFFFFFFFFC90478203913010B4CBAE8549500FE03BAFFEF0000000000000000
(00.078968) can0 E3#4100050801ECA23CBAF2D4B7
(00.082448) can0 DB#390F0015052D8F20FFFF7FCFFFFF3FFFFFFFFFFFFFCB0E0AD100000000000000
(00.084239) can0 2D#3A519805C4090090709758626F5205000800A0FEFFFF7F4802D235FFFFFFFF00FEFFD098EF5500000000000000000000
(00.084762) can0 DC085B#4003080400000000
(00.095308) can0 DC#391000164CC295AE2A0AFADCEC34280000000000FFFFCB7EE4B7000000000000
(00.095689) can0 18E19490#030000940194010000000000000100020000000000000000000000000000000000B90C011000E40C00000000000054D9055516D20CC409001311001505150000
(00.097320) can0 DB#390E00206FAE8FF7E77E831A3F9F7F95414DC116B3281D5C060300F1FFFFFFFFCD276C2C000000000000000000000000
(00.098445) can0 D9#391300150F27932EA0418D044F1240F1FFFFFFFFFFCD9DA8AB00000000000000
(00.102440) can0 DB#390F0015BAC69020FFFF7FCFFFFF3FFFFFFFFFFFFFCD35999100000000000000
(00.104232) can0 2D#25589905C4090090709758626F5205000800A0FEFFFF7F4802D235FFFFFFFF00FEFFD2B28B6700000000000000000000
(00.115340) can0 DC#39100110153F41004300F642109C002205F0FFF539100016012A96AE2A0AFADCEC34280000000000FFFFCEC963E10000
(00.117268) can0 DB#390E0020000C90F7E77E831A3F9F7F95414DC116B3281D5C060300F1FFFFFFFFCE4567DC000000000000000000000000
(00.118232) can0 D9#39130015710F942EA041CD044F1240F1FFFFFFFFFFCF6C92FF00000000000000
(00.119126) can0 4F#286808000A40BDFB
(00.122432) can0 DB#390F001558D69120FFFF7FCFFFFF3FFFFFFFFFFFFFCFB39BCD00000000000000
(00.124256) can0 2D#04439A05C4090090709758626F5205000800A0FEFFFF7F4802D235FFFFFFFF00FEFFD46F63E700000000000000000000
(00.125371) can0 18E19490#040300030003008836EE0C410D2201F8000806010101010200000000000000000000000000000000000000000000000000000000000000001311001505150000
(00.128866) can0 E3#3A020004F4FFFFFF
(00.134254) can0 E3#00800004DD46E404
(00.135400) can0 DC#39100016258297AE2A0AFADCEC34280000000000FFFFD06EB6C0000000000000
(00.137414) can0 DB#390E0020942891F7E77E831A3F9F7F95414DC116B3281D5C060300F1FFFFFFFFD0554532000000000000000000000000
(00.138799) can0 D9#39130015931F952EA041CD044F1240F1FFFFFFFFFFD127276300000000000000
(00.142431) can0 DB#390F00157EE79220FFFF7FCFFFFF3FFFFFFFFFFFFFD1252D3F00000000000000
(00.144274) can0 2D#1B4A9B05C4090090709758626F5205000800A0FEFFFF7F4802D235FFFFFFFF00FEFFD6C34EBF00000000000000000000
(00.144799) can0 D4#3904060461BA2189
(00.148910) can0 E3#02800008B288490183331883
(00.154266) can0 E3#4100050800800343CB82D6700500000CF5FCFF0000000000D913CC4000000000
(00.155323) can0 DC#391000163FFB98AE2A0AFADCEC34280000000000FFFFD247A321000000000000
(00.155704) can0 18E19490#000000A50000005001000000000000000000001A5A8E00000000010000000000000000004A4A4BE900E9001301FC00F400F6004A4A4A30011311001505150000
(00.157307) can0 DB#390E010F0C35FFFFFFFFFFFFFF0FD308BCFDFF390E0020284592F7E77E831A3F9F7F95414DC116B3281D5C060300F1FFFFFFFFD29EF0B1000000000000000000
(00.158572) can0 D9#39130015B52E962EA041CD044F1240F1FFFFFFFFFFD342E9B800000000000000
(00.162432) can0 DB#390F00159CF79320FFFF7FCFFFFF3FFFFFFFFFFFFFD3F3639000000000000000
(00.164230) can0 2D#46759C05C4090090709758626F5205000800A0FEFFFF7F4802D235FFFFFFFF00FEFFD853E27A00000000000000000000
(00.164755) can0 D4#39040C050E0FF4FFFF390C140CFFFFFF01FEFFFFFFFFFFFFFF00000000000000
(00.168862) can0 E3#39060B080051511400C0CFFF39042208003B877E780FFAFF
(00.175373) can0 DC#391000161B5399AE2A0AFADCEC34280000000000FFFFD48205D1000000000000
(00.177288) can0 DB#390E0020BC6193F7E77E831A3F9F7F95414DC116B3281D5C060300F1FFFFFFFFD46CB611000000000000000000000000
(00.178526) can0 D9#391300158764972EA0418D044F1240F1FFFFFFFFFFD53007853913010B4CBAE8549500FE03BAFFEF0000000000000000
(00.179040) can0 E3#4100050801E6493BC71ACBEF3980000C007F72902AD2AFFEDBD004593E800108C302799BB702E0FF0000000000000000
(00.182458) can0 DB#390F001532859420FFFF7FCFFFFF3FFFFFFFFFFFFFD55F386700000000000000
(00.184232) can0 2D#597C9D05C4090090709758626F5205000800A0FEFFFF7F4802D235FFFFFFFF00FEFFDA415D3300000000000000000000
(00.185381) can0 18E19490#0103003B0DF800800CFF00BC02060600000000401F020000AC0D2B2B012003000002AE012C1200000202BF038F380000AC0D401F0C4B094B1311001505150000
(00.195389) can0 DC#3910001656BB9AAE2A0AFADCEC34280000000000FFFFD6686579000000000000
(00.197266) can0 DB#390E0020509E94F7E77E831A3F9F7F95414DC116B3281D5C060300F1FFFFFFFFD751AB7F000000000000000000000000
(00.198501) can0 D9#391300159924982EA0410D044F1240F1FFFFFFFFFFD7CEC82C00000000000000
(00.001519) can0 D9#391300152F3A2630A0418DFC6E1248F1FFFFFFFFFFF36FC44D00000000000000
(00.004867) can0 DB#390F001597252320FFFF7FCFFFFF3FFFFFFFFFFFFFF494584800000000000000
(00.006786) can0 2D#9C842C05C4090090709758626F5205000800A0FEFFFF7F4C02D235FFFFFFFF00FEFFF759CFB200000000000000000000
(00.016686) can0 E3#008000043819CE04
(00.017529) can0 DC#39100016743E29AE2A0AFADCEC34280000000000FFFFF4A82074000000000000
(00.017912) can0 18E19490#0102003B0DF800800CFA00BC02060600000000401F020000AC0D2A2B012003000002AD012C1200000202C103FA380000AC0D401F0C35224B1311001505150000
(00.019847) can0 DB#390E00203D0F23F8E77E831A3FA27F15424DC116B3281D5C060300F1FFFFFFFFF555CD36000000000000000000000000
(00.020834) can0 D9#3913001556782730A041CDFB6E1248F1FFFFFFFFFFF556F53300000000000000
(00.024867) can0 DB#390F001539572420FFFF7FCFFFFF3FFFFFFFFFFFFFF6F0C3CC00000000000000
(00.026672) can0 2D#838D2D05C4090090709758626F5205000800A0FEFFFF7F4C02D235FFFFFFFF00FEFFF9D78A7D00000000000000000000
(00.027197) can0 D4#3904060484E50B89
(00.036830) can0 E3#4100050800800343CB81F9050500000CF5FCFF0000000000FD2D036300000000
(00.037544) can0 DC#3910001639D62AAE2A0AFADCEC34280000000000FFFFF61CB4B3000000000000
(00.039728) can0 DB#390E010F2035FFFFFFFFFFFFFF0FD308BCFDFF390E0020D1F024F8E77E831A3FA27F15424DC116B3281D5C060300F1FFFFFFFFF73A5821000000000000000000
(00.040613) can0 D9#39130015E88D2830A041CDFB6E1248F1FFFFFFFFFFF79EDE3B00000000000000
(00.044867) can0 DB#390F0015DB472520FFFF7FCFFFFF3FFFFFFFFFFFFFF8539C5700000000000000
(00.046652) can0 2D#A2962E05C4090090709758626F5205000800A0FEFFFF7F4C02D235FFFFFFFF00FEFFFB9DC73100000000000000000000
(00.047176) can0 D4#39040C050E0FF4FFFF390C140CFFFFFF01FEFFFFFFFFFFFFFF00000000000000
(00.047566) can0 18E19490#02880064646401000000B0126AA1000000000000E800EB00BD04010001000100000000004D14CE058F05851300000000B80C800C180F2C0D1311001505150000
(00.051267) can0 E3#39060B080051511400C0CFFF39042208003B877E780FFAFF
(00.057628) can0 DC#391000161D7E2BAE2A0AFADCEC34280000000000FFFFF8894D04000000000000
(00.059722) can0 DB#390E002045D425F8E77E831A3FA27F15424DC116B3281D5C060300F1FFFFFFFFF985222A000000000000000000000000
(00.060606) can0 D9#3913001591CF2930A0418DFC6E1248F1FFFFFFFFFFF94027EB3913010B4CBAE8549500FE03BAFFEF0000000000000000
(00.061316) can0 E3#41000508010384D0B5A27C143980000C007F20914CD2AFFEFF53457F00000000
(00.064893) can0 DB#390F0015FD762620FFFF7FCFFFFF3FFFFFFFFFFFFFFACDA6F900000000000000
(00.066662) can0 2D#BD9F2F05C4090090709758626F5205000800A0FEFFFF7F4C02D235FFFFFFFF00FEFFFD69ADDB00000000000000000000
(00.077527) can0 DC#3910001682162CAE2A0AFADCEC34280000000000FFFFF9AF3173000000000000
(00.077908) can0 18E19490#0300009B019B010000000000000000020000000000000000000000000000000000B80C011000E40C00000000000054DB055B16D70CC409001311001505150000
(00.079752) can0 DB#390E0020F9B926F8E77E831A3FA27F15424DC116B3281D5C060300F1FFFFFFFFFA210351000000000000000000000000
(00.080600) can0 D9#39130015B7FE2A30A0418DFC6E1248F1FFFFFFFFFFFA08D94000000000000000
(00.084876) can0 DB#390F00151F662720FFFF7FCFFFFF3FFFFFFFFFFFFFFBA0AC5200000000000000
(00.086650) can0 2D#E8793005C4090090709758626F5205000800A0FEFFFF7F4C02D235FFFFFFFF00FEFFFF37F9B900000000000000000000
(00.097569) can0 DC#39100110153F413243004E16109C002205F0FFF139100016A6BE2DAE2A0AFADCEC34280000000000FFFFFBAB885D0000
(00.099703) can0 DB#390E002056F327F8E77E831A3FA17F15424DC116B3281D5C060300F1FFFFFFFFFC34923A000000000000000000000000
(00.101514) can0 D9#3913001555EE2B30A0418DFC6E1248F1FFFFFFFFFFFCFAFC3200000000000000
(00.104864) can0 DB#390F0015A1932820FFFF7FCFFFFF3FFFFFFFFFFFFFFD2D7C0600000000000000
(00.106669) can0 2D#F7703105C4090090709758626F5205000800A0FEFFFF7F4C02D235FFFFFFFF00FEFF0208464200000000000000000000
(00.107537) can0 18E19490#040300030003007E36ED0C410D2201F8000806010101010200000000000000000000000000000000000000000000000000000000000000001311001505150000
(00.116683) can0 E3#008000048C6FCF04
(00.117578) can0 DC#39100016EB562EAE2A0AFADCEC34280000000000FFFFFDB0370C000000000000
(00.119848) can0 DB#390E00203B3828F8E77E831A3FA17F15424DC116B3281D5C060300F1FFFFFFFFFEA6BA27000000000000000000000000
(00.120709) can0 44#04
(00.120841) can0 D9#391300158B732C30A0414DFC6E1248F1FFFFFFFFFFFDF56C3700000000000000
(00.124865) can0 DB#390F001543832920FFFF7FCFFFFF3FFFFFFFFFFFFFFFB0DAAB00000000000000
(00.126682) can0 2D#D66B3205C4090090709758626F5205000800A0FEFFFF7F4C02D235FFFFFFFF00FEFF0469FE8600000000000000000000
(00.127208) can0 D4#39040604A9B40C89
(00.137526) can0 DC#39100016CFFE2FAE2A0AFADCEC34280000000000FFFFFFE6130A000000000000
(00.137910) can0 18E19490#000000A50000005001000000000000000000001A5A8F00000000010000000000000000004A4A4BEA00E8001301FC00F400F6004B4A4AF8001311001505150000
(00.139712) can0 DB#390E010F0C35FFFFFFFFFFFFFF0FD308BCFDFF390E002059C929F8E77E831A3FA07F15424DC116B3281D5C060300F1FFFFFFFF00BB6A00000000000000000000
(00.140598) can0 D9#39130015CC3A2D30A0410DFD6E1248F1FFFFFFFFFFFF17E2F100000000000000
(00.141381) can0 E3#4100050800800343CB82040E
(00.144882) can0 DB#390F001565B22A20FFFF7FCFFFFF3FFFFFFFFFFFFF0141A15100000000000000
(00.146660) can0 2D#C9623305C4090090709758626F5205000800A0FEFFFF7F4C02D235FFFFFFFF00FEFF0610F8CB00000000000000000000
(00.147184) can0 D4#39040C050E0FF4FFFF391501143FE591E1F85FF5FFFFFFFFFE07009F2801FEFFFF390C140CFFFFFF01FEFFFFFFFFFFFFFF000000000000000000000000000000
(00.151286) can0 E3#39060B080051511400C0CFFF39042208003B867E780FFAFF
(00.151603) can0 4F#20D304A000499B55
(00.157577) can0 DC#39100016DFA430AE2A0AFADCEC34280000000000FFFF0127F921000000000000
(00.159730) can0 DB#390F01064B850460FC1A390E002013712AF8E77E831A3FA17F15424DC116B3281D5C060300F1FFFFFFFF0201D19F0000
(00.160615) can0 D9#391300154ABE2E30A0418DFD6E1248F1FFFFFFFFFF01A00DEE3913010B4CB9E8549500FE03BAFFEF0000000000000000
(00.161311) can0 E3#4100050801B1A38160B8C183
(00.164883) can0 DB#390F001587A22B20FFFF7FCFFFFF3FFFFFFFFFFFFF031CF8C300000000000000
(00.166645) can0 2D#945D3405C4090090709758626F5205000800A0FEFFFF7F4C02D235FFFFFFFF00FEFF0801607A00000000000000000000
(00.167172) can0 DC085B#4003080400000000
(00.167544) can0 18E19490#0102003B0DF700800CFA00BC02060600000000401F020000AC0D2A2B012003000002AD012C1200000202C103FA380000AC0D401F0C36324B1311001505150000
(00.177576) can0 DC#39100016FB0C31AE2A0AFADCEC34280000000000FFFF03057A8F000000000000
(00.179700) can0 DB#390E002048062BF8E77E831A3FA17FD5414DC116B3281D5C060300F1FFFFFFFF05E0C8B4000000000000000000000000
(00.180605) can0 D9#391300157D182F30A0410DFC6E1248F1FFFFFFFFFF05BF90E300000000000000
(00.184875) can0 DB#390F001529D02C20FFFF7FCFFFFF3FFFFFFFFFFFFF0509B01300000000000000
(00.186668) can0 2D#8B543505C4090090709758626F5205000800A0FEFFFF7F4C02D235FFFFFFFF00FEFF0A2429F400000000000000000000
(00.197600) can0 DC#39100110153F413043005612119C002205F0FFF139100016B6E432AE2A0AFADCEC34280000000000FFFF0635AE4B0000
(00.198117) can0 18E19490#028800646464010000003E12D29A000000000000E800EB00BD04000001000000FFFF00004D14CD0591058E1300000000B80C800C180F2C0D1311001505150000
(00.005048) can0 E3#00800004D47CB804410000080142315052313138
(00.005597) can0 DC#391000168E26BBAE2A0AFADCF034280000000000FFFF180051C2000000000000
(00.008115) can0 DB#390E0020ECB6B5F8F77E831A3FA37F55424DC116B3281D5C060300F1FFFFFFFF19B0A6D6000000000000000000000000
(00.008966) can0 D9#39130015EA7EB932A0420DF38E1258F1FFFFFFFFFF1994DDE900000000000000
(00.013116) can0 DB#390F0015F498B620FFFF7FCFFFFF3FFFFFFFFFFFFF1A309F2000000000000000
(00.014918) can0 2D#A6FEBF05C409009070972A626F5205000800A0FEFFFF7F5002D235FFFFFFFF00FEFF1E5A15CF00000000000000000000
(00.015443) can0 D4#3904060493D8F589
(00.015602) can0 18E19490#030000970197010000000000000000020000000000000000000000000000000000B80C011000E40C00000000000054D9054A16D10CC409001311001505150000
(00.024958) can0 E3#4100050800800343CB811E8941000008023439371D52F9320500000CF5FCFF000000000021BF30CB0000000000000000
(00.025644) can0 DC#39100016114EBCAE2A0AFADCF034280000000000FFFF1ABBCB79000000000000
(00.028038) can0 DB#390E010F2435FFFFFFFFFFFFFF0FD308BCFDFF390E002050DBB6F8F77E831A3FA37F55424DC116B3281D5C060300F1FFFFFFFF1B8D0455000000000000000000
(00.028695) can0 D9#391300151C15BA32A0424DF38E1258F1FFFFFFFFFF1BFB797E00000000000000
(00.033117) can0 DB#390F00151688B720FFFF7FCFFFFF3FFFFFFFFFFFFF1C4CFB1E00000000000000
(00.034906) can0 2D#B04CC005C409009070972A626F5205000800A0FEFFFF7F5002D235FFFFFFFF00FEFF2098944400000000000000000000
(00.035434) can0 D4#39040C050E0FF4FFFF390C140CFFFFFF01FEFFFFFFFFFFFFFF00000000000000
(00.039546) can0 E3#39060B080051511400C0CFFF39042208003B877E780FFAFF
(00.045645) can0 DC#3910001635E6BDAE2A0AFADCF034280000000000FFFF1CE114CB000000000000
(00.046026) can0 18E19490#040300030003008836ED0C420D2201F8000806010101010200000000000000000000000000000000000000000000000000000000000000001311001505150000
(00.047974) can0 DB#390E002044F6B7F8F77E831A3FA47F55424DC116B3281D5C060300F1FFFFFFFF1D237736000000000000000000000000
(00.048710) can0 D9#39130015B50DBB32A0424DF48E1258F1FFFFFFFFFF1D7C79793913010B4CB9E8549500FE03BAFFEF0000000000000000
(00.049565) can0 E3#4100050801375F4B0E73C27A3980000C00FF01926FD2AFFE2398F0C94100000803A2C524CA4800000000000000000000
(00.053155) can0 DB#390F0015A87DB820FFFF7FCFFFFF3FFFFFFFFFFFFF1E8B927C00000000000000
(00.054886) can0 2D#7728C105C409009070972B626F5205000800A0FEFFFF7F5002D235FFFFFFFF00FEFF225CE8C600000000000000000000
(00.057932) can0 DC085D#4002000000000000
(00.065542) can0 DC#39100016780EBEAE2A0AFADCF034280000000000FFFF1EB1F285000000000000
(00.067951) can0 DB#390E0020A934B8F8F77E831A3FA37F55424DC116B3281D5C060300F1FFFFFFFF1F428C66000000000000000000000000
(00.068706) can0 D9#391300156B90BC32A0428DF48E1258F1FFFFFFFFFF1FFEC42200000000000000
(00.073128) can0 DB#390F00154A6DB920FFFF7FCFFFFF3FFFFFFFFFFFFF20B53CF400000000000000
(00.074889) can0 2D#5633C205C409009070972B626F5205000800A0FEFFFF7F5002D235FFFFFFFF00FEFF2407F99900000000000000000000
(00.075536) can0 18E19490#000000A50000005001000000000000000000001A5A9000000000010000000000000000004A4A4BEA00E8001201FC00F500F6004A4A49E4001311001505150000
(00.085677) can0 DC#39100110153F410043009E06109C002205F0FFF5391000165CA6BFAE2A0AFADCF034280000000000FFFF202EDDEB0000
(00.087952) can0 DB#390E00203D10B9F8F77E831A3FA37F55424DC116B3281D5C060300F1FFFFFFFF21BF2371000000000000000000000000
(00.089628) can0 D9#391300152935BD32A0420DF48E1258F1FFFFFFFFFF212EC9F300000000000000
(00.093115) can0 DB#390F00156C5CBA20FFFF7FCFFFFF3FFFFFFFFFFFFF220E5F4900000000000000
(00.094923) can0 2D#602BC305C409009070972C626F5205000800A0FEFFFF7F5002D235FFFFFFFF00FEFF26479AC700000000000000000000
(00.104929) can0 E3#00800004600AB904
(00.105574) can0 DC#391000169845C0AE2A0AFADCEC34280000000000FFFF224E34CB000000000000
(00.105955) can0 18E19490#0102003B0DF800800CFA00BC02060600000000401F020000AC0D2A2B012003000002AE012F1200000202C1035B390000AC0D401F0C20184B1311001505150000
(00.108097) can0 DB#390E00200174BAF8F77E831A3FA47F55424DC116B3281D5C060300F1FFFFFFFF235B6D45000000000000000000000000
(00.108932) can0 44#04
(00.109048) can0 D9#39130015E4B9BE32A0428DF38E1258F1FFFFFFFFFF238A954C00000000000000
(00.113115) can0 DB#390F00158E4CBB20FFFF7FCFFFFF3FFFFFFFFFFFFF2400D31700000000000000
(00.114909) can0 2D#E579C405C409009070972D626F5205000800A0FEFFFF7F5002D235FFFFFFFF00FEFF28B8F36100000000000000000000
(00.115432) can0 D4#390406044F43F689
(00.125540) can0 DC#39100016BCEDC1AE2A0AFADCEC34280000000000FFFF248AC129000000000000
(00.127962) can0 DB#390E010F2035FFFFFFFFFFFFFF0FD308BCFDFF390E00201559BBF8F77E831A3FA37F55424DC116B3281D5C060300F1FFFFFFFF2566D895000000000000000000
(00.128719) can0 D9#39130015D6F3BF32A042CDF38E1258F1FFFFFFFFFF253B6ACD00000000000000
(00.129587) can0 E3#4100050800800343CB8128F8
(00.133131) can0 DB#390F0015203EBC20FFFF7FCFFFFF3FFFFFFFFFFFFF2601FE4400000000000000
(00.134901) can0 2D#FA70C505C409009070972D626F5205000800A0FEFFFF7F5002D235FFFFFFFF00FEFF2A84334300000000000000000000
(00.135426) can0 D4#39040C050E0FF4FFFF391501143EE591E1F85FF5FFFFFFFFFE07009F2801FEFFFF390C140CFFFFFF01FEFFFFFFFFFFFFFF000000000000000000000000000000
(00.136105) can0 18E19490#02880064646401000000B312C0D4000000000000E900EB00BD04010001000000010000005014CF059B05881300000000B80C800C410F2C0D1311001505150000
(00.139529) can0 E3#39060B080051511400C0CFFF39042208003B867E780FFAFF
(00.145694) can0 DC#391000161976C2AE2A0AFADCF034280000000000FFFF26EE1B59000000000000
(00.147980) can0 DB#390F01064B850460701D390E0020F9A6BCF8F77E831A3FA37F55424DC116B3281D5C060300F1FFFFFFFF27F3BFF20000
(00.148714) can0 D9#3913001584E1C032A0424DF48E1258F1FFFFFFFFFF271C9FFC3913010B4CB9E8549500FE03BAFFEF0000000000000000
(00.149565) can0 E3#4100050801E9D8DE769E0F55
(00.153132) can0 DB#390F0015C22EBD20FFFF7FCFFFFF3FFFFFFFFFFFFF28A13BC600000000000000
(00.154902) can0 2D#B3DDC605C409009070972E626F5205000800A0FEFFFF7F5002D235FFFFFFFF00FEFF2C293B7900000000000000000000
(00.165566) can0 DC#391000163DDEC3AE2A0AFADCF034280000000000FFFF286ACE55000000000000
(00.165946) can0 18E19490#0300009C019C010000000000000000020000000000000000000000000000000000B80C011000E40C00000000000054D9054E16D20CC409001311001505150000
(00.168001) can0 DB#390E0020ED8BBDF8F77E831A3FA47F55424DC116B3281D5C060300F1FFFFFFFF29497691000000000000000000000000
(00.168709) can0 D9#391300155E2EC132A0410DF38E1258F1FFFFFFFFFF296FD0B200000000000000
(00.173123) can0 DB#390F0015E41FBE20FFFF7FCFFFFF3FFFFFFFFFFFFF2A98DFA000000000000000
(00.174892) can0 2D#ACD4C705C409009070972E626F5205000800A0FEFFFF7F5002D235FFFFFFFF00FEFF2EA4202800000000000000000000
(00.185604) can0 DC#39100110153F41004300A642109C002205F0FFF1391000164AC5C4AE2A0AFADCEC34280000000000FFFF2A20B4DF0000
(00.187951) can0 DB#390E0020D1EFBEF8F77E831A3FA37F55424DC116B3281D5C060300F1FFFFFFFF2B60B6C3000000000000000000000000
(00.189634) can0 D9#391300158A39C233A0420DF28E1258F1FFFFFFFFFF2BB6D8F300000000000000
(00.193114) can0 DB#390F0015060FBF20FFFF7FCFFFFF3FFFFFFFFFFFFF2C7524C800000000000000
(00.194905) can0 2D#D1CEC805C409009070972F626F5205000800A0FEFFFF7F5002D235FFFFFFFF00FEFF2F96AEE900000000000000000000
(00.195591) can0 18E19490#040300030003007E36ED0C420D2201F8000806010101010200000000000000000000000000000000000000000000000000000000000000001311001505150000
(00.001736) can0 DC#39100016FD3555AE2A0AFADCF034280000000000FFFF4CBB04E5000000000000
(00.004352) can0 DB#390E0020C0E74FF9F77E831A3FA57FD5424DC116B3281D5C060300F1FFFFFFFF4D1E794F000000000000000000000000
(00.005129) can0 D9#39130015B03B5333A0420DEE8E1260F1FFFFFFFFFF4D9074CF00000000000000
(00.009528) can0 DB#390F0015B64E5020FFFF7FCFFFFF3FFFFFFFFFFFFF4EB9BE9900000000000000
(00.011278) can0 2D#A62E5905C40900907097EC616F5205000800A0FEFFFF7F5002D235FFFFFFFF00FEFF52A28ECD00000000000000000000
(00.011802) can0 18E19490#000000A50000005001000000000000000000001A5A9000000000010000000000000000004A4A4BEA00E9001201FC00F500F7004A4A4A3E011311001505150000
(00.021843) can0 DC#39100110153F41004300F642109C002205F0FFF539100016B0DD56AE2A0AFADCF034280000000000FFFF4E4075000000
(00.024353) can0 DB#390E0020599050F9F77E831A3FA47FD5424DC116B3281D5C060300F1FFFFFFFF4F49C6F3000000000000000000000000
(00.025939) can0 E3#410000080057314B41463545
(00.026412) can0 D9#39130015CE135433A0424DEE8E1260F1FFFFFFFFFF4F8B2DD400000000000000
(00.029531) can0 DB#390F0015545E5120FFFF7FCFFFFF3FFFFFFFFFFFFF501FC67300000000000000
(00.031316) can0 2D#5F585A05C40900907097ED616F5205000800A0FEFFFF7F5002D235FFFFFFFF00FEFF541C5B0700000000000000000000
(00.031843) can0 DC08E2#4002000000000000
(00.041331) can0 E3#008000044128A404410000080142315052313138
(00.041830) can0 DC#39100016947557AE2A0AFADCF034280000000000FFFF502C0D38000000000000
(00.042214) can0 18E19490#0101003C0DF800800CFF00BC02060600000000401F020000AC0D2A2B012003000002AE012C1200000202C1035B390000AC0D401F0C0B0E4B1311001505150000
(00.044514) can0 DB#390E00203B6151F9F77E831A3FA57FD5424DC116B3281D5C060300F1FFFFFFFF51B7317C000000000000000000000000
(00.045035) can0 D9#391300155CEC5533A0428DEE8E1260F1FFFFFFFFFF51DA81B800000000000000
(00.049516) can0 DB#390F0015726F5220FFFF7FCFFFFF3FFFFFFFFFFFFF52F5376400000000000000
(00.051308) can0 2D#28E75B05C40900907097EE616F5205000800A0FEFFFF7F5002D235FFFFFFFF00FEFF567F9A4900000000000000000000
(00.051834) can0 D4#39040604C509E189
(00.061369) can0 E3#4100050800800343CB8056DB41000008023439375501EAEA0500000CF5FCFF00000000005921E39C0000000000000000
(00.061892) can0 DC#391000168E0C58AE2A0AFADCF034280000000000FFFF52555B00000000000000
(00.064387) can0 DB#390E010F2C35FFFFFFFFFFFFFF0FD308BCFDFF390E0020870C52F9F77E831A3FA57FD5424DC116B3281D5C060300F1FFFFFFFF53A60C73000000000000000000
(00.065249) can0 D9#391300150A325633A0424DEE8E1260F1FFFFFFFFFF539F235F00000000000000
(00.069516) can0 DB#390F0015907F5320FFFF7FCFFFFF3FFFFFFFFFFFFF54964A7B00000000000000
(00.071290) can0 2D#75D85C05C40900907097EE616F5205000800A0FEFFFF7F5002D235FFFFFFFF00FEFF58C8CF7100000000000000000000
(00.071814) can0 D4#39040C050E0FF4FFFF390C140CFFFFFF01FEFFFFFFFFFFFFFF00000000000000
(00.072204) can0 18E19490#02880064646401000000C412A0B5000000000000E800EB00BD04010001000000FFFF00004E14D0059705871300000000B80C800C6E0F2C0D1311001505150000
(00.075899) can0 E3#39060B080051511400C0CFFF39042208003B877E780FFAFF
(00.081904) can0 DC#39100016AAA459AE2A0AFADCF034280000000000FFFF54175C41000000000000
(00.084373) can0 DB#390E0020E5FD53F9F77E831A3FA47FD5424DC116B3281D5C060300F1FFFFFFFF5521A7A3000000000000000000000000
(00.085137) can0 D9#39130015D7FF5734A042CDEE8E1260F1FFFFFFFFFF558680E83913010B4CB9E8549500FE03BAFFEF0000000000000000
(00.085960) can0 E3#41000508016397AAFD31315C3980000C007F21927DD2AFFE5BF3861F41000008031C603CB44F00000000000000000000
(00.089555) can0 DB#390F00153E0D5420FFFF7FCFFFFF3FFFFFFFFFFFFF5652ABCF00000000000000
(00.091296) can0 2D#B2BC5D05C40900907097EF616F5205000800A0FEFFFF7F5002D235FFFFFFFF00FEFF5AEF767200000000000000000000
(00.094331) can0 DC085D#4002000000000000
(00.101775) can0 DC#39100016E74C5AAE2A0AFADCF034280000000000FFFF56F79BB9000000000000
(00.102155) can0 18E19490#0300009F019F010000000000000000020000000000000000000000000000000000B80C011000E40C00000000000054D8055716D50CC409001311001505150000
(00.104403) can0 DB#390E0020FFD754F9F77E831A3FA57FD5424DC116B3281D5C060300F1FFFFFFFF57FABD36000000000000000000000000
(00.105130) can0 D9#39130015F6625833A042CDEE8E1260F1FFFFFFFFFF570A73CD00000000000000
(00.109542) can0 DB#390F0015DC1D5520FFFF7FCFFFFF3FFFFFFFFFFFFF583926BD00000000000000
(00.111282) can0 2D#93A75E05C40900907097EF616F5205000800A0FEFFFF7F5002D235FFFFFFFF00FEFF5C3C549200000000000000000000
(00.121789) can0 DC#39100110153F41004300FE42109C002205F0FFF539100016C3E45BAE2A0AFADCF034280000000000FFFF586C639F0000
(00.124350) can0 DB#390E00206BF355F9F77E831A3FA57FD5424DC116B3281D5C060300F1FFFFFFFF5936185C000000000000000000000000
(00.126355) can0 D9#39130015B4C75933A0424DEE8E1260F1FFFFFFFFFF5936B53200000000000000
(00.129515) can0 DB#390F0015FA2C5620FFFF7FCFFFFF3FFFFFFFFFFFFF5A34618B00000000000000
(00.131298) can0 2D#405C5F05C40900907097F0616F5205000800A0FEFFFF7F5002D235FFFFFFFF00FEFF5EFE9C8D00000000000000000000
(00.131826) can0 18E19490#040300030003008836ED0C430D2201F8000806010101010200000000000000000000000000000000000000000000000000000000000000001311001505150000
(00.141313) can0 E3#00800004F55EA504
(00.141888) can0 DC#391000165C8C5CAE2A0AFADCF034280000000000FFFF5AFCEB5F000000000000
(00.144496) can0 DB#390E0020D79E56F9F77E831A3FA57FD5424DC116B3281D5C060300F1FFFFFFFF5B0FF514000000000000000000000000
(00.145016) can0 D9#3913001537AF5A33A0420DEF8E1260F1FFFFFFFFFF5B84C55600000000000000
(00.145394) can0 44#04
(00.149516) can0 DB#390F0015183C5720FFFF7FCFFFFF3FFFFFFFFFFFFF5C62C38B00000000000000
(00.151314) can0 2D#0CE46005C40900907097F1616F5205000800A0FEFFFF7F5002D235FFFFFFFF00FEFF6021BE3E00000000000000000000
(00.151845) can0 D4#390406041992E289
(00.161747) can0 DC#3910001678245DAE2A0AFADCF034280000000000FFFF5C35513E000000000000
(00.162129) can0 18E19490#000000A50000005001000000000000000000001A5A9000000000010000000000000000004A4A4BEA00E8001201FC00F500F7004A4A4A44011311001505150000
(00.164362) can0 DB#390E010F2C35FFFFFFFFFFFFFF0FD308BCFDFF390E002043BA57F9F77E831A3FA57FD5424DC116B3281D5C060300F1FFFFFFFF5DC62F2D000000000000000000
(00.165228) can0 D9#39130015A5505B33A042CDEF8E1260F1FFFFFFFFFF5DA5857000000000000000
(00.165996) can0 E3#4100050800800343CB806051
(00.169530) can0 DB#390F0015A6C95820FFFF7FCFFFFF3FFFFFFFFFFFFF5E14442100000000000000
(00.171301) can0 2D#13ED6105C40900907097F1616F5205000800A0FEFFFF7F5002D235FFFFFFFF00FEFF62FAD7FC00000000000000000000
(00.171830) can0 D4#39040C050E0FF4FFFF391501143EE191E1F85FF5FFFFFFFFFE07009F2801FEFFFF390C140CFFFFFF01FEFFFFFFFFFFFFFF000000000000000000000000000000
(00.175897) can0 E3#39060B080051511400C0CFFF39042208003B867E780FFAFF
(00.181824) can0 DC#3910001635CC5EAE2A0AFADCF034280000000000FFFF5EB687F8000000000000
(00.184378) can0 DB#390F01064B8504602019390E00202E7158F9F77E831A3FA57FD5424DC116B3281D5C060300F1FFFFFFFF5F466D470000
(00.185146) can0 D9#39130015C8E95C33A0420DF08E1260F1FFFFFFFFFF5FBE7E063913010B4CB9E8549500FE03BAFFEF0000000000000000
(00.185954) can0 E3#4100050801BA9C1952FD2209
(00.189531) can0 DB#390F001544D95920FFFF7FCFFFFF3FFFFFFFFFFFFF60AD7B3200000000000000
(00.191280) can0 2D#5A406205C40900907097F2616F5205000800A0FEFFFF7F5002D235FFFFFFFF00FEFF64DC21FB00000000000000000000
(00.191806) can0 18E19490#0102003C0DF700800CFF00BC02060600000000401F020000AC0D2A2B012003000002AD012E1200000202C00353390000AC0D401F0C0C1E4B1311001505150000
(00.005172) can0 E3#0080000410018F04
(00.005389) can0 DC#391000165AA1EEAE2A0AFADCF034280000000000FFFF7E0851D4000000000000
(00.005771) can0 18E19490#0102003C0DF800800CFF00BC02060600000000401F020000AC0D2E2B012003000002AD012E1200000202C10353390000AC0D401F0C5B054B1311001505150000
(00.008368) can0 DB#39FE0B086100000001000000390E002038D5E8F9077F831A3FA67F55434DC116B3281D5C060300F1FFFFFFFF7E632A53
(00.008898) can0 D9#3913001518F0EC34A0428DE78E1268F1FFFFFFFFFF7F7AE42C00000000000000
(00.009274) can0 44#04
(00.013380) can0 DB#390F00154F0BE920FFFF7FCFFFFF3FFFFFFFFFFFFF7FAD39B900000000000000
(00.015156) can0 2D#88E2F205C40900907097AF616F5205000800A0FEFFFF7F5002D235FFFFFFFF00FEFF84BAD07700000000000000000000
(00.015680) can0 D4#390406040D07CC89
(00.022984) can0 DB#390E022A3E004A00650ABC411884010047403E49E0D16CC24B85D60D8D72F847CE43068867E9FFFFFFFF7F35400A0000
(00.025352) can0 DC#391000167E09EFAE2A0AFADCF034280000000000FFFF80F8F759000000000000
(00.028224) can0 DB#390E010F2435FFFFFFFFFFFFFF0FD308BCFDFF390E0308F62D14F8FFFFFFFF00
(00.028610) can0 21C#23000000000000000000000000000000000000000000000000000000000000000000000000000000000000000000000000000000000000000000000000000000
(00.029320) can0 D9#39130015D83DED34A0430DE88E1268F1FFFFFFFFFF81851B1800000000000000
(00.029860) can0 E3#4100050800800343CB7F840B
(00.033306) can0 DB#390E0020D830E9F9077F831A3FA67F15434DC116B3281D5C060300F1FFFFFFFF801FD16B390F0015693AEA20FFFF7FCFFFFF3FFFFFFFFFFFFF81CD0615000000
(00.035158) can0 2D#97EBF305C40900907097AF616F5205000800A0FEFFFF7F5002D235FFFFFFFF00FEFF8619251900000000000000000000
(00.035683) can0 D4#39040C050E0FF4FFFF391501143EDD91E1F85FF5FFFFFFFFFE07009F2801FEFFFF390C140CFFFFFF01FEFFFFFFFFFFFFFF000000000000000000000000000000
(00.036362) can0 18E19490#02880064646401000000E1126381000000000000E900EB00BC04010000000000000000004D14D1059805851300000000B80C800C6E0F2C0D1311001505150000
(00.039776) can0 E3#39060B080051511400C0CFFF39042208003B867E780FFAFF
(00.043088) can0 DB#390E04105CE30B4C24B4DBFFEF2D6C6DEBFFFFFF390F01064B85046020190000
(00.045474) can0 DC#391000166E53F0AE2A0AFADCF034280000000000FFFF820D8AB0000000000000
(00.048236) can0 DB#390E0020645DEAF9077F831A3FA67F15434DC116B3281D5C060300F1FFFFFFFF82735172000000000000000000000000
(00.048912) can0 D9#391300150C8BEE34A042CDE78E1268F1FFFFFFFFFF8385F3403913010B4BB9E8549500FE03BAFFEF0000000000000000
(00.049814) can0 E3#410005080190BDF477C198CA
(00.053394) can0 DB#390F00158B2AEB20FFFF7FCFFFFF3FFFFFFFFFFFFF838DFA3700000000000000
(00.055146) can0 2D#703DF405C40900907097B0216F5205000800A0FEFFFF7F5002D235FFFFFFFF00FEFF88D5F1DC00000000000000000000
(00.058222) can0 21C#2400000000000000
(00.065359) can0 DC#391000164AFBF1AE2A0AFADCF034280000000000FFFF84E05080000000000000
(00.065743) can0 18E19490#0300009A019A010000000000000000020000000000000000000000000000000000B80C011000E40C00000000000054D9055B16D40CC409001311001505150000
(00.068264) can0 DB#390E0020F079EBF9077F831A3FA67F15434DC116B3281D5C060300F1FFFFFFFF85771023000000000000000000000000
(00.068787) can0 D9#391300159E74EF34A0420DE78E1268F1FFFFFFFFFF85F183A700000000000000
(00.073390) can0 DB#390F00152558EC20FFFF7FCFFFFF3FFFFFFFFFFFFF86D6292600000000000000
(00.075140) can0 2D#6F34F505C40900907097B0216F5205000800A0FEFFFF7F5002D235FFFFFFFF00FEFF8A5B14A200000000000000000000
(00.085378) can0 DC#39100110153F413043005612119C002205F0FFF1391000160713F2AE2A0AFADCF034280000000000FFFF86AD68A40000
(00.088216) can0 DB#390E00201C86ECF9077F831A3FA67F15434DC116B3281D5C060300F1FFFFFFFF878BA732000000000000000000000000
(00.089649) can0 D9#39130015F1C5F034A0424DE78E1268F1FFFFFFFFFF870C850800000000000000
(00.090026) can0 E3#410000080057314B41463545
(00.093391) can0 DB#390F0015C748ED20FFFF7FCFFFFF3FFFFFFFFFFFFF8877C89800000000000000
(00.095131) can0 2D#9642F605C40900907097B1216F5205000800A0FEFFFF7F5002D235FFFFFFFF00FEFF8C79021400000000000000000000
(00.095656) can0 DC08E2#4002000000000000
(00.095947) can0 18E19490#040300030003008836ED0C430D2201F8000806010101010200000000000000000000000000000000000000000000000000000000000000001311001505150000
(00.105182) can0 E3#0080000459CE9004410000080142315052313138
(00.105452) can0 DC#3910001623BBF3AE2A0AFADCF034280000000000FFFF8829380B000000000000
(00.108375) can0 DB#390E002088A2EDF9077F831A3FA67F15434DC116B3281D5C060300F1FFFFFFFF892DCE61000000000000000000000000
(00.109153) can0 D9#3913001513D5F134A0424DE78E1268F1FFFFFFFFFF89880E0B00000000000000
(00.113378) can0 DB#390F0015E179EE20FFFF7FCFFFFF3FFFFFFFFFFFFF8A3F42CF00000000000000
(00.115184) can0 2D#E1FDF705C40900907097B2216F5205000800A0FEFFFF7F5002D235FFFFFFFF00FEFF8E1DF4B800000000000000000000
(00.115711) can0 D4#39040604B971CD89
(00.119825) can0 E3#410002080007E706170F142E
(00.125207) can0 E3#4100050800800343CB7F8EF741000008023439378DE207870500000CF5FCFF000000000091BBCEE00000000000000000
(00.125730) can0 DC#39100016897EF4AE2A0AFADCF434280000000000FFFF8AC7DD1D000000000000
(00.126112) can0 18E19490#000000A50000005001000000000000000000001A5A9000000000010000000000000000004A4A4BE900E8001101FC00F400F7004A4A4AFF001311001505150000
(00.128247) can0 DB#390E010F2435FFFFFFFFFFFFFF0FD308BCFDFF390E002034CFEEF9077F831A3FA67F15434DC116B3281D5C060300F1FFFFFFFF8B201B37000000000000000000
(00.128906) can0 D9#39130015E5BEF234A0420DE78E1268F1FFFFFFFFFF8B49B88E00000000000000
(00.133378) can0 DB#390F00150369EF20FFFF7FCFFFFF3FFFFFFFFFFFFF8C5A2DF400000000000000
(00.135167) can0 2D#448AF805C40900907097B2216F5205000800A0FEFFFF7F5002D235FFFFFFFF00FEFF9064859300000000000000000000
(00.135692) can0 D4#39040C050E0FF4FFFF390C140CFFFFFF01FEFFFFFFFFFFFFFF00000000000000
(00.139771) can0 E3#39060B080051511400C0CFFF39042208003B877E780FFAFF410002080101B9A313EA90D6000000000000000000000000
(00.145429) can0 DC#39100016987BF5AE2A0AFADCF034280000000000FFFF8CAB3484000000000000
(00.148234) can0 DB#390E0020A0EBEFF9077F831A3FA67F15434DC116B3281D5C060300F1FFFFFFFF8D654762000000000000000000000000
(00.148756) can0 D9#391300157741F334A042CDE78E1268F1FFFFFFFFFF8DAEB7813913010B4BB9E8549500FE03BAFFEF0000000000000000
(00.149872) can0 E3#41000508011FC036211FEB133980000C00FF299292D2AFFE93ED6EF24100000803EDBFCAA2E600000000000000000000
(00.153485) can0 DB#390F0015BC82F020FFFF7FCFFFFF3FFFFFFFFFFFFF8EEC8A3F00000000000000
(00.155149) can0 2D#83EEF905C40900907097B3216F5205000800A0FEFFFF7F5002D235FFFFFFFF00FEFF9250C85300000000000000000000
(00.155675) can0 18E19490#0102003C0DF700800CFA00BC02060600000000401F020000AC0D2E2B012003000002AD012E1200000202C0034B390000AC0D401F0C5C154B1311001505150000
(00.158191) can0 DC085D#4002000000000000
(00.159774) can0 E3#4100020802C91D10C4C0DEDE
(00.165457) can0 DC#39100016D593F6AE2A0AFADCF034280000000000FFFF8E07FB7B000000000000
(00.168208) can0 DB#390E0020CF49F0F9077F831A3FA67F15434DC116B3281D5C060300F1FFFFFFFF8F29566A000000000000000000000000
(00.168893) can0 D9#391300157986F434A0424DE78E1268F1FFFFFFFFFF8F36B02200000000000000
(00.173388) can0 DB#390F00155E92F120FFFF7FCFFFFF3FFFFFFFFFFFFF90D85CBB00000000000000
(00.175239) can0 2D#A2F5FA05C40900907097B3216F5205000800A0FEFFFF7F5002D235FFFFFFFF00FEFF9460E59400000000000000000000
(00.185384) can0 DC#39100110153F413843005E06119C002205F0FFF139100016F13BF7AE2A0AFADCF034280000000000FFFF90C2CEF20000
(00.185901) can0 18E19490#02880064646401000000AF125FB5000000000000E800EB00BD04010001000100010000005014D1059905851300000000B80C800C280F2C0D1311001505150000
(00.188214) can0 DB#390E00206003F1F9077F831A3FA57F15434DC116B3281D5C060300F1FFFFFFFF91B76006000000000000000000000000
(00.189654) can0 D9#391300154BCCF534A0420DE78E1268F1FFFFFFFFFF914B174300000000000000
(00.193376) can0 DB#390F001578A3F220FFFF7FCFFFFF3FFFFFFFFFFFFF92EED8B200000000000000
(00.195136) can0 2D#94EDFB05C40900907097B4216F5205000800A0FEFFFF7F5002D235FFFFFFFF00FEFF961C08A700000000000000000000
(00.000792) can0 DC#391000169B3F85AE2A0AFADCF434280000000000FFFFAB908A0D000000000000
(00.001173) can0 E3#0080000418227A04
(00.001338) can0 18E19490#0102003D0DF800800CFF00BC02060600000000401F020000AC0D2E2B012003000002AD012A1200000202C103EA380000AC0D401F0C462D4B1311001505150000
(00.004026) can0 DB#390E0020FDEB7FFA077F831A3FAB7FD5434DC116B3281D5C060300F1FFFFFFFFACD7014B000000000000000000000000
(00.004548) can0 D9#39130015C1B18334A0434DE66E1268F1FFFFFFFFFFAB56A40B00000000000000
(00.009119) can0 DB#390F0015BBD88020FFFF7FCFFFFF3FFFFFFFFFFFFFAD3209EB00000000000000
(00.010894) can0 2D#0F0F8905C4090090709770616F5205000800A0FEFFFF7F4C02D235FFFFFFFF00FEFFB2772C5800000000000000000000
(00.011422) can0 D4#39040604675BB789
(00.020798) can0 DC#39100016D6D786AE2A0AFADCF434280000000000FFFFAD7D7396000000000000
(00.021178) can0 E3#4100050800800343CB7EB2210500000CF5FCFF0000000000B5C6AC5F00000000
(00.023906) can0 DB#390E010F2C35FFFFFFFFFFFFFF0FD308BCFDFF390E0020CC5780FA077F831A3FAB7FD5434DC116B3281D5C060300F1FFFFFFFFAEB63285000000000000000000
(00.024564) can0 D9#391300156FC38434A0434DE66E1268F1FFFFFFFFFFAD193E7800000000000000
(00.029116) can0 DB#390F001559C88120FFFF7FCFFFFF3FFFFFFFFFFFFFAF545D8600000000000000
(00.030795) can0 2D#2E148A05C4090090709770616F5205000800A0FEFFFF7F4C02D235FFFFFFFF00FEFFB4C504CE00000000000000000000
(00.031320) can0 D4#39040C050E0FF4FFFF39FE1D085940B2084A020000390C140CFFFFFF01FEFFFFFFFFFFFFFF0000000000000000000000
(00.031851) can0 18E0658D#0322F100AAAAAAAA
(00.032046) can0 18E19490#02880064646401000000D11290CC000000000000E800EB00BC04010000000100020000004D14D1058F05871300000000B80C800C5D0F2C0D1311001505150000
(00.035417) can0 E3#39060B080051511400C0CFFF39042208003B877E780FFAFF
(00.035722) can0 4F#20EB03A000499B4C
(00.039546) can0 D9#39FE280829000000000000003913001512D68534A0434DE56E1268F1FFFFFFFFFFAF44AEB70000000000000000000000
(00.040939) can0 DC#39100016F27F87AE2A0AFADCF434280000000000FFFFAF9057B2000000000000
(00.043991) can0 DB#390E0020AEA681FA077F831A3FAA7FD5434DC116B3281D5C060300F1FFFFFFFFB0AE8AAE000000000000000000000000
(00.045459) can0 E3#4100050801F99F3D2E2B70D03980000C00FF009194D2AFFEB75D9C4600000000
(00.049050) can0 DB#390F00157FF98220FFFF7FCFFFFF3FFFFFFFFFFFFFB1F81B2400000000000000
(00.049440) can0 D9#3913010B4BBAE8549500FE03BAFFEF00
(00.050845) can0 2D#07968B05C4090090709771616F5205000800A0FEFFFF7F5002D235FFFFFFFF00FEFFB69A685300000000000000000000
(00.060807) can0 DC#39100016E80688AE2A0AFADCF434280000000000FFFFB18CFC8E000000000000
(00.061188) can0 18E19490#0300009B019B010000000000000000020000000000000000000000000000000000B80C011000E40C00000000000054DA055316D80CC409001311001505150000
(00.063991) can0 DB#390E002012CB82FA077F831A3FAA7FD5434DC116B3281D5C060300F1FFFFFFFFB311ED9C000000000000000000000000
(00.064512) can0 D9#3913001544088634A0438DE56E1268F1FFFFFFFFFFB35EA88F00000000000000
(00.068887) can0 21C#110201067380763C7A247E0C81F485DC89C4957C9770000000000000000000000000000000000000000000000000000000000000000000000000000000000000
(00.069681) can0 DB#390F00159DE98320FFFF7FCFFFFF3FFFFFFFFFFFFFB3A7113900000000000000
(00.070833) can0 2D#5AA98C05C4090090709771616F5205000800A0FEFFFF7F5002D235FFFFFFFF00FEFFB8D8479F00000000000000000000
(00.080820) can0 DC#39100110153F41004300AE42109C002205F0FFF139100016CCAE89AE2A0AFADCF434280000000000FFFFB49E2C630000
(00.083882) can0 DB#390E002086EF83FA077F831A3FAA7FD5434DC116B3281D5C060300F1FFFFFFFFB43DA64B000000000000000000000000
(00.085529) can0 D9#3913001506AD8734A0430DE56E1268F1FFFFFFFFFFB555576D00000000000000
(00.085904) can0 4F#28380300281689BE
(00.089116) can0 DB#390F0015339B8420FFFF7FCFFFFF3FFFFFFFFFFFFFB5FAFDA100000000000000
(00.090780) can0 2D#2D168D05C4090090709772616F5205000800A0FEFFFF7F5002D235FFFFFFFF00FEFFBA50DA7F00000000000000000000
(00.091304) can0 18E19490#040300030003008836ED0C430D2201F8000806010101010200000000000000000000000000000000000000000000000000000000000000001311001505150000
(00.100821) can0 E3#00800004AC547B04
(00.100983) can0 DC#3910001681468AAE2A0AFADCF434280000000000FFFFB627AFF6000000000000
(00.101364) can0 21D#300128
(00.101517) can0 21C#21000000000000000000000000000000000000000000000000000000000000000000000000000000000000000000000000000000000000000000000000000000
(00.104034) can0 DB#39FE0B086100000001000000390E0020517E84FA077F831A3FA97FD5434DC116B3281D5C060300F1FFFFFFFFB6AC0A2E
(00.104549) can0 D9#3913001586538834A0430DE36E1268F1FFFFFFFFFFB7ED96DA00000000000000
(00.104925) can0 44#04
(00.109115) can0 DB#390F0015D18B8520FFFF7FCFFFFF3FFFFFFFFFFFFFB7B7C9E100000000000000
(00.110930) can0 2D#D4608E05C4090090709773616F5205000800A0FEFFFF7F5002D235FFFFFFFF00FEFFBCFBAC4700000000000000000000
(00.111455) can0 D4#39040604898FB889
(00.118649) can0 DB#390E022A3E004900650ABC411884010047403E49E0D16CC24B85D60D8D62F847CE43068867E9FFFFFFFFB7354C790000
(00.120803) can0 DC#39100016A5EE8BAE2A0AFADCF434280000000000FFFFB8404F1A000000000000
(00.121184) can0 18E19490#000000A50000005001000000000000000000001A5A9000000000020000000000000000004A4A4BE900E8001101FC00F500F6004A4A4AFF001311001505150000
(00.123890) can0 DB#390E010F1835FFFFFFFFFFFFFF0FD308BCFDFF390E03083DAD12F8FFFFFFFF00
(00.124269) can0 D9#391300150DFF8937A0430DD76E1268F1FFFFFFFFFFB97315FC00000000000000
(00.125468) can0 E3#4100050800800343CB7EBCF4
(00.129039) can0 DB#390E0020C55A85FA077F831A3FA97FD5434DC116B3281D5C060300F1FFFFFFFFB8EE48A9390F0015F7BA8620FFFF7FCFFFFF3FFFFFFFFFFFFFB94BE0D0000000
(00.130809) can0 2D#CB698F05C4090090709773616F5205000800A0FEFFFF7F5002D235FFFFFFFF00FEFFBE10B0E200000000000000000000
(00.131336) can0 D4#39040C050E0FF4FFFF391501143ED991E1F85FF5FFFFFFFFFE07009F2801FEFFFF390C140CFFFFFF01FEFFFFFFFFFFFFFF000000000000000000000000000000
(00.135421) can0 E3#39060B080051511400C0CFFF39042208003B867E780FFAFF
(00.138752) can0 DB#390E04105CE30B4C24B4DBFFEF2D6C6DEBFFFFFF390F01064B850460E4180000
(00.140886) can0 DC#391000163A868CAE2A0AFADCF434280000000000FFFFBAA17B0C000000000000
(00.143901) can0 DB#390E0020C05E86FA077F831A3FA57F95434DC116B3281D5C060300F1FFFFFFFFBAA4223A000000000000000000000000
(00.144422) can0 D9#3913001541998A38A0434DD26E1270F1FFFFFFFFFFBB22851F3913010B4BBAE8549500FE03BAFFEF0000000000000000
(00.145435) can0 E3#41000508012970E494944959
(00.145627) can0 21D#300128
(00.145780) can0 21C#22000000000000000000000000000000000000000000000000000000000000000000000000000000000000000000000000000000000000000000000000000000
(00.146498) can0 21D#300128
(00.146654) can0 21C#23000000000000000000000000000000000000000000000000000000000000000000000000000000000000000000000000000000000000000000000000000000
(00.147370) can0 21D#300128
(00.147517) can0 21C#2400000000000000
(00.149130) can0 DB#390F001515AA8720FFFF7FCFFFFF3FFFFFFFFFFFFFBB55636C00000000000000
(00.150784) can0 2D#B79E9005C4090090709774616F5205000800A0FEFFFF7F5002D235FFFFFFFF00FEFFC06E78C700000000000000000000
(00.151309) can0 18E19490#0102003D0DF700800CFF00BC02060600000000401F020000AC0D2E2B012003000002AE012C1200000202C2033B390000AC0D401F0C470B4B1311001505150000
(00.160893) can0 DC#391000161E2E8DAE2A0AFADCF434280000000000FFFFBC1031C9000000000000
(00.163880) can0 DB#390E002099C187FA077F831A3FA77F95434DC116B3281D5C060300F1FFFFFFFFBD7B10AB000000000000000000000000
(00.164400) can0 D9#39130015DFCE8B36A0438DD98E1270F1FFFFFFFFFFBDD7FC5100000000000000
(00.169125) can0 DB#390F0015AB5F8820FFFF7FCFFFFF3FFFFFFFFFFFFFBECE487400000000000000
(00.170845) can0 2D#A8979105C4090090709774616F5205000800A0FEFFFF7F5002D235FFFFFFFF00FEFFC212275F00000000000000000000
(00.180822) can0 DC#39100110153F41004300B652119C002205F0FFF13910001653C68EAE2A0AFADCF434280000000000FFFFBEF0E97B0000
(00.181338) can0 18E19490#028800646464010000008112A0B5000000000000E800EB00BD04000001000000030000004B14D1058D05881300000000B80C800C6E0F2C0D1311001505150000
(00.183881) can0 DB#390E002002CC88FA077F831A3FA87F95434DC116B3281D5C060300F1FFFFFFFFBF3E1713000000000000000000000000
(00.185196) can0 D9#391300152F9B8C36A0438DDC8E1278F1FFFFFFFFFFBFBF70E500000000000000
(00.189115) can0 DB#390F0015494F8920FFFF7FCFFFFF3FFFFFFFFFFFFFC0AD415000000000000000
(00.190777) can0 2D#51E19205C4090090709775616F5205000800A0FEFFFF7F5002D235FFFFFFFF00FEFFC4FB692300000000000000000000
(00.191302) can0 E3#410000080057314B41463545
(00.191498) can0 DC08E2#4002000000000000
(00.002653) can0 DB#390F0015D8651520FFFF7FCFFFFF3FFFFFFFFFFFFFD8C5D6E200000000000000
(00.004182) can0 18E19490#000000A50000005001000000000000000000001A5A9200000000010000000000000000004A4A4BEA00E8001001FC00F500F700494A4A19011311001505150000
(00.004898) can0 2D#21861E05C409009070972F616F5205000800A0FEFFFF7F5802D235FFFFFFFF00FEFFDCE2A15A00000000000000000000
(00.014207) can0 DC#39100110153F41004300FE42109C002205F0FFF539100016DEC51BAE2A0AFADCF434280000000000FFFFD85AB9EE0000
(00.017411) can0 DB#390E0020BFFC15FA177F831A3FAC7F55444DC116B3281D5C060300F1FFFFFFFFD9884F6F000000000000000000000000
(00.019019) can0 D9#391300158645193AA0434DCCCE1290F1FFFFFFFFFFD96A1AB300000000000000
(00.022644) can0 DB#390F0015FE541620FFFF7FCFFFFF3FFFFFFFFFFFFFDA4B431200000000000000
(00.024305) can0 2D#F27D1F05C4090090709730616F5205000800A0FEFFFF7F5802D235FFFFFFFF00FEFFDD9B34BD00000000000000000000
(00.034121) can0 DC#3910001641AD1CAE2A0AFADCF434280000000000FFFFDA49ABB4000000000000
(00.034501) can0 E3#0080000451ED6504
(00.034663) can0 18E19490#0102003D0DF800800CFF00BC02060600000000401F020000AC0D2D2B012003000002AC012B1200000202BF03173A0000AC0D401F0C31234B1311001505150000
(00.037554) can0 DB#390E0020839816FA177F831A3FAB7F55444DC116B3281D5C060300F1FFFFFFFFDB894447000000000000000000000000
(00.038076) can0 D9#39130015A3E81A3AA0448DCDCE1290F1FFFFFFFFFFDBE2D98C00000000000000
(00.038453) can0 44#04
(00.042645) can0 DB#390F00151C441720FFFF7FCFFFFF3FFFFFFFFFFFFFDCE0B1B000000000000000
(00.044314) can0 2D#BEC52005C4090090709731616F5205000800A0FEFFFF7F5802D235FFFFFFFF00FEFFDF2DBF8A00000000000000000000
(00.044842) can0 D4#3904060485FCA289
(00.054127) can0 DC#3910001665051DAE2A0AFADCF434280000000000FFFFDCDABC66000000000000
(00.057421) can0 DB#390E010F2035FFFFFFFFFFFFFF0FD308BCFDFF390E002097B517FA177F831A3FAC7F55444DC116B3281D5C060300F1FFFFFFFFDD0AB627000000000000000000
(00.058079) can0 D9#39130015E14D1B3AA0440DCDCE1290F1FFFFFFFFFFDD73449300000000000000
(00.058896) can0 D4#39040C050E0FF4FFFF391501143ED191E1F85FF5FFFFFFFFFE07009F2801FEFFFF000000000000000000000000000000
(00.059429) can0 E3#4100050800800343CB7DDFFE
(00.059626) can0 D4#390C083CFE7400800000086C343F3483FF7BDF015027C501A02CE07C8FB30400009E053C400B5AD08216B4A0052D68CF506AFE7F9FE600FFC9FFFFFF833EE4FF
(00.062697) can0 DB#390F0015A2B11820FFFF7FCFFFFF3FFFFFFFFFFFFFDE8DE3C500000000000000
(00.064245) can0 18E19490#02880064646401000000D31250D6000000000000E900EB00BC04010001000000000000004B14D305AB05871300000000B70C800C490F2C0D1311001505150000
(00.064946) can0 2D#A1CC2105C4090090709731616F5205000800A0FEFFFF7F5802D235FFFFFFFF00FEFFE159BADB00000000000000000000
(00.068931) can0 D4#390C140CFFFFFF01FEFFFFFFFFFFFFFF390C1608FFFFFFFFFFFFFFFF00000000
(00.069322) can0 E3#39060B080051511400C0CFFF39042208003B867E780FFAFF
(00.074267) can0 DC#3910001628ED1EAE2A0AFADCF434280000000000FFFFDE00169B000000000000
(00.077438) can0 DB#390F01064B8504607C17390E00207A7718FA177F831A3FAB7F55444DC116B3281D5C060300F1FFFFFFFFDF0FD2BC0000
(00.077951) can0 D9#391300154F3F1C3AA0440DCDCE1290F1FFFFFFFFFFDF490E953913010B4BB9E8549500FE03BAFFEF0000000000000000
(00.078969) can0 E3#4100050801BBE716462A73CA
(00.082660) can0 DB#390F001540A11920FFFF7FCFFFFF3FFFFFFFFFFFFFE0A807BB00000000000000
(00.084314) can0 2D#E8612205C4090090709732616F5205000800A0FEFFFF7F5802D235FFFFFFFF00FEFFE351679700000000000000000000
(00.094122) can0 DC#391000160C451FAE2A0AFADCF434280000000000FFFFDF391892000000000000
(00.094504) can0 18E19490#0300009A019A010000000000000000020000000000000000000000000000000000B70C011000E40C00000000000054D9055B16D50CC409001311001505150000
(00.097461) can0 DB#390E00206E5A19FA177F831A3FAC7F55444DC116B3281D5C060300F1FFFFFFFFE0EFC7C3000000000000000000000000
(00.097984) can0 D9#39130015AD2F1D3AA0440DCDCE1290F1FFFFFFFFFFE007A00400000000000000
(00.102652) can0 DB#390F001566901A20FFFF7FCFFFFF3FFFFFFFFFFFFFE1A3D2F300000000000000
(00.104136) can0 DC#39FE6F089401008001000000
(00.104335) can0 2D#F7682305C4090090709732616F5205000800A0FEFFFF7F5802D235FFFFFFFF00FEFFE545BE1F00000000000000000000
(00.114148) can0 DC#39100110153F413043000606119C002205F0FFF139100016085920AE2A0AFADCF434280000000000FFFFE12505E80000
(00.117410) can0 DB#390E0020D2371AFA177F831A3FAC7F55444DC116B3281D5C060300F1FFFFFFFFE2F01E1B000000000000000000000000
(00.119022) can0 D9#391300155D341E3AA0434DCDCE1290F1FFFFFFFFFFE2BB320400000000000000
(00.122642) can0 DB#390F001584801B20FFFF7FCFFFFF3FFFFFFFFFFFFFE352C73100000000000000
(00.124211) can0 18E19490#040300030003007E36EE0C440D2201F8000806010101010200000000000000000000000000000000000000000000000000000000000000001311001505150000
(00.124938) can0 2D#723A2405C4090090709733616F5205000800A0FEFFFF7F5802D235FFFFFFFF00FEFFE883A6EA00000000000000000000
(00.134193) can0 DC#391000162CF121AE2A0AFADCF434280000000000FFFFE3AFF9E2000000000000
(00.134574) can0 E3#3204000CA715F853670700F0E8E0BF5D008000048D766604
(00.137562) can0 DB#390E002046131BFA177F831A3FAC7F55444DC116B3281D5C060300F1FFFFFFFFE4B5F537000000000000000000000000
(00.138082) can0 D9#3913001550CE1F3AA0438DCECE1290F1FFFFFFFFFFE3CF004400000000000000
(00.142642) can0 DB#390F00152AF21C20FFFF7FCFFFFF3FFFFFFFFFFFFFE5B9EE5900000000000000
(00.144417) can0 2D#54972505C4090090709734616F5205000800A0FEFFFF7F5402D235FFFFFFFF00FEFFEAB0428C00000000000000000000
(00.144942) can0 D4#39040604318AA389
(00.154128) can0 DC#39100016611922AE2A0AFADCF434280000000000FFFFE5794EB1000000000000
(00.154507) can0 E3#4100050800800343CB7DEA490500000CF5FCFF0000000000EDF092DB00000000
(00.154890) can0 18E19490#000000A50000005001000000000000000000001A5A9200000000010000000000000000004A4A4BEA00E8001001FC00F500F7004A4A4A2D011311001505150000
(00.157434) can0 DB#390E010F2035FFFFFFFFFFFFFF0FD308BCFDFF390E0020AAEC1CFA177F831A3FAC7F55444DC116B3281D5C060300F1FFFFFFFFE6961388000000000000000000
(00.158094) can0 D9#39130015EB69203AA0448DCECE1290F1FFFFFFFFFFE51B53CD00000000000000
(00.162641) can0 DB#390F0015C8E21D20FFFF7FCFFFFF3FFFFFFFFFFFFFE795A64700000000000000
(00.164304) can0 2D#758C2605C4090090709734616F5205000800A0FEFFFF7F5402D235FFFFFFFF00FEFFEC158EBC00000000000000000000
(00.164829) can0 D4#39040C050E0FF4FFFF39FE1D085940B2084A020000390C140CFFFFFF01FEFFFFFFFFFFFFFF0000000000000000000000
(00.168918) can0 E3#39060B080051511400C0CFFF39042208003B877E780FFAFF
(00.169224) can0 4F#20270FA000499B4A
(00.172946) can0 D9#39FE28082900008000000000391300157FE6213AA0434DCECE1290F1FFFFFFFFFFE74913760000000000000000000000
(00.174188) can0 DC#3910001645B123AE2A0AFADCF434280000000000FFFFE7036E1C000000000000
(00.177519) can0 DB#390E0020BEC11DFA177F831A3FAB7F55444DC116B3281D5C060300F1FFFFFFFFE86F0436000000000000000000000000
(00.178951) can0 E3#4100050801D09679E4F7FC3E3980000C007FF293F1D2AFFEEF597FDA00000000
(00.182571) can0 DB#390F0015EED31E20FFFF7FCFFFFF3FFFFFFFFFFFFFE9E6481300000000000000
(00.182957) can0 D9#3913010B4BB9E8549500FE03BAFFEF00
(00.184199) can0 18E19490#0101003D0DF800800CFF00BC02060600000000401F020000AC0D2D2B012003000002AE012A1200000202C2030F3A0000AC0D401F0C32014B1311001505150000
(00.184904) can0 2D#5D742705C4090090709735616F5205000800A0FEFFFF7F5002D235FFFFFFFF00FEFFEE0CCE2600000000000000000000
(00.194206) can0 DC#39100016DAD924AE2A0AFADCF434280000000000FFFFE9A573FF000000000000
(00.197547) can0 DB#390E0020F6641EFA177F831A3FAC7F15444DC116B3281D5C060300F1FFFFFFFFEB6899A3000000000000000000000000
(00.198069) can0 D9#39130015EF1F223AA0438DD0CE1290F1FFFFFFFFFFEB063E7F00000000000000
(00.001847) can0 DB#390F00150711AF20FFFF7FCFFFFF3FFFFFFFFFFFFF0CBC134800000000000000
(00.003135) can0 18E19490#0288006464640100000084122BB3000000000000E900EB00BC04000000000000000000004B14D305AA05881300000000B70C800C820F2C0D1311001505150000
(00.003841) can0 2D#E3DFB805C40900907097F2606F5205000800A0FEFFFF7F5802D235FFFFFFFF00FEFF106EEA3A00000000000000000000
(00.004369) can0 D4#39040C050E0FF4FFFF390C140CFFFFFF01FEFFFFFFFFFFFFFF00000000000000
(00.008105) can0 E3#39060B080051511400C0CFFF39042208003B877E781FFAFF
(00.013297) can0 DC#39100016855AB5AE2A0AFADCF434280000000000FFFF0CA9C622000000000000
(00.016632) can0 DB#390E0020D825AFFA177F831A3FA87F55444DC116B3281D5C060300F1FFFFFFFF0D035500000000000000000000000000
(00.017154) can0 D9#391300155195B344A0434D97CE12D8F1FFFFFFFFFF0DEAAE853913010B4BB9C8549500FE03BAFFEF0000000000000000
(00.018140) can0 E3#41000508012B4D11B21456263980000C007F609323D3AFFE1396898200000000
(00.021871) can0 DB#390F0015B8FAB020FFFF7FCFFFFF3FFFFFFFFFFFFF0EB466BE00000000000000
(00.023604) can0 2D#24BBB905C40900907097F3606F5205000800A0FEFFFF7F5802D235FFFFFFFF00FEFF1298E95D00000000000000000000
(00.033166) can0 DC#39100016C8B2B6AE2A0AFADCF434280000000000FFFF0EE06955000000000000
(00.033547) can0 18E19490#0300009E019E010000000000000000020000000000000000000000000000000000B70C011000E40C00000000000054DA055316D50CC409001311001505150000
(00.036662) can0 DB#390E0020B787B0FA177F831A3FA87F55444DC116B3281D5C060300F1FFFFFFFF0F88E34B000000000000000000000000
(00.037181) can0 D9#39130015CCAEB444A0430D98CE12D8F1FFFFFFFFFF0FFF855D00000000000000
(00.041855) can0 DB#390F00155AEAB120FFFF7FCFFFFF3FFFFFFFFFFFFF1042D1BF00000000000000
(00.043474) can0 2D#05A0BA05C40900907097F3606F5205000800A0FEFFFF7F5802D235FFFFFFFF00FEFF146529CB00000000000000000000
(00.053174) can0 DC#39100110153F413843005E06119C002205F0FFF139100016EC1AB7AE2A0AFADCF434280000000000FFFF10F380E90000
(00.056613) can0 DB#390E002023A3B1FA177F831A3FA87F55444DC116B3281D5C060300F1FFFFFFFF1137B6CF000000000000000000000000
(00.058089) can0 D9#391300152EBEB544A0430D98CE12D8F1FFFFFFFFFF113DF12E00000000000000
(00.061859) can0 DB#390F00157CDBB220FFFF7FCFFFFF3FFFFFFFFFFFFF12ED9AD200000000000000
(00.063128) can0 18E19490#040300030003008836EE0C440D2201F8000806010101010200000000000000000000000000000000000000000000000000000000000000001311001505150000
(00.063856) can0 2D#33B8BB05C40900907097F4606F5205000800A0FEFFFF7F5802D235FFFFFFFF00FEFF1528AB9400000000000000000000
(00.073231) can0 DC#39100016F663B8AE2A0AFADCF434280000000000FFFF122AF8BC000000000000
(00.073611) can0 E3#00800004490B5104
(00.076740) can0 D9#39130015088FB644A0430D98CE12D8F1FFFFFFFFFF1342CD3000000000000000
(00.077115) can0 DB#390E00209FCEB2FA177F831A3FA87F55444DC116B3281D5C060300F1FFFFFFFF13016AAA000000000000000000000000
(00.077635) can0 44#04
(00.081845) can0 DB#390F00159ECBB320FFFF7FCFFFFF3FFFFFFFFFFFFF148DC36300000000000000
(00.083515) can0 2D#B6EABC05C40900907097F5606F5205000800A0FEFFFF7F5802D235FFFFFFFF00FEFF17E200F900000000000000000000
(00.084042) can0 D4#39040604F9848E89
(00.093179) can0 DC#39100016D2CBB9AE2A0AFADCF434280000000000FFFF1414C537000000000000
(00.093559) can0 18E19490#000000A50000005001000000000000000000001A5A9200000000010000000000000000004A4A4BEA00E8001001FC00F400F7004A4A4ADE001311001505150000
(00.096622) can0 DB#390E010F3035FFFFFFFFFFFFFF0FD308BCFDFF390E00200BEAB3FA177F831A3FA87F55444DC116B3281D5C060300F1FFFFFFFF151ADF31000000000000000000
(00.097282) can0 D9#391300152A6BB743A0438D98CE12D0F1FFFFFFFFFF1509BFC000000000000000
(00.098102) can0 D4#39040C050E0FF4FFFF391501143ECD91E1F85FF5FFFFFFFFFE07009F2801FEFFFF000000000000000000000000000000
(00.098634) can0 E3#4100050800800343CB7D17F5
(00.098830) can0 D4#390C083CFE7400800000086C343F3383FF7BDF015027C501A02CE07C8FB30400009E053C400B5AD08216B4A0052D68CF506AFE7F9FE600FFC9FFFFFF833EE4FF
(00.101900) can0 DB#390F001530B9B420FFFF7FCFFFFF3FFFFFFFFFFFFF16B9817100000000000000
(00.103537) can0 2D#A9E3BD05C40900907097F5606F5205000800A0FEFFFF7F5802D235FFFFFFFF00FEFF19429E3200000000000000000000
(00.108108) can0 D4#390C140CFFFFFF01FEFFFFFFFFFFFFFF390C1608FFFFFFFFFFFFFFFF00000000
(00.108499) can0 E3#39060B080051511400C0CFFF39042208003B867E780FFAFF
(00.113242) can0 DC#391000169F23BAAE2A0AFADCF434280000000000FFFF16354006000000000000
(00.116639) can0 DB#390F01064B850460501D390E0020E715B4FA177F831A3FA87F55444DC116B3281D5C060300F1FFFFFFFF173C98530000
(00.117146) can0 D9#39130015AB43B844A0430D98CE12D0F1FFFFFFFFFF17A52EA23913010B4BB9C8549500FE03BAFFEF0000000000000000
(00.118197) can0 E3#41000508010CB935E5F69C42
(00.121858) can0 DB#390F0015D2A9B520FFFF7FCFFFFF3FFFFFFFFFFFFF1879431B00000000000000
(00.123120) can0 18E19490#0102003D0DF700800CFF00BC02060600000000401F020000AC0D2D2B012003000002AD012C1200000202C203EF390000AC0D401F0C1D2A4B1311001505150000
(00.123825) can0 2D#E04EBE05C40900907097F6606F5205000800A0FEFFFF7F5802D235FFFFFFFF00FEFF1BAD219B00000000000000000000
(00.133237) can0 DC#39100016BB8BBBAE2A0AFADCF434280000000000FFFF174056E8000000000000
(00.136610) can0 DB#390E00207331B5FA177F831A3FA87F55444DC116B3281D5C060300F1FFFFFFFF183BC924000000000000000000000000
(00.137129) can0 D9#391300156620B944A0434D98CE12D8F1FFFFFFFFFF18CC95E100000000000000
(00.141852) can0 DB#390F0015F498B620FFFF7FCFFFFF3FFFFFFFFFFFFF19DCED8900000000000000
(00.143078) can0 DC#39FE6F089401008001000000
(00.143500) can0 2D#FF47BF05C40900907097F6606F5205000800A0FEFFFF7F5802D235FFFFFFFF00FEFF1D2241B900000000000000000000
(00.153177) can0 DC#39100110153F413043006606119C002205F0FFF13910001624E3BCAE2A0AFADCF434280000000000FFFF19F58DBF0000
(00.153696) can0 18E19490#02880064646401000000FD122BB3000000000000E800EB00BC04010001000100000000004B14D305AA05811300000000B70C800C2C0F2C0D1311001505150000
(00.156612) can0 DB#390E0020CF5CB6FA177F831A3FA87F55444DC116B3281D5C060300F1FFFFFFFF1ACF86DE000000000000000000000000
(00.158094) can0 D9#3913001503B7BA44A043CD97CE12D8F1FFFFFFFFFF1A0D644700000000000000
(00.161843) can0 DB#390F00151688B720FFFF7FCFFFFF3FFFFFFFFFFFFF1BC3D19000000000000000
(00.163473) can0 2D#3198C005C40900907097F7606F5205000800A0FEFFFF7F5802D235FFFFFFFF00FEFF208041ED00000000000000000000
(00.173176) can0 DC#39100016004BBDAE2A0AFADCF434280000000000FFFF1B05B0CA000000000000
(00.173559) can0 E3#3204000C0495F653670700F0201E5E130080000495905204
(00.176777) can0 D9#39130015725BBB44A0430D98CE12D8F1FFFFFFFFFF1B07D39100000000000000
(00.177153) can0 DB#390E00205B78B7FA177F831A3FA87F55444DC116B3281D5C060300F1FFFFFFFF1C9EEFF5000000000000000000000000
(00.181842) can0 DB#390F0015A87DB820FFFF7FCFFFFF3FFFFFFFFFFFFF1DB54EBE00000000000000
(00.183130) can0 18E19490#030000950195010000000000000000020000000000000000000000000000000000B70C011000E40C00000000000054D9055716D70CC409001311001505150000
(00.183849) can0 2D#A4DEC105C40900907097F8606F5205000800A0FEFFFF7F5802D235FFFFFFFF00FEFF22CA512200000000000000000000
(00.184375) can0 D4#390406044DF28F89
(00.193256) can0 DC#391000164DA3BEAE2A0AFADCF434280000000000FFFF1DE2A526000000000000
(00.193637) can0 E3#4100050800800343CB7D22780500000CF5FCFF0000000000255B479800000000
(00.196634) can0 DB#390E010F3035FFFFFFFFFFFFFF0FD308BCFDFF390E002036B3B8FA177F831A3FA87F55444DC116B3281D5C060300F1FFFFFFFF1E0781D4000000000000000000
(00.197293) can0 D9#39130015ACC6BC44A043CD98CE12D8F1FFFFFFFFFF1D7FDAD100000000000000
(00.003224) can0 DC#39100016405750AE2A0AFADCF834280000000000FFFF42C6B529000000000000
(00.003606) can0 18E19490#000000A50000005001000000000000000000001A5A9200000000010000000000000000004A4A4BEA00E8001001FC00F500F6004A4A4A2D011311001505150000
(00.004324) can0 E3#4100050800800343CB7C46550500000CF5FCFF000000000049E772CC00000000
(00.006847) can0 D9#3913001570094E47A043CD85CE12F0F1FFFFFFFFFF43C1E92A00000000000000
(00.007224) can0 DB#390E010F2C35FFFFFFFFFFFFFF0FD308BCFDFF390E00206F0D4AFB177F831A3FA77F95444DC116B3281D5C060300F1FFFFFFFF43EA244C000000000000000000
(00.012192) can0 DB#390F001581E64B20FFFF7FCFFFFF3FFFFFFFFFFFFF44CBBA4B00000000000000
(00.013749) can0 2D#3B5A5405C40900907097B6606F5205000800A0FEFFFF7F5802D235FFFFFFFF00FEFF485102ED00000000000000000000
(00.014273) can0 D4#39040C050E0FF4FFFF390C140CFFFFFF00FEFFFFFFFFFFFFFF00000000000000
(00.018363) can0 E3#39060B080051511400C0CFFF39042208003B877E780FFAFF
(00.023297) can0 DC#3910001664FF51AE2A0AFADCF834280000000000FFFF44E82531000000000000
(00.026832) can0 D9#39130015ACD34F47A0434D86CE12E8F1FFFFFFFFFF45C2092A3913010B4BB9B8549500FE03BAFFEF0000000000000000
(00.027342) can0 DB#390E0020FB294BFB177F831A3FA77F95444DC116B3281D5C060300F1FFFFFFFF450D5C5F000000000000000000000000
(00.028376) can0 E3#41000508013334D1FCA2EA573980000C00FF41936DD3AFFE4BCAA37800000000
(00.032226) can0 DB#390F00152F944C20FFFF7FCFFFFF3FFFFFFFFFFFFF46D5E25000000000000000
(00.033183) can0 18E19490#0102003E0DF800800CFF00BC02060600000000401F020000AC0D2D2B012003000002AC012C1200000202C103EF390000AC0D401F0C08204B1311001505150000
(00.033893) can0 2D#FC3E5505C40900907097B7606F5205000800A0FEFFFF7F5802D235FFFFFFFF00FEFF4A87132D00000000000000000000
(00.043308) can0 DC#39100016291752AE2A0AFADCF834280000000000FFFF468B14CD000000000000
(00.046826) can0 D9#39130015C0FE5047A044CD87CE12E8F1FFFFFFFFFF47E074F000000000000000
(00.047206) can0 DB#390E002017D64CFB177F831A3FA77F95444DC116B3281D5C060300F1FFFFFFFF47BF8131000000000000000000000000
(00.052211) can0 DB#390F0015CD844D20FFFF7FCFFFFF3FFFFFFFFFFFFF487C84AF00000000000000
(00.053872) can0 2D#DD255605C40900907097B7606F5205000800A0FEFFFF7F5802D235FFFFFFFF00FEFF4C261FE700000000000000000000
(00.063222) can0 DC#39100110153F41004300BE12119C002205F0FFF1391000160DBF53AE2A0AFADCF834280000000000FFFF4819C8600000
(00.063746) can0 18E19490#0288006464640100000093127FD5000000000000E800EB00BD04010001000100010000004A14D205A805881300000000B70C800C510F2C0D1311001505150000
(00.066893) can0 DB#390E002083F24DFB177F831A3FA77F95444DC116B3281D5C060300F1FFFFFFFF49CE8FCB000000000000000000000000
(00.067822) can0 D9#3913001557ED5147A044CD86CE12E8F1FFFFFFFFFF4954C08B00000000000000
(00.072192) can0 DB#390F0015EBB54E20FFFF7FCFFFFF3FFFFFFFFFFFFF4A269D7F00000000000000
(00.073732) can0 2D#48635705C40900907097B8606F5205000800A0FEFFFF7F5802D235FFFFFFFF00FEFF4DE91BEC00000000000000000000
(00.083223) can0 DC#3910001692D754AE2A0AFADCF834280000000000FFFF4ABE5BBD000000000000
(00.083791) can0 E3#00800004A91D3D04
(00.087074) can0 D9#3913001577AC5247A043CD86CE12E8F1FFFFFFFFFF4BC7236700000000000000
(00.087448) can0 DB#390E00203F9F4EFB177F831A3FA77F95444DC116B3281D5C060300F1FFFFFFFF4B98ACC4000000000000000000000000
(00.087968) can0 44#04
(00.092198) can0 DB#390F001509A54F20FFFF7FCFFFFF3FFFFFFFFFFFFF4CD60EA000000000000000
(00.093194) can0 18E19490#030000990199010000000000000000020000000000000000000000000000000000B70C011000E40C00000000000054D9055B16D50CC409001311001505150000
(00.093913) can0 2D#35795805C40900907097B9606F5205000800A0FEFFFF7F5802D235FFFFFFFF00FEFF4FE2237A00000000000000000000
(00.094439) can0 D4#3904060445D17A89
(00.103322) can0 DC#39100016C89855AE2A0AFADCF434280000000000FFFF4C90B1F5000000000000
(00.106832) can0 D9#3913001573435347A0430D88CE12E8F1FFFFFFFFFF4D85E4C100000000000000
(00.107208) can0 DB#390E010F2C35FFFFFFFFFFFFFF0FD308BCFDFF390E0020ABBB4FFB177F831A3FA77F95444DC116B3281D5C060300F1FFFFFFFF4DF938DF000000000000000000
(00.108352) can0 D4#39040C050E0FF4FFFF391501143EC591E1F85FF5FFFFFFFFFE07009F2801FEFFFF000000000000000000000000000000
(00.108884) can0 E3#4100050800800343CB7C4F86
(00.109081) can0 D4#390C083CFE7400800000086C343F3283FF7BDF015027C501A02CE07C8FB30400009E053C400B5AD08216B4A0052D68CF506AFE7F9FE600FFC9FFFFFF833EE4FF
(00.112246) can0 DB#390F0015B64E5020FFFF7FCFFFFF3FFFFFFFFFFFFF4E8149DD00000000000000
(00.113819) can0 2D#2A705905C40900907097B9606F5205000800A0FEFFFF7F5802D235FFFFFFFF00FEFF510B596000000000000000000000
(00.118360) can0 D4#390C140CFFFFFF00FEFFFFFFFFFFFFFF390C1608FFFFFFFFFFFFFFFF00000000
(00.118751) can0 E3#39060B080051511400C0CFFF39042208003B867E781FFAFF
(00.123302) can0 DC#39100016FB9756AE2A0AFADCF834280000000000FFFF4E765449000000000000
(00.123684) can0 18E19490#040300030003008836EE0C440D2201F8000806010101010200000000000000000000000000000000000000000000000000000000000000001311001505150000
(00.126837) can0 D9#39130015DD315447A0430D88CE12E8F1FFFFFFFFFF4F10F1213913010B4BB9B8549500FE03BAFFEF0000000000000000
(00.127346) can0 DB#390F01064B8504602019390E0020C41950FB177F831A3FA77F95444DC116B3281D5C060300F1FFFFFFFF4F4218320000
(00.128422) can0 E3#4100050801F8578BD6567D04
(00.132141) can0 DB#390F0015545E5120FFFF7FCFFFFF3FFFFFFFFFFFFF50AB246300000000000000
(00.133747) can0 2D#63DD5A05C40900907097BA606F5205000800A0FEFFFF7F5802D235FFFFFFFF00FEFF534AC1B300000000000000000000
(00.143311) can0 DC#39100016DF3F57AE2A0AFADCF834280000000000FFFF4F0BFFC7000000000000
(00.146830) can0 D9#391300157AF75547A0448D87CE12E8F1FFFFFFFFFF5009E50C00000000000000
(00.147207) can0 DB#390E0020503D51FB177F831A3FA77F95444DC116B3281D5C060300F1FFFFFFFF50331822000000000000000000000000
(00.152210) can0 DB#390F0015726F5220FFFF7FCFFFFF3FFFFFFFFFFFFF514E6D6400000000000000
(00.153144) can0 DC#39FE6F089401008001000000
(00.153342) can0 18E19490#000000A50000005001000000000000000000001A5A9200000000010000000000000000004A4A4BE900E8001001FC00F500F7004A4A4A41011311001505150000
(00.154060) can0 2D#7CD45B05C40900907097BA606F5205000800A0FEFFFF7F5802D235FFFFFFFF00FEFF5578981900000000000000000000
(00.163319) can0 DC#39100110153F41004300C612119C002205F0FFF539100016BBA158AE2A0AFADCF434280000000000FFFF51BAF4990000
(00.166892) can0 DB#390E0020EC5052FB177F831A3FA77F95444DC116B3281D5C060300F1FFFFFFFF52086EB0000000000000000000000000
(00.168028) can0 D9#391300158C9C5647A044CD87CE12E8F1FFFFFFFFFF525323B000000000000000
(00.172196) can0 DB#390F0015907F5320FFFF7FCFFFFF3FFFFFFFFFFFFF5376CC8E00000000000000
(00.173766) can0 2D#F9865C05C40900907097BB606F5205000800A0FEFFFF7F5802D235FFFFFFFF00FEFF5813675300000000000000000000
(00.178367) can0 E3#3204000C441EF453670700F0589C13E0
(00.183225) can0 DC#39100016E1EE59AE2A0AFADCF834280000000000FFFF53C3092B000000000000
(00.183606) can0 18E19490#0102003D0DF800800CFF00BC02060600000000401F020000AC0D2D2B012003000002AE012B1200000202C203F7390000AC0D401F0C0A2E4B1311001505150000
(00.184311) can0 E3#0080000475863E04
(00.187036) can0 DB#390E0020787453FB177F831A3FA77F95444DC116B3281D5C060300F1FFFFFFFF54E9B5EC000000000000000000000000
(00.187554) can0 D9#39130015FB005747A0430D88CE12E8F1FFFFFFFFFF536B509400000000000000
(00.192198) can0 DB#390F00153E0D5420FFFF7FCFFFFF3FFFFFFFFFFFFF55CDD36700000000000000
(00.193846) can0 2D#CF9E5D05C40900907097BC606F5205000800A0FEFFFF7F5802D235FFFFFFFF00FEFF5A63C10500000000000000000000
(00.194373) can0 D4#39040604F1A77B89
(00.003380) can0 E3#39060B080051511400C0CFFF39042208003BC67E782FFEFF
(00.008082) can0 DC#39100016D4CCE8AE2A0AFADCF434280000000000FFFF7255EAB3000000000000
(00.011729) can0 D9#39130015BF13E652A0420D4ACE1248F2FFFFFFFFFF733CD8353913010B4BB8A8549500FE03BAFFEF0000000000000000
(00.012242) can0 DB#390F01064B8504600019390E0020BDF5E2FA077F831A3F937F95434DC116B3281D5C060300F1FFFFFFFF73E17E5F0000
(00.013393) can0 E3#4100050801FBFC80750302A0
(00.017164) can0 DB#390F00159BADE320FFFF7FCFFFFF3FFFFFFFFFFFFF74BBA3C100000000000000
(00.017963) can0 18E19490#0102003D0DF700800CFF00BC02060600000000401F020000AC0D2E2B012003000002AD012A1200000202C303CD390000AC0D401F0C58164B1311001505150000
(00.018743) can0 2D#6B32EC05C4090090709778606F5205000800A0FEFFFF7F5802D235FFFFFFFF00FEFF781F9DF500000000000000000000
(00.028085) can0 DC#39100016F064E9AE2A0AFADCF434280000000000FFFF74AC1E45000000000000
(00.031722) can0 D9#39130015ED75E752A0424D49CE1240F2FFFFFFFFFF75253F0200000000000000
(00.032099) can0 DB#390E002029D1E3FA077F831A3F937F95434DC116B3281D5C060300F1FFFFFFFF75CE6363000000000000000000000000
(00.037228) can0 DB#390F001535DFE420FFFF7FCFFFFF3FFFFFFFFFFFFF76A0156400000000000000
(00.038758) can0 2D#743BED05C4090090709778606F5205000800A0FEFFFF7F5802D235FFFFFFFF00FEFF7AE48A9C00000000000000000000
(00.048026) can0 DC#39100110153F413043001616119C002205F0FFF139100016BD8CEAAE2A0AFADCF434280000000000FFFF760C11BE0000
(00.048545) can0 18E19490#02880064646401000000B31226BD000000000000E800EB00BC04010000000000010000004A14C905A305881300000000B80C800C340F2C0D1311001505150000
(00.051929) can0 DB#390E00204527E4FA077F831A3F947F95434DC116B3281D5C060300F1FFFFFFFF77FE6A26000000000000000000000000
(00.053153) can0 D9#39130015CC85E852A0424D4ACE1240F2FFFFFFFFFF77820C6B00000000000000
(00.057224) can0 DB#390F0015D7CFE520FFFF7FCFFFFF3FFFFFFFFFFFFF78CE78B400000000000000
(00.058761) can0 2D#8D4DEE05C4090090709779606F5205000800A0FEFFFF7F5802D235FFFFFFFF00FEFF7C35FC3200000000000000000000
(00.068026) can0 DC#391000169924EBAE2A0AFADCF434280000000000FFFF7801CADE000000000000
(00.068795) can0 E3#008000044BBA2804
(00.071978) can0 D9#39130015C0C4E952A0420D4CCE1240F2FFFFFFFFFF790825E700000000000000
(00.072356) can0 DB#390E002027D6E5FA077F831A3F957F95434DC116B3281D5C060300F1FFFFFFFF794F6A9F000000000000000000000000
(00.077227) can0 DB#390F0015F1FEE620FFFF7FCFFFFF3FFFFFFFFFFFFF7AF8469800000000000000
(00.077985) can0 18E19490#0300009A019A010000000000000000020000000000000000000000000000000000B80C011000E40C00000000000054D9055016D70CC409001311001505150000
(00.078764) can0 2D#FAF2EF05C409009070977A606F5205000800A0FEFFFF7F5802D235FFFFFFFF00FEFF7E19FC9700000000000000000000
(00.079291) can0 D4#390406040C1E6589
(00.088107) can0 DC#39100016064CECAE2A0AFADCF434280000000000FFFF7A0C9A20000000000000
(00.088803) can0 E3#4100050800800343CB7B7E690500000CF5FCFF000000000081A8B85600000000
(00.091750) can0 D9#39130015FF70EA51A042CD4CCE1238F2FFFFFFFFFF7B8B912600000000000000
(00.092125) can0 DB#390E010F1835FFFFFFFFFFFFFF0FD308BCFDFF390E002022C1E6FA077F831A3F977FD5434DC116B3281D5C060300F1FFFFFFFF7B0FA048000000000000000000
(00.097225) can0 DB#390F001513EEE720FFFF7FCFFFFF3FFFFFFFFFFFFF7CC65DA900000000000000
(00.098761) can0 2D#AF14F005C409009070977A606F5205000800A0FEFFFF7F5802D235FFFFFFFF00FEFF801C34DF00000000000000000000
(00.099289) can0 D4#39040C050E0FF4FFFF390C140CFFFFFF00FEFFFFFFFFFFFFFF00000000000000
(00.103475) can0 E3#39060B080051511400C0CFFF39042208003B877E780FFAFF
(00.108084) can0 DC#3910001622E4EDAE2A0AFADCF434280000000000FFFF7CB8F235000000000000
(00.108464) can0 18E19490#040300030003007E36ED0C440D2201F8000806010101010200000000000000000000000000000000000000000000000000000000000000001311001505150000
(00.111733) can0 D9#391300156863EB51A042CD4DCE1238F2FFFFFFFFFF7D50DDF43913010B4BB9A8549500FE03BAFFEF0000000000000000
(00.112245) can0 DB#390E0020B6F6E7FA077F831A3F997FD5434DC116B3281D5C060300F1FFFFFFFF7D227451000000000000000000000000
(00.113393) can0 E3#410005080151E2ED8912BFBE3980000C007FE192F5D3AFFE835CC97000000000
(00.117176) can0 DB#390F0015AD1BE820FFFF7FCFFFFF3FFFFFFFFFFFFF7EE233DC00000000000000
(00.118740) can0 2D#6870F105C409009070977B606F5205000800A0FEFFFF7F5802D235FFFFFFFF00FEFF82B0BCFB00000000000000000000
(00.128039) can0 DC#391000166F0CEEAE2A0AFADCF434280000000000FFFF7E327886000000000000
(00.131727) can0 D9#39130015EDD9EC51A0434D4FCE1238F2FFFFFFFFFF7F73C18100000000000000
(00.132105) can0 DB#390E00205B34E8FA077F831A3F9E7FD5434DC116B3281D5C060300F1FFFFFFFF7FDAA58B000000000000000000000000
(00.137226) can0 DB#390F00154F0BE920FFFF7FCFFFFF3FFFFFFFFFFFFF80EC87E400000000000000
(00.137978) can0 18E19490#000000A50000005001000000000000000000001A5A9100000000010000000000000000004A4A4BEA00E8000F01FC00F400F6004B4A4A05011311001505150000
(00.138744) can0 2D#496BF205C409009070977B606F5205000800A0FEFFFF7F5802D235FFFFFFFF00FEFF841ECD1100000000000000000000
(00.148104) can0 DC#39100110153F413943001E12119C002205F0FFF1391000164BA4EFAE2A0AFADCF434280000000000FFFF800C36400000
(00.151915) can0 DB#390E0020EA4DE9FA077F831A3FA37F15444DC116B3281D5C060300F1FFFFFFFF810A5E19000000000000000000000000
(00.153156) can0 D9#39130015C9EEED51A0434D51CE1238F2FFFFFFFFFF81FA95B000000000000000
(00.157222) can0 DB#390F0015693AEA20FFFF7FCFFFFF3FFFFFFFFFFFFF823D9A1F00000000000000
(00.158819) can0 2D#7F73F305C409009070977C606F5205000800A0FEFFFF7F5802D235FFFFFFFF00FEFF85B9BF9C00000000000000000000
(00.168029) can0 DC#391000162519F0AE2A0AFADCF834280000000000FFFF8201A405000000000000
(00.168416) can0 18E19490#0102003E0DF800800CFA00BC02060600000000401F020000AC0D2E2B012003000002AE012E1200000202C203CD390000AC0D401F0C5A244B1311001505150000
(00.169120) can0 E3#00800004FFCC2904
(00.171980) can0 D9#391300155FA9EE51A0430D52CE1230F2FFFFFFFFFF83D82AEB00000000000000
(00.172358) can0 DB#390E0020B309EAFA177F831A3FA57F95444DC116B3281D5C060300F1FFFFFFFF832CD2C7000000000000000000000000
(00.172878) can0 44#04
(00.177226) can0 DB#390F00158B2AEB20FFFF7FCFFFFF3FFFFFFFFFFFFF8498676D00000000000000
(00.178766) can0 2D#FA21F405C409009070977D606F5205000800A0FEFFFF7F5802D235FFFFFFFF00FEFF874164E400000000000000000000
(00.179294) can0 D4#39040604D0856689
(00.188052) can0 DC#3910001601B1F1AE2A0AFADCF834280000000000FFFF8415EBAE000000000000
(00.191734) can0 D9#391300155253EF51A043CD51CE1230F2FFFFFFFFFF85E72D8400000000000000
(00.192109) can0 DB#390E010F2C35FFFFFFFFFFFFFF0FD308BCFDFF390E0020EA96EBFA177F831A3FA77F95444DC116B3281D5C060300F1FFFFFFFF85D8E831000000000000000000
(00.193314) can0 D4#39040C050E0FF4FFFF391501143EC191E1F85FF5FFFFFFFFFE07009F2801FEFFFF000000000000000000000000000000
(00.193848) can0 E3#4100050800800343CB7B871D
(00.194042) can0 D4#390C083CFE7400800000086C343F3183FF7BDF015027C501A02CE07C8FB30400009E053C400B5AD08216B4A0052D68CFD869FE7F9FE600FFC9FFFFFF833EE4FF
(00.197279) can0 DB#390F00152558EC20FFFF7FCFFFFF3FFFFFFFFFFFFF86AB4BD100000000000000
(00.198045) can0 18E19490#02880064646401000000C012179E000000000000E900EB00BC04000000000000000000004714C905A405851300000000B70C800C660F2C0D1311001505150000
(00.198761) can0 2D#E528F505C409009070977D606F5205000800A0FEFFFF7F5802D235FFFFFFFF00FEFF89AE600E00000000000000000000
(00.001258) can0 D9#391300154686801CA04B4D4C6F0F48F1FFFFFFFFFFA79BE9D700000000000000
(00.001635) can0 DB#390E0020858F7C01887F831A3FE27FD54A4DC116B3281D5C060300F1FFFFFFFFA72E1E57000000000000000000000000
(00.002330) can0 44#04
(00.006760) can0 DB#390F0015CEA67D20FFFF7FCFFFFF3FFFFFFFFFFFFFA8CF00B100000000000000
(00.007437) can0 18E19490#030000990199010000000000000000020000000000000000000000000000000000B30C011000E40C00000000000054D905D016D50CC409001311001505150000
(00.008355) can0 2D#7DA28605C409009070973BA06F5205000800A0FEFFFF7FF801D235FFFFFFFF00FEFFAC0BCD8700000000000000000000
(00.008882) can0 D4#39040604A08E5089
(00.017409) can0 DC#39100016151683AE2A0AFADC1035280000000000FFFFA85865A6000000000000
(00.018379) can0 E3#00800004BD8813044100050800800343CB7AAC0D
(00.021412) can0 DB#390E010F3835FFFFFFFFFFFFFF0FD308BCFDFF390E0020656A7D01887F831A3FE27F954A4DC116B3281D5C060300F1FFFFFFFFA922779C000000000000000000
(00.022070) can0 D9#39130015C23E811BA04B4D4C8F0F68F1FFFFFFFFFFA94BBAB700000000000000
(00.026752) can0 DB#390F0015E8977E20FFFF7FCFFFFF3FFFFFFFFFFFFFAA3083EC00000000000000
(00.028334) can0 2D#F8868705C409009070973B606F5205000800A0FEFFFF7FF801D235FFFFFFFF00FEFFAE09AC0D00000000000000000000
(00.028863) can0 D4#39040C050E0FF8FFFF391501143EB591DDF85FF5FFFFFFFFFE07009F2801FEFFFF390C140CFFFFFFFFFDFFFFFFFFFFFFFF000000000000000000000000000000
(00.032950) can0 E3#39060B080011111400C0CFFF390422080039C67E782FFEFF
(00.037392) can0 DC#391000168A7E84AE2A0AFADC1035280000000000FFFFAA5A2603000000000000
(00.037776) can0 18E19490#04030003000300D237ED0C4A0D2201F8000806010101010200000000000000000000000000000000000000000000000000000000000000001311001505150000
(00.041396) can0 DB#390F01064B850460F81C390E0020707A7E01787F831A3FE27F554A4DC116B3281D5C060300F1FFFFFFFFAB11AA440000
(00.041907) can0 D9#391300158592821EA04B0D3F8F0F80F1FFFFFFFFFFABB81C793913010B4B5BA8549500FE03BAFFEF0000000000000000
(00.042991) can0 E3#41000508014853A3C22397E23E800108C302799BB780E0FF
(00.046832) can0 DB#390F00150A877F20FFFF7FCFFFFF3FFFFFFFFFFFFFACC5707800000000000000
(00.048319) can0 2D#74E08805C409009070973C606F5205000800A0FEFFFF7FF801D235FFFFFFFF00FEFFB0B577F400000000000000000000
(00.057343) can0 DC#3910001646A585AE2A0AFADC0C35280000000000FFFFACCD46AE000000000000
(00.061333) can0 D9#39130015D10B8320A04A0D328F0F90F1FFFFFFFFFFAD1B55C600000000000000
(00.061712) can0 DB#390E0020020E7F00787F831A3FDD7F554A4DC116B3281D5C060300F1FFFFFFFFAD696A10000000000000000000000000
(00.066761) can0 DB#390F0015BBD88020FFFF7FCFFFFF3FFFFFFFFFFFFFAEBE678100000000000000
(00.067439) can0 18E19490#000000A50000005001000000000000000000001A5A7A00000000010000000000000000004A4A4BEA00E8000F01FC00F400F600494A4AF5001311001505150000
(00.068314) can0 2D#1E588905C409009070973CA06F5205000800A0FEFFFF7FFC01D235FFFFFFFF00FEFFB25B262600000000000000000000
(00.077409) can0 DC#39100110153F413043007606109C002205F0FFF1391000160B4D86AE2A0AFADC0C35280000000000FFFFAE5A9E150000
(00.081366) can0 DB#390E002047738000787F831A3FDD7F154A4DC116B3281D5C060300F1FFFFFFFFAFC368DC000000000000000000000000
(00.082613) can0 D9#391300159AB28422A04ACD26AF0FA0F1FFFFFFFFFFAFE7B5D200000000000000
(00.086759) can0 DB#390F001559C88120FFFF7FCFFFFF3FFFFFFFFFFFFFB096598400000000000000
(00.088437) can0 2D#E72E8A05C409009070973DA06F5205000800A0FEFFFF7FFC01D235FFFFFFFF00FEFFB456413100000000000000000000
(00.097334) can0 DC#391000162FE587AE2A0AFADC0C35280000000000FFFFB09CA501000000000000
(00.097717) can0 18E19490#010200430DF700800CFF00BC02060600000000401F020000AC0D332B012003000002AD012A1200000202C203C0300000AC0D401F0C451B4B1311001505150000
(00.098420) can0 E3#0080000490D91404
(00.101450) can0 D9#3913001599BE8523A04A0D21AF0FB0F1FFFFFFFFFFB1EDCE9100000000000000
(00.101828) can0 DB#390E002068D28100787F831A3FD97FD5494DC116B3281D5C050300F1FFFFFFFFB1714599000000000000000000000000
(00.106765) can0 DB#390F00157FF98220FFFF7FCFFFFF3FFFFFFFFFFFFFB292893000000000000000
(00.108337) can0 2D#06D58B05C409009070973E606F5205000800A0FEFFFF7F0002D235FFFFFFFF00FEFFB6EC383200000000000000000000
(00.108865) can0 D4#3904060414F85189
(00.117356) can0 DC#39100016359C88AE2A0AFADC0C35280000000000FFFFB2DC07B0000000000000
(00.118396) can0 E3#4100050800800343CB7AB6EE0500000CF5FCFF0000000000B9164F6800000000
(00.121392) can0 DB#390E010F2C35FFFFFFFFFFFFFF0FD308BCFDFF390E002054A18200787F831A3FDA7F95494DC116B3281D5C060300F1FFFFFFFFB32CAE85000000000000000000
(00.122052) can0 D9#39130015A86F8623A04ACD1ECF0FC0F1FFFFFFFFFFB353DAC000000000000000
(00.126755) can0 DB#390F00159DE98320FFFF7FCFFFFF3FFFFFFFFFFFFFB4074E8200000000000000
(00.127477) can0 18E19490#02880064646401000000EF125840000000000000E800EB00BD04010001000000010000004A14C205AA04841300000000B40C800C5D0F2C0D1311001505150000
(00.128324) can0 2D#5BEA8C05C409009070973E606F5205000800A0FEFFFF7F0002D235FFFFFFFF00FEFFB892452B00000000000000000000
(00.128850) can0 D4#39040C050E0FF8FFFF390C140CFFFFFFFFFDFFFFFFFFFFFFFF00000000000000
(00.132956) can0 E3#39060B080011111400C0CFFF39042208003B877E780FFAFF
(00.137494) can0 DC#39100016113489AE2A0AFADC0C35280000000000FFFFB441F081000000000000
(00.141345) can0 D9#39130015044E8726A04A8D10CF0FD0F1FFFFFFFFFFB50E9F513913010B4B60A8549500FE03BAFFEF0000000000000000
(00.141858) can0 DB#390E002057598300687F831A3FD87F95494DC116B3281D5C060300F1FFFFFFFFB5A23D64000000000000000000000000
(00.142965) can0 E3#4100050801A51319CAB36CA63980000C007F29783ACEAFFEBB47D23800000000
(00.146790) can0 DB#390F0015339B8420FFFF7FCFFFFF3FFFFFFFFFFFFFB693D2B400000000000000
(00.148324) can0 2D#9C8E8D05C409009070973F606F5205000800A0FEFFFF7F0002D235FFFFFFFF00FEFFBAF993B400000000000000000000
(00.157353) can0 DC#391000165CDC8AAE2A0AFADC0C35280000000000FFFFB6770671000000000000
(00.157734) can0 18E19490#0300009D019D010000000000000000020000000000000000000000000000000000B40C011000E40C00000000000054D905AA16D70CC409001311001505150000
(00.161230) can0 D9#39130015A0928828A0490D01CF0FE0F1FFFFFFFFFFB7F078BA00000000000000
(00.161614) can0 DB#390E0020BD818400687F831A3FD27F55494DC116B3281D5C060300F1FFFFFFFFB7F3DF63000000000000000000000000
(00.166772) can0 DB#390F0015D18B8520FFFF7FCFFFFF3FFFFFFFFFFFFFB8CF803C00000000000000
(00.168317) can0 2D#C8248E05C409009070973FA06F5205000800A0FEFFFF7F0402D235FFFFFFFF00FEFFBC56FB6700000000000000000000
(00.177356) can0 DC#39100110153F413243007E06119C002205F0FFF1391000164DD98BAE2A0AFADC0835280000000000FFFFB8DA50280000
(00.181366) can0 DB#390E0020660A8500687F831A3FD17F15494DC116B3281D5C060300F1FFFFFFFFB956242B000000000000000000000000
(00.182617) can0 D9#39130015763C892BA0494DF0EE0FF0F1FFFFFFFFFFB993C66200000000000000
(00.186765) can0 DB#390F0015F7BA8620FFFF7FCFFFFF3FFFFFFFFFFFFFBA887ED700000000000000
(00.187474) can0 18E19490#040300030003008836EE0C480D2201F8000806010101010200000000000000000000000000000000000000000000000000000000000000001311001505150000
(00.188333) can0 2D#EC608F05C4090090709740A06F5205000800A0FEFFFF7F0402D235FFFFFFFF00FEFFBD7D0A0200000000000000000000
(00.197412) can0 DC#39100016D2B18CAE2A0AFADC0835280000000000FFFFBA3971D7000000000000
(00.198364) can0 E3#0080000424AF1504
(00.001368) can0 2D#CC082204C409001000800020FA6004000800A0FEFFFF7FE001D239FFFFFFFF00FEFFE499DD8B00000000000000000000
(00.001904) can0 D4#390406043C8B3B84
(00.010167) can0 DC#391000169E831FAE2A0AFADC7C00280000000000FFFFE02D5B44000000000000
(00.014126) can0 D9#39130015EE421D01A0004001500F20F3FFFFFFFFFFE106BC8A00000000000000
(00.014510) can0 DB#390E010F4400FFFFFFFFFFFFFF0FD308BCFDFF390E002033DD1902987F831A3F0080154C4DC114B3281D5C060300F1FFFFFFFFE168734D000000000000000000
(00.019792) can0 DB#390F001566901A20FFFF7FCFFFFF3FFFFFFFFFFFFFE2F0927600000000000000
(00.020234) can0 18E19490#02880064646401000000A2121401000000000000E900EB00BC04000000000100000000004714C1059F04871300000000B20C800C7E0F2C0D1311001505150000
(00.021354) can0 2D#D3012304C409001000800020FA6004000800A0FEFFFF7FE001D239FFFFFFFF00FEFFE68062E900000000000000000000
(00.021890) can0 D4#39040C050E0FF4FFFF391501143E219201F85FF5FFFFFFFFFE07009F2801FEFFFF390C140CFFFFFFFFFDFFFFFFFFFFFFFF000000000000000000000000000000
(00.025963) can0 E3#39060B080011111800C0CFFF390422080039C67E782FFEFF
(00.030293) can0 DC#391000169A9F20AE2A0AFADC7C00280000000000FFFFE2382D75000000000000
(00.034216) can0 D9#39130015ECDB1E00A0004001500F20F3FFFFFFFFFFE3F03D2B3913010B4B00A8548500FE03BAFFEF0000000000000000
(00.034737) can0 DB#390F01064B8504600000390E00208FB01A02987F831A3F0080154C4DC114B3281D5C060300F1FFFFFFFFE3A3C9250000
(00.039857) can0 DB#390F001584801B20FFFF7FCFFFFF3FFFFFFFFFFFFFE4991D0400000000000000
(00.041355) can0 2D#8E3E2404C409001000800020FA6004000800A0FEFFFF7FE001D239FFFFFFFF00FEFFE81B86CC00000000000000000000
(00.050171) can0 DC#39100016BE3721AE2A0AFADC7C00280000000000FFFFE4A106C6000000000000
(00.050556) can0 18E19490#030000950195010000000000000000020000000000000000000000000000000000B20C011000E40C00000000000054DA05CB16D50CC409001311001505150000
(00.054116) can0 D9#391300150ECB1F00A0004001500F20F3FFFFFFFFFFE5B0B12F00000000000000
(00.054499) can0 DB#390E00201B941B02987F831A3F0080154C4DC114B3281D5C060300F1FFFFFFFFE5A96C27000000000000000000000000
(00.059802) can0 DB#390F00152AF21C20FFFF7FCFFFFF3FFFFFFFFFFFFFE6B0C0F400000000000000
(00.061372) can0 2D#91372504C409001000800020FA6004000800A0FEFFFF7FE001D239FFFFFFFF00FEFFEA00B2B500000000000000000000
(00.065960) can0 E3#4100050800800343CB79E9AB
(00.070190) can0 DC#39100110153F41004300D642119C002205F0FFF539100016F3DF22AE2A0AFADC7C00280000000000FFFFE61646760000
(00.074409) can0 DB#390E002083AA1C02987F831A3F0080554C4DC114B3281D5C060300F1FFFFFFFFE7016344000000000000000000000000
(00.075128) can0 D9#3913001542022001A000C000500F20F3FFFFFFFFFFE7D8776500000000000000
(00.079790) can0 DB#390F0015C8E21D20FFFF7FCFFFFF3FFFFFFFFFFFFFE816F54900000000000000
(00.080236) can0 18E19490#04030003000300D237EE0C1F002201F8000806010101010200000000000000000000000000000000000000000000000000000000000000001311001505150000
(00.081368) can0 2D#B02C2604C409001000800020FA6004000800A0FEFFFF7FE001D239FFFFFFFF00FEFFEC01B4F200000000000000000000
(00.086048) can0 E3#410005080150C0152FC5112B
(00.090247) can0 DC#39100016D77723AE2A0AFADC7C00280000000000FFFFE8810BF0000000000000
(00.091386) can0 E3#00800004E023FA00
(00.094144) can0 D9#3913001554E02100A0008000500F20F3FFFFFFFFFFE900DF3B00000000000000
(00.094730) can0 DB#390E0020634F1D02987F831A3F0080154C4DC114B3281D5C060300F1FFFFFFFFE961BED8000000000000000000000000
(00.099791) can0 DB#390F0015EED31E20FFFF7FCFFFFF3FFFFFFFFFFFFFEA401B2000000000000000
(00.101488) can0 2D#AF252704C409001000800020FA6004000800A0FEFFFF7FE001D239FFFFFFFF00FEFFEED045D500000000000000000000
(00.102022) can0 D4#3904060411DA3C84
(00.110170) can0 DC#39100016481F24AE2A0AFADC7C00280000000000FFFFEA9E4436000000000000
(00.110555) can0 18E19490#000000A50000005001000000000000000000001A5A7900000000010000000000000000004A4A4BE900E8000F01FC00F500F6004A4A4A41011311001505150000
(00.114131) can0 D9#39130015A7672200A0000001500F20F3FFFFFFFFFFEB7C8DC500000000000000
(00.114516) can0 DB#390E010F4400FFFFFFFFFFFFFF0FD308BCFDFF390E0020DF221E02987F831A3F0080154C4DC114B3281D5C060300F1FFFFFFFFEB4F12F3000000000000000000
(00.116060) can0 E3#0500000CF5FCFF0000000000F15CED96
(00.119791) can0 DB#390F00150CC31F20FFFF7FCFFFFF3FFFFFFFFFFFFFEC4856A600000000000000
(00.121347) can0 2D#0A522804C409001000800020FA6004000800A0FEFFFF7FE001D239FFFFFFFF00FEFFF004620400000000000000000000
(00.121884) can0 D4#39040C050E0FF4FFFF390C140CFFFFFFFFFDFFFFFFFFFFFFFF00000000000000
(00.125966) can0 E3#39060B080011111800C0CFFF390422080039877E780FFAFF
(00.130237) can0 DC#391000166CB725AE2A0AFADC7C00280000000000FFFFECCC1EA9000000000000
(00.134127) can0 D9#3913001545772300A0000001500F20F3FFFFFFFFFFED8482633913010B4B00A8548500FE03BAFFEF0000000000000000
(00.134647) can0 DB#390E00204B061F02987F831A3F0080154C4DC114B3281D5C060300F1FFFFFFFFED06D558000000000000000000000000
(00.135982) can0 E3#3980000C00FFC07947CFAFFEF39DEEDC
(00.139869) can0 DB#390F0015B1142020FFFF7FCFFFFF3FFFFFFFFFFFFFEEAC3DD100000000000000
(00.140255) can0 18E19490#0102001000F800800CFF00BC02060600000000401F020000AC0D372B012003000002AD012C1200000202C303892F0000AC0D401F0C31214B1311001505150000
(00.141338) can0 2D#155B2904C409001000800020FA6004000800A0FEFFFF7FE001D239FFFFFFFF00FEFFF280054B00000000000000000000
(00.150255) can0 DC#39100016215F26AE2A0AFADC7C00280000000000FFFFEEC836C2000000000000
(00.154212) can0 D9#391300153B5F2400A0004001500F20F3FFFFFFFFFFEF72490800000000000000
(00.154596) can0 DB#390E002020762002987F831A3F0080154C4DC114B3281D5C060300F1FFFFFFFFEF206E5B000000000000000000000000
(00.159798) can0 DB#390F001553042120FFFF7FCFFFFF3FFFFFFFFFFFFFF009A08A00000000000000
(00.161494) can0 2D#34402A04C409001000800020FA6004000800A0FEFFFF7FE001D239FFFFFFFF00FEFFF49A385100000000000000000000
(00.165942) can0 E3#4100050800800343CB79F3FC
(00.170193) can0 DC#39100110153F41004300DE06119C002205F0FFF53910001605F727AE2A0AFADC7C00280000000000FFFFF0BE46900000
(00.170717) can0 18E19490#0288006464640100000096121254000000000000E900EB00BD04010000000100FEFF00004714C205A004881300000000B20C800C720F2C0D1311001505150000
(00.174457) can0 DB#390E0020B4522102987F831A3F0080154C4DC114B3281D5C060300F1FFFFFFFFF1350934000000000000000000000000
(00.175120) can0 D9#39130015A9A02500A0008001500F20F3FFFFFFFFFFF13C226400000000000000
(00.179790) can0 DB#390F001575352220FFFF7FCFFFFF3FFFFFFFFFFFFFF245D57100000000000000
(00.181367) can0 2D#2B492B04C409001000800020FA6004000800A0FEFFFF7FE001D239FFFFFFFF00FEFFF5215A7800000000000000000000
(00.185991) can0 E3#4100050801072145CF1548CE
(00.190192) can0 DC#391000161F8E28AE2A0AFADC7C00280000000000FFFFF2B8D77E000000000000
(00.191396) can0 E3#008000045455FB00
(00.194387) can0 D9#391300152F242600A0000001500F20F3FFFFFFFFFFF3A1AAE600000000000000
(00.194770) can0 DB#390E0020083F2202987F831A3F0080154C4DC114B3281D5C060300F1FFFFFFFFF3DC2C7A000000000000000000000000
(00.195381) can0 44#04
(00.003784) can0 DB#390F00158E4CBB20FFFF7FCFFFFF3FFFFFFFFFFFFF2436F8F500000000000000
(00.005339) can0 2D#C9A5C404C409001000800020FA6004000800A0FEFFFF7FE001D239FFFFFFFF00FEFF28B5B8F300000000000000000000
(00.005872) can0 D4#39040C050E0FF4FFFF390C140CFFFFFFFFFDFFFFFFFFFFFFFF00000000000000
(00.009937) can0 E3#39060B080011111800C0CFFF390422080039877E780FFAFF
(00.014018) can0 DC#391000168D12C1AE2A0AFADC7000280000000000FFFF24F22B73000000000000
(00.014401) can0 18E19490#04030003000300D237ED0C1C002201F8000806010101010200000000000000000000000000000000000000000000000000000000000000001311001505150000
(00.017999) can0 D9#391300150B5CBF00A000C001300F20F3FFFFFFFFFF2596A8C83913010B4B00A8548500FE03BAFFEF0000000000000000
(00.018518) can0 DB#390E00206C3EBB02987F831A3F0080154C4DC114B3281D5C060300F1FFFFFFFF258ABDD6000000000000000000000000
(00.019958) can0 E3#3980000C007F3279B0CEAFFE2B3FA875
(00.023836) can0 DB#390F0015203EBC20FFFF7FCFFFFF3FFFFFFFFFFFFF2669D92800000000000000
(00.025308) can0 2D#D6ACC504C409001000800020FA6004000800A0FEFFFF7FE001D239FFFFFFFF00FEFF2AA4CC7300000000000000000000
(00.033972) can0 DC#39100016C0FAC2AE2A0AFADC7000280000000000FFFF26ADE867000000000000
(00.037995) can0 D9#3913001562A9C000A0008001300F20F3FFFFFFFFFF27CBD3B900000000000000
(00.038440) can0 DB#390E0020F400BC02987F831A3F0080554C4DC114B3281D5C060300F1FFFFFFFF279F54D3000000000000000000000000
(00.043794) can0 DB#390F0015C22EBD20FFFF7FCFFFFF3FFFFFFFFFFFFF288D45E200000000000000
(00.044178) can0 18E19490#000000A50000005001000000000000000000001A5A7700000000010000000000000000004A4A4BEA00E8001001FC00F500F6004A4A4A3A011311001505150000
(00.045340) can0 2D#F7B7C604C409001000800020FA6004000800A0FEFFFF7FE001D239FFFFFFFF00FEFF2C2B76D000000000000000000000
(00.049936) can0 E3#4100050800800343CB792B50
(00.054043) can0 DC#39100110153F413943003E06109C002205F0FFF139100016E452C3AE2A0AFADC7000280000000000FFFF28DF679C0000
(00.058403) can0 DB#390E002014E5BD02987F831A3F0080154C4DC114B3281D5C060300F1FFFFFFFF290B7325000000000000000000000000
(00.058947) can0 D9#3913001550E3C100A000C001300F20F3FFFFFFFFFF292690EE00000000000000
(00.063783) can0 DB#390F0015E41FBE20FFFF7FCFFFFF3FFFFFFFFFFFFF2A2371F900000000000000
(00.065429) can0 2D#E8BEC704C409001000800020FA6004000800A0FEFFFF7FE001D239FFFFFFFF00FEFF2DDFF2B100000000000000000000
(00.070044) can0 E3#41000508013D146815913F25
(00.073974) can0 DC#391000167B3AC4AE2A0AFADC7000280000000000FFFF2ACB2FC6000000000000
(00.074356) can0 18E19490#0101000D00F800800CFF00BC02060600000000401F020000AC0D372B012003000002AD012E1200000202C503172F0000AC0D401F0C1E254B1311001505150000
(00.075351) can0 E3#00800004C101E700
(00.078258) can0 D9#39130015527AC201A000C001300F20F3FFFFFFFFFF2BFE398D00000000000000
(00.078724) can0 DB#390E00206739BE02987F831A3F0080154C4DC114B3281D5C050300F1FFFFFFFF2B9CFA74000000000000000000000000
(00.079348) can0 44#04
(00.083784) can0 DB#390F0015060FBF20FFFF7FCFFFFF3FFFFFFFFFFFFF2CC76F3D00000000000000
(00.085336) can0 2D#4DC9C804C409001000800020FA6004000800A0FEFFFF7FE001D239FFFFFFFF00FEFF2F65391000000000000000000000
(00.085870) can0 D4#39040604F37D2984
(00.093968) can0 DC#391000165F92C5AE2A0AFADC7000280000000000FFFF2C1DB3CE000000000000
(00.098008) can0 D9#391300155F80C301A0000002300F20F3FFFFFFFFFF2DB0EC2800000000000000
(00.098502) can0 DB#390E010F4000FFFFFFFFFFFFFF0FD308BCFDFF390E00203CACBF02987F831A3F0080154C4DC114B3281D5C060300F1FFFFFFFF2D1D3DD6000000000000000000
(00.099971) can0 D4#39040C050E0FF4FFFF391501143E219201F85FF5FFFFFFFFFE07009F2801FEFFFF000000000000000000000000000000
(00.100548) can0 D4#390C083CFE7400800000086C343F2E83FF7BDF01D001C501A02CE07C8FB39400009E053C400B5AD08216B4A0052D68CF0000FE7F0FE000FFC9FFFFFF833EE4FF
(00.103825) can0 DB#390F0015BFA0C020FFFF7FCFFFFF3FFFFFFFFFFFFF2EF5960400000000000000
(00.104214) can0 18E19490#028800646464010000007812BA14000000000000E900EB00BC04000001000100FFFF00004714C10594048A1300000000B20C800C820F2C0D1311001505150000
(00.105333) can0 2D#52C0C904C409001000800020FA6004000800A0FEFFFF7FE001D239FFFFFFFF00FEFF31162B0C00000000000000000000
(00.109949) can0 D4#390C140CFFFFFFFFFDFFFFFFFFFFFFFF390C1608FFFFFFFFFFFFFFFF00000000
(00.110341) can0 E3#39060B080011111800C0CFFF390422080039867E781FFAFF
(00.114094) can0 DC#39100016127AC6AE2A0AFADC7000280000000000FFFF2E4AA075000000000000
(00.118004) can0 D9#391300159A05C400A0004001300F20F3FFFFFFFFFF2F7D37823913010B4B00A8548500FE03BAFFEF0000000000000000
(00.118525) can0 DB#390F01064B8504604400390E00207E68C002987F831A3F0080154C4DC114B3281D5C060300F1FFFFFFFF2FE202A80000
(00.123830) can0 DB#390F00155DB0C120FFFF7FCFFFFF3FFFFFFFFFFFFF3073D7FF00000000000000
(00.125436) can0 2D#73DBCA04C409001000800020FA6004000800A0FEFFFF7FE001D239FFFFFFFF00FEFF3321C68700000000000000000000
