(00.013029) can0 2D#4FB26E04C4090090709758624652452CA8DE30FFFFFF7F4002D235FFFFFFFF00FEFF4D0D5E8D00000000000000000000
(00.014081) can0 DB#390E0020AF4E4D00687F831A3F228095494DC116B3281D5C050300F1FFFFFFFF4AEF7273000000000000000000000000
(00.014887) can0 D9#3913001567C24E10A04BCDAE0F1268F0FFFFFFFFFF496B6D2E00000000000000
(00.018579) can0 DC#3910001631B74F0EA221002320352C0000000000FFFF4915E299000000000000
(00.019101) can0 DB#390F0015CD844D20FFFF7FCFFFFF3FFFFFFFFFFFFF4AB2F9A900000000000000
(00.028515) can0 18E19490#036806C41670D20F0E130E1D00F900FC000000090109010000EF01EF01000000001202102700AC0D0D0E120E1E0094DB055916D50C841C001311001505150000
(00.033043) can0 2D#50BB6F04C4090090709758624652452CA8DE30FFFFFF7F4002D235FFFFFFFF00FEFF4FF3356000000000000000000000
(00.033562) can0 D4#39040604F1CC5084
(00.033995) can0 DB#390E002067E24E00687F831A3F2280D5494DC116B3281D5C050300F1FFFFFFFF4C19A173000000000000000000000000
(00.034891) can0 D9#3913001555884F10A04B8DAE0F1268F0FFFFFFFFFF4B1EF96000000000000000
(00.037917) can0 E3#00800004593F4800
(00.038603) can0 DC#39100016BEF7500EAA21002520352C0000000000FFFF4BA8D71D000000000000
(00.039301) can0 DB#390F0015EBB54E20FFFF7FCFFFFF3FFFFFFFFFFFFF4C76D72600000000000000
(00.000949) can0 E3#4100050801C6EB3E92C5740A
(00.001737) can0 DB#390E04105CE30B4C24B4DBFF0FAE6C75EBFFFFFF390F01064E8504603C190000
(00.002115) can0 DC085D#4002000000000000
(00.006028) can0 2D#F2A54A04C4090090709758624652452CA8DE30FFFFFF7F4002D235FFFFFFFF00FEFF052A42F500000000000000000000
(00.007090) can0 DB#390E00201D0B2900687F831A3F228095494DC116B3281D5C060300F1FFFFFFFF020F09E1000000000000000000000000
(00.008088) can0 D9#3913001576C02A10A04BCDAD0F1268F0FFFFFFFFFF0119848800000000000000
(00.011482) can0 DC#39100016DFFD2B0EA221002320352C0000000000FFFF0135DBAC000000000000
(00.012109) can0 DB#390F001543832920FFFF7FCFFFFF3FFFFFFFFFFFFF02F3F83E00000000000000
(00.021413) can0 18E19490#0462015D010F003430EE0C4F0D220121010803010101010100000000000000000000000000000000000000000000000000000000000000001311001505150000
(00.026034) can0 2D#EDAC4B04C4090090709758624652452CA8DE30FFFFFF7F4002D235FFFFFFFF00FEFF078F583A00000000000000000000
(00.027091) can0 DB#390E0020A1662A00687F831A3F228095494DC116B3281D5C060300F1FFFFFFFF0474C0DF000000000000000000000000
(00.027865) can0 D9#39130015E1D32B10A04BCDAC0F1268F0FFFFFFFFFF03E2313900000000000000
(00.031597) can0 DC#3910001640952C0EA221002320352C0000000000FFFF03A49840000000000000
(00.032111) can0 DB#390F001565B22A20FFFF7FCFFFFF3FFFFFFFFFFFFF043D04C600000000000000
(00.046041) can0 2D#B0934C04C4090090709758624652452CA8DE30FFFFFF7F4002D235FFFFFFFF00FEFF09D14D6700000000000000000000
(00.046558) can0 D4#3904060421244984
(00.047132) can0 DB#390E002035422B00687F831A3F228095494DC116B3281D5C060300F1FFFFFFFF067409F2000000000000000000000000
(00.047919) can0 D9#391300154FA12C10A04BCDAC0F1268F0FFFFFFFFFF05EF00B800000000000000
(00.000595) can0 2D#B1F12A04C4090090709758624652452CA8DE30FFFFFF7F4002D235FFFFFFFF00FEFFC54222C100000000000000000000
(00.001653) can0 DB#390E002019D90900687F831A3F228095494DC116B3281D5C060300F1FFFFFFFFC1B3B0AA000000000000000000000000
(00.002311) can0 D9#3913001501FF0A10A04BCDAC0F1268F0FFFFFFFFFFC18A535E00000000000000
(00.005503) can0 E3#39042208003C067E780FFAFF
(00.006104) can0 DC#39100016CBBB0B0EA221002320352C0000000000FFFFC1CAA330000000000000
(00.006678) can0 DB#390F001541BF0920FFFF7FCFFFFF3FFFFFFFFFFFFFC1138B7B00000000000000
(00.007076) can0 21C#23000000000000000000000000000000000000000000000000000000000000000000000000000000000000000000000000000000000000000000000000000000
(00.010544) can0 D4#39040C050E0FF4FFFF3915011445FD93E1F85FF5FFFFFFFFFE07009F2871FEFFFF000000000000000000000000000000
(00.015457) can0 E3#4100050800800343CCB1C5BA
(00.020577) can0 2D#AEF82B04C4090090709758624652452CA8DE30FFFFFF7F4002D235FFFFFFFF00FEFFC726C17D00000000000000000000
(00.021659) can0 DB#390E010F3035FFFFFFFFFFFFFFAFD208BCFDFF390E0020A5B40A00687F831A3F228095494DC116B3281D5C060300F1FFFFFFFFC313B844000000000000000000
(00.023636) can0 D9#3913010B57BA38559500FE03BAFFEF3913001536590B10A04B4DAD0F1268F0FFFFFFFFFFC396AACD0000000000000000
(00.025979) can0 DC#39100110553F41324B104916E89C122095C0FFF13910001654D30C0EA221002320352C0000000000FFFFC30616050000
(00.026495) can0 18E19490#036906BD1676D2120E150E1D00F700FA000000080108010000EF01EF01000000001002102700AC0D0D0E120E1E0094DC056D16D50C841C001311001505150000
(00.027187) can0 DB#390F0015678E0A20FFFF7FCFFFFF3FFFFFFFFFFFFFC385F6FF00000000000000
(00.035502) can0 E3#410005080137083D3D308CE9
(00.036376) can0 21C#2400000000000000
(00.040577) can0 2D#F3C72C04C4090090709758624652452CA8DE30FFFFFF7F4002D235FFFFFFFF00FEFFC984173500000000000000000000
(00.041660) can0 DB#390F01064E8504602019390E002045510B00687F831A3F2280D5494DC116B3281D5C060300F1FFFFFFFFC6C7D6EC0000
(00.042603) can0 D9#39130015E8C40C10A04B8DAD0F1268F0FFFFFFFFFFC5B78CCD00000000000000
(00.046012) can0 DC#39100016707B0D0EA221002320352C0000000000FFFFC5801C17000000000000
(00.046721) can0 DB#390F0015859E0B20FFFF7FCFFFFF3FFFFFFFFFFFFFC6A5890700000000000000
(00.001728) can0 DC#391000168679EB0EA221002320352C0000000000FFFF810DEA6A000000000000
(00.002110) can0 18E19490#01F001480D2001800CFA00BC02060620030000401F01C803AC0D03070120037C0E01FB06860C000001010000CC37D007AC0D401F0C2E14511311001505150000
(00.002814) can0 DB#390F00154F0BE920FFFF7FCFFFFF3FFFFFFFFFFFFF82C21B1600000000000000
(00.016291) can0 2D#6FCB0B04C4090090709758624652452CA8DE30FFFFFF7F4002D235FFFFFFFF00FEFF878726AE00000000000000000000
(00.016810) can0 D4#3904060411DA3C84
(00.017419) can0 DB#390E0020FBAAEA00687F831A3F228095494DC116B3281D5C060300F1FFFFFFFF84C6D4F9000000000000000000000000
(00.017944) can0 D9#391300155996EB10A04A4DAD0F1268F0FFFFFFFFFF833734C700000000000000
(00.021169) can0 E3#008000041E323400
(00.021733) can0 DC#391000161911EC0EA221002320352C0000000000FFFF836A2E6F000000000000
(00.022403) can0 DB#390F0015693AEA20FFFF7FCFFFFF3FFFFFFFFFFFFF849FBD8400000000000000
(00.031671) can0 18E19490#0284006464640100042754020300000000000000E600E900C004C104B9040200FEFF00004B14D10571058513000011028608800C8A0F2C0D1311001505150000
(00.036294) can0 2D#32F40C04C4090090709758624652452CA8DE30FFFFFF7F4002D235FFFFFFFF00FEFF89F2CEE700000000000000000000
(00.037373) can0 DB#390E0020A03FEB00687F831A3F228095494DC116B3281D5C050300F1FFFFFFFF863D2A36000000000000000000000000
(00.037909) can0 D9#39130015F208EC10A04A8DAC0F1268F0FFFFFFFFFF85DDC0BF00000000000000
(00.041206) can0 E3#39042208003C067E780FFAFF
(00.041494) can0 4F#203B06A000499E5E
(00.041846) can0 DC#391000163DB9ED0EA221002320352C0000000000FFFF85EB967C000000000000
(00.042400) can0 DB#390F00158B2AEB20FFFF7FCFFFFF3FFFFFFFFFFFFF86E95D7B00000000000000
(00.046246) can0 D4#39040C050E0FF4FFFF3915011445FD93E5F85FF5FFFFFFFFFE07009F2875FEFFFF000000000000000000000000000000
(00.001217) can0 18E19490#0000000100000055056906D8030000EF0164013B028D000082018E0100000E09070900004F4E4DE700E80062012C01160106014D4C4B60031311001505150000
(00.005933) can0 2D#2850EB04C4090090709758624652452CA8DE30FFFFFF7F4002D235FFFFFFFF00FEFF4794F98800000000000000000000
(00.007024) can0 DB#390E002030C9CA00687F831A3F228095494DC116B3281D5C050300F1FFFFFFFF44F441C0000000000000000000000000
(00.007883) can0 D9#391300158BF0CB10A04A0DAD0F1268F0FFFFFFFFFF43D9415400000000000000
(00.011362) can0 DC#39100016924DCC0EAA21002520352C0000000000FFFF42A2BAF4000000000000
(00.012043) can0 DB#390F00156B06CA20FFFF7FCFFFFF3FFFFFFFFFFFFF44C27EE100000000000000
(00.025928) can0 2D#756FEC04C4090090709758624652452CA8DE30FFFFFF7F4002D235FFFFFFFF00FEFF49C10EAE00000000000000000000
(00.027024) can0 DB#390E00206B5CCB00687F831A3F228095494DC116B3281D5C060300F1FFFFFFFF4645F3E2000000000000000000000000
(00.027656) can0 D9#39130015F5D8CC10A04A4DAD0F1268F0FFFFFFFFFF4584CAC500000000000000
(00.031260) can0 DC#3910001629FFCD0EA221002320352C0000000000FFFF459B7AD5000000000000
(00.031643) can0 18E19490#01F201480D2001800CFA00BC02060620030000401F01C903AC0D03070120037C0E01FA06870C000001010000E437D007AC0D401F0C280A511311001505150000
(00.032346) can0 DB#390F00158916CB20FFFF7FCFFFFF3FFFFFFFFFFFFF4655B8C500000000000000
(00.045958) can0 2D#6A66ED04C4090090709758624652452CA8DE30FFFFFF7F4002D235FFFFFFFF00FEFF4AA035C900000000000000000000
(00.046476) can0 D4#39040604BAB23684
(00.047066) can0 DB#390E002087A3CC00687F831A3F228095494DC116B3281D5C060300F1FFFFFFFF48668D97000000000000000000000000
(00.047585) can0 D9#39130015065CCD10A04B8DAD0F1268F0FFFFFFFFFF477AB3A600000000000000
(00.002516) can0 2D#F66ACA04C4090090709758624652452CA8DE30FFFFFF7F4002D235FFFFFFFF00FEFF05BF370F00000000000000000000
(00.003036) can0 D4#390406046A5A2F84
(00.003647) can0 DB#390E00206E73A900687F831A3F228095494DC116B3281D5C060300F1FFFFFFFF02331D4F000000000000000000000000
(00.004312) can0 D9#391300156FA4AA10A04A0DAD0F1268F0FFFFFFFFFF013987DF00000000000000
(00.007413) can0 E3#0080000465B22700410000080142315052313138
(00.007830) can0 DC#391000168998AB0EAA41002520352C0000000000FFFF00B1517D000000000000
(00.008703) can0 DB#390F00154B73A920FFFF7FCFFFFF3FFFFFFFFFFFFF0220A4E300000000000000
(00.022505) can0 2D#E963CB04C4090090709758624652452CA8DE30FFFFFF7F4002D235FFFFFFFF00FEFF07E4A7D400000000000000000000
(00.023614) can0 DB#390E0020D21EAA00687F831A3F228095494DC116B3281D5C060300F1FFFFFFFF04922F48000000000000000000000000
(00.024135) can0 D9#39130015FD5BAB10A04ACDAD0F1268F0FFFFFFFFFF0359942B00000000000000
(00.027443) can0 E3#39042208003C067E780FFAFF410000080234393705A8FDD20500000CF5FCFF0000000000092817370000000000000000
(00.027968) can0 DC#39100016319DAC0EA221002320352C0000000000FFFF02EA1A27000000000000
(00.028350) can0 18E19490#045C015D010F004830F00C4E0D220120010803010101010100000000000000000000000000000000000000000000000000000000000000001311001505150000
(00.029071) can0 DB#390F00156D42AA20FFFF7FCFFFFF3FFFFFFFFFFFFF04EAE5A900000000000000
(00.032485) can0 D4#39040C050E0FF4FFFF000000
(00.037380) can0 E3#4100050800800343CCB10755
(00.042497) can0 2D#B45CCC04C4090090709758624652452CA8DE30FFFFFF7F4002D235FFFFFFFF00FEFF09300FEE00000000000000000000
(00.043613) can0 DB#390E010F3C35FFFFFFFFFFFFFFAFD208BCFDFF390E002032FBAB00687F831A3F2280D5494DC116B3281D5C060300F1FFFFFFFF0685EF38000000000000000000
(00.045117) can0 D9#3913010B57BA38559500FE03BAFFEF391300156C99AC10A04A4DAE0F1268F0FFFFFFFFFF051401090000000000000000
(00.047727) can0 DC#39100110553F41004B10B112E99C122095C0FFF1391000161535AD0EA221002320352C0000000000FFFF04D4BA720000
(00.048781) can0 DB#390F00158F52AB20FFFF7FCFFFFF3FFFFFFFFFFFFF061E3B9F00000000000000
(00.001801) can0 2D#AA37AB04C4090090709758624652452CA8DE30FFFFFF7F4002D235FFFFFFFF00FEFFC7E28A1700000000000000000000
(00.002919) can0 DB#390E00206B9F8A00687F831A3F228055494DC116B3281D5C060300F1FFFFFFFFC3A88207000000000000000000000000
(00.003707) can0 D9#391300152AD18B10A04A4DAC0F1268F0FFFFFFFFFFC3B099DB00000000000000
(00.007026) can0 DC#3910001602B68C0EAA41002520352C0000000000FFFFC25F8580000000000000
(00.008029) can0 DB#390F00156F7E8A20FFFF7FCFFFFF3FFFFFFFFFFFFFC3DF2EC200000000000000
(00.016930) can0 18E19490#036906BE1678D2110E160E1D00F900FB000000070107010000EF01EF01000000000F02102700AC0D0D0E120E1E0094D9056416D20C841C001311001505150000
(00.021828) can0 2D#169FAC04C4090090709758624652552C98DE30FFFFFF7F4002D235FFFFFFFF00FEFFC90CAE3600000000000000000000
(00.022348) can0 D4#39040604F37D2984
(00.022508) can0 E3#00800004FC952100
(00.022992) can0 DB#390E002005BE8BFF677F831A3F228095494DC116B3281D5C060300F1FFFFFFFFC554FB36000000000000000000000000
(00.023931) can0 D9#3913001584A38C10A04A4DAC0F1268F0FFFFFFFFFFC5563D1000000000000000
(00.027053) can0 DC#3910001601738D0EA221002320352C0000000000FFFFC4006670000000000000
(00.028045) can0 DB#390F00158D6E8B20FFFF7FCFFFFF3FFFFFFFFFFFFFC520AD9B00000000000000
(00.041809) can0 2D#E801AD04C4090090709758624652452CA8DE30FFFFFF7F4002D235FFFFFFFF00FEFFCB1B091500000000000000000000
(00.042330) can0 E3#02800008AA4F4E018333188339042208003C067E780FFAFF
(00.042970) can0 DB#390E0020AE178C00687F831A3F228095494DC116B3281D5C060300F1FFFFFFFFC7534387000000000000000000000000
(00.043682) can0 D9#39130015C6068D10A04ACDAC0F1268F0FFFFFFFFFFC7E509FF00000000000000
(00.046733) can0 E3#0500000CF5FCFF0000000000CDA1AB59
(00.046967) can0 DC#39100016F4EC8E0EA241002320352C0000000000FFFFC6045BFA000000000000
(00.047351) can0 18E19490#0460015D010F004830ED0C4F0D220120010803010101010100000000000000000000000000000000000000000000000000000000000000001311001505150000
(00.048101) can0 DB#390F0015231C8C20FFFF7FCFFFFF3FFFFFFFFFFFFFC762FEAD00000000000000
(00.000802) can0 2D#363B8C04C4090090709758624652452CA8DE30FFFFFF7F4002D235FFFFFFFF00FEFF8950ED7200000000000000000000
(00.001938) can0 DB#390F01064E8504601C1B390E00201CF66B00687F831A3F228095494DC116B3281D5C060300F1FFFFFFFF86D7A53E0000
(00.002649) can0 D9#3913001561AA6C10A04ACDAB0F1268F0FFFFFFFFFF8576205300000000000000
(00.005965) can0 DC#39100016F4C66D0EA241002320352C0000000000FFFF85803BEC000000000000
(00.006348) can0 18E19490#0284006464640100022753020200000000000000E700EA00BD04C004C3040200FFFF00004E14D20574058513000011028608800C820F2C0D1311001505150000
(00.007048) can0 DB#390F001583DA6B20FFFF7FCFFFFF3FFFFFFFFFFFFF860B5F7D00000000000000
(00.020803) can0 2D#29328D04C4090090709758624652452CA8DE30FFFFFF7F4002D235FFFFFFFF00FEFF8B6F8AAC00000000000000000000
(00.021929) can0 DB#390E0020F0096C00687F831A3F228095494DC116B3281D5C060300F1FFFFFFFF884DC604000000000000000000000000
(00.022451) can0 D9#39130015097C6D10A04B4DAC0F1268F0FFFFFFFFFF87E036B200000000000000
(00.026039) can0 DC#39100016B92E6E0EA241002320352C0000000000FFFF86F6853B000000000000
(00.027039) can0 DB#390F00152DA86C20FFFF7FCFFFFF3FFFFFFFFFFFFF8896B81B00000000000000
(00.035958) can0 18E19490#036806C6166ED2100E140E1D00F800FC000000080108010000EF01EF01000000001002102700AC0D0F0E130E1E0094D8055716D70C841C001311001505150000
(00.040841) can0 2D#08298E04C4090090709758624652452CA8DE30FFFFFF7F4002D235FFFFFFFF00FEFF8D0571EE00000000000000000000
(00.041362) can0 D4#3904060458152384
(00.041970) can0 DB#390E0020642D6D00687F831A3F228095494DC116B3281D5C060300F1FFFFFFFF8AE98D43000000000000000000000000
(00.042489) can0 D9#391300158A146E10A04B0DAD0F1268F0FFFFFFFFFF8932B2B200000000000000
(00.045695) can0 E3#00800004BED11B00
(00.046108) can0 DC#3910001625F16F0EA221002320352C0000000000FFFF8829E721000000000000
(00.046970) can0 DB#390F0015CFB86D20FFFF7FCFFFFF3FFFFFFFFFFFFF8A93DF4000000000000000
(00.001880) can0 2D#8F3E6D04C4090090709758624652552C98DE30FFFFFF7F4002D235FFFFFFFF00FEFF4BE8C1C600000000000000000000
(00.003025) can0 DB#390E010F4835FFFFFFFFFFFFFFAFD208BCFDFF390E00200EDE4CFF677F831A3F228055494DC116B3281D5C060300F1FFFFFFFF4853EA8B000000000000000000
(00.004376) can0 D9#3913010B57BA38559500FE03BAFFEF391300156FD74D10A04A8DAD0F1268F0FFFFFFFFFF478FE7570000000000000000
(00.007074) can0 DC#39100110553F41394B101916E99C122095C0FFF5391000168A054E0EAA21002520352C0000000000FFFF4762AA580000
(00.008117) can0 DB#390F00152F944C20FFFF7FCFFFFF3FFFFFFFFFFFFF48B6029800000000000000
(00.016801) can0 E3#410005080112423939612E6C
(00.021877) can0 2D#AE256E04C4090090709758624652552C98DE30FFFFFF7F4002D235FFFFFFFF00FEFF4D339AC300000000000000000000
(00.023025) can0 DB#390F01064E8504601C1B390E0020AF4E4D00687F831A3F228095494DC116B3281D5C050300F1FFFFFFFF4A4B762A0000
(00.023698) can0 D9#39130015ECBF4E10A04ACDAC0F1268F0FFFFFFFFFF49DCB44000000000000000
(00.027003) can0 DC#3910001689C04F0EA241002320352C0000000000FFFF495D92DB000000000000
(00.027385) can0 18E19490#0284006464640100032757020300000000000000E600E900BE04C204C4040200FDFF00004B14D30573058213000010028608800C6E0F2C0D1311001505150000
(00.028116) can0 DB#390F0015CD844D20FFFF7FCFFFFF3FFFFFFFFFFFFF4AB9006D00000000000000
(00.041881) can0 2D#50BB6F04C4090090709758624652452CA8DE30FFFFFF7F4002D235FFFFFFFF00FEFF4F1A5F6700000000000000000000
(00.043015) can0 DB#390E0020AE704E00687F831A3F228055494DC116B3281D5C050300F1FFFFFFFF4C013799000000000000000000000000
(00.043536) can0 D9#39130015AE1A4F10A04A4DAC0F1268F0FFFFFFFFFF4B4BD48900000000000000
(00.047073) can0 DC#39100016999A500EA241002320352C0000000000FFFF4A2D0ABC000000000000
(00.048172) can0 DB#390F0015EBB54E20FFFF7FCFFFFF3FFFFFFFFFFFFF4C91FA2500000000000000
(00.001319) can0 DC#39100110553E41004B10E142E99C122095C0FFF539100016678A2B0EA241002320352C0000000000FFFF0019669A0000
(00.001836) can0 18E19490#036806C61673D2110E150E1D00FC00FB000000080108010000EF01EF01000000001102102700AC0D0D0E120E1E0094D9055316D10C841C001311001505150000
(00.002684) can0 DB#390F001543832920FFFF7FCFFFFF3FFFFFFFFFFFFF0112E4D400000000000000
(00.006234) can0 E3#3980000C007F6D8FDD30B0FE071B37193E800108C3020360B828E0FF4100050801441143C224E2940000000000000000
(00.016301) can0 2D#EDAC4B04C4090090709758624652452CA8DE30FFFFFF7F4002D235FFFFFFFF00FEFF072BC7A700000000000000000000
(00.017453) can0 DB#390E0020A1662A00687F831A3F228095494DC116B3281D5C060300F1FFFFFFFF04EBA8E5000000000000000000000000
(00.018088) can0 D9#3913001585442B10A04A0DAD0F1268F0FFFFFFFFFF0383705200000000000000
(00.021276) can0 DC#39100016F8E22C0EA241002320352C0000000000FFFF02430F6E000000000000
(00.022522) can0 DB#390F001565B22A20FFFF7FCFFFFF3FFFFFFFFFFFFF04DE212000000000000000
(00.031364) can0 18E19490#045F015C010F004830ED0C4E0D220120010803010101010100000000000000000000000000000000000000000000000000000000000000001311001505150000
(00.036312) can0 2D#B0934C04C4090090709758624652452CA8DE30FFFFFF7F4002D235FFFFFFFF00FEFF0987796400000000000000000000
(00.037452) can0 DB#390E00200E2C2B00687F831A3F218095494DC116B3281D5C060300F1FFFFFFFF067D7912000000000000000000000000
(00.038096) can0 D9#391300152EDA2C10A04ACDAC0F1268F0FFFFFFFFFF05EC18EF00000000000000
(00.041390) can0 DC#39100016643D2D0EA221002320352C0000000000FFFF05EBA913000000000000
(00.042587) can0 DB#390F001587A22B20FFFF7FCFFFFF3FFFFFFFFFFFFF06F07F4800000000000000
(00.003578) can0 2D#90EA2904C4090090709758624652452CA8DE30FFFFFF7F4002D235FFFFFFFF00FEFFC35E76C800000000000000000000
(00.004736) can0 DB#390E0020B6930800687F831A3F218095494DC116B3281D5C060300F1FFFFFFFFC06AE220000000000000000000000000
(00.005258) can0 D9#39130015E6000910A04A4DAC0F1268F0FFFFFFFFFFBF39328900000000000000
(00.008536) can0 DC#39100016EF130A0EA221002320352C0000000000FFFFBE9EA637000000000000
(00.008919) can0 18E19490#01F301480D1F01800CFF00BC02060620030000401F01C703AC0D0607012003800E01FA06860C000001010000DC37D007AC0D401F0C0115511311001505150000
(00.009859) can0 DB#390F0015A3AF0820FFFF7FCFFFFF3FFFFFFFFFFFFFC0AE38F200000000000000
(00.023600) can0 2D#B1F12A04C4090090709758624652452CA8DE30FFFFFF7F4002D235FFFFFFFF00FEFFC53DE8BD00000000000000000000
(00.024119) can0 D4#39040604246D0F84
(00.024281) can0 E3#008000042B850700
(00.024808) can0 DB#390E002019D90900687F831A3F228095494DC116B3281D5C060300F1FFFFFFFFC2815E41000000000000000000000000
(00.025330) can0 D9#39130015106B0A10A04A0DAC0F1268F0FFFFFFFFFFC182BCEB00000000000000
(00.028505) can0 DC#39100016CBBB0B0EA221002320352C0000000000FFFFC07408B0000000000000
(00.029824) can0 DB#390F001541BF0920FFFF7FCFFFFF3FFFFFFFFFFFFFC29CB2AA00000000000000
(00.038536) can0 18E19490#0284006464640100032754020200000000000000E600E900BD04C004C5040200FDFF00004B14D20572058513000010028608800C8E0F2C0D1311001505150000
(00.043587) can0 2D#AEF82B04C4090090709758624652452CA8DE30FFFFFF7F4002D235FFFFFFFF00FEFFC701E0F400000000000000000000
(00.044741) can0 DB#390E0020A5B40A00687F831A3F228095494DC116B3281D5C060300F1FFFFFFFFC41A4632000000000000000000000000
(00.045263) can0 D9#3913001522210B10A04A4DAC0F1268F0FFFFFFFFFFC3218A0E00000000000000
(00.048506) can0 E3#39042208003C067E780FFAFF0500000CF5FCFF0000000000C9942C5D00000000
(00.048888) can0 4F#20230DA000499E59
(00.049051) can0 DC#39100016ECA40C0EA241002320352C0000000000FFFFC2B38164000000000000
(00.002658) can0 2D#70C20A04C4090090709758624652452CA8DE30FFFFFF7F4002D235FFFFFFFF00FEFF850074C500000000000000000000
(00.003851) can0 DB#390F01064E850460FC1A390E00207CA9E900687F831A3F218095494DC116B3281D5C060300F1FFFFFFFF822A5C6F0000
(00.004362) can0 D9#391300159419EA10A04B8DAB0F1268F0FFFFFFFFFF81DECC6A00000000000000
(00.007578) can0 DC#391000163E0EEB0EA241002320352C0000000000FFFF812D028B000000000000
(00.008897) can0 DB#390F00154F0BE920FFFF7FCFFFFF3FFFFFFFFFFFFF817A127900000000000000
(00.022658) can0 2D#6FCB0B04C4090090709758624652452CA8DE30FFFFFF7F4002D235FFFFFFFF00FEFF87F4A8C600000000000000000000
(00.023826) can0 DB#390E0020FBAAEA00687F831A3F228095494DC116B3281D5C060300F1FFFFFFFF83CACA44000000000000000000000000
(00.024349) can0 D9#3913001506E6EB10A04B4DAB0F1268F0FFFFFFFFFF835BE79300000000000000
(00.027558) can0 DC#39100016A166EC0EA241002320352C0000000000FFFF829C0F22000000000000
(00.027942) can0 18E19490#01F201480D2001800CFA00BC02060620030000401F01CA03AC0DFF06012003740E01FA06870C000001010000DC37D007AC0D401F0C600B511311001505150000
(00.028896) can0 DB#390F0015693AEA20FFFF7FCFFFFF3FFFFFFFFFFFFF8345E71200000000000000
(00.032602) can0 DC085B#4002080400000000
(00.042675) can0 2D#32F40C04C4090090709758624652452CA8DE30FFFFFF7F4002D235FFFFFFFF00FEFF89B266B000000000000000000000
(00.043194) can0 D4#39040604BD4A0984
(00.043355) can0 E3#00800004B2A20100
(00.043898) can0 DB#390E0020D2DDEB00687F831A3F228055494DC116B3281D5C060300F1FFFFFFFF85039D09000000000000000000000000
(00.044417) can0 D9#39130015D87BEC10A04B8DAB0F1268F0FFFFFFFFFF85A7149F00000000000000
(00.047530) can0 DC#391000163DB9ED0EA221002320352C0000000000FFFF84921782000000000000
(00.048913) can0 DB#390F00158B2AEB20FFFF7FCFFFFF3FFFFFFFFFFFFF851A786800000000000000
(00.010104) can0 2D#8BF1ED04C4090090709758624652552C98DE30FFFFFF7F4002D235FFFFFFFF00FEFF4BDFA01C00000000000000000000
(00.011283) can0 DB#390E00207DA6CCFF677F831A3F228055494DC116B3281D5C060300F1FFFFFFFF47020C4C000000000000000000000000
(00.011805) can0 D9#39130015D3EACD10A04B0DAC0F1268F0FFFFFFFFFF47CFABD500000000000000
(00.014979) can0 DC#39100016392ACE0EA24100231C352C0000000000FFFF4668A1DC000000000000
(00.015360) can0 18E19490#01F301480D1E01800CFF00BC02060620030000401F01CA03AC0D0307012003780E01FA06870C000001010000F437D007AC0D401F0C5A01511311001505150000
(00.016353) can0 DB#390F00152764CC20FFFF7FCFFFFF3FFFFFFFFFFFFF47224DC400000000000000
(00.030126) can0 2D#AAEAEE04C4090090709758624652552C98DE30FFFFFF7F4002D235FFFFFFFF00FEFF4DF352C600000000000000000000
(00.030645) can0 D4#3904060416220384
(00.030806) can0 E3#008000045455FB00
(00.031374) can0 DB#390E002028E9CD00687F831A3F218095494DC116B3281D5C060300F1FFFFFFFF497811A3000000000000000000000000
(00.031893) can0 D9#39130015F5DBCE10A04B0DAC0F1268F0FFFFFFFFFF49532C9000000000000000
(00.034951) can0 DC#3910001640BFCF0EA221002320352C0000000000FFFF48DAD69A000000000000
(00.036355) can0 DB#390F0015C574CD20FFFF7FCFFFFF3FFFFFFFFFFFFF49CCD61000000000000000
(00.044985) can0 18E19490#0284006464640100042755020300000000000000E600E900BE04C104C5040200FEFF00004A14EE0572057F13000010028608800C820F2C0D1311001505150000
(00.001021) can0 2D#C0A1D004C4090090709758624652452CA8DE30FFFFFF7F4002D235FFFFFFFF00FEFF1133776900000000000000000000
(00.001539) can0 D4#39040604011FFD84
(00.001701) can0 E3#008000040EF7F500
(00.002278) can0 DB#390E002016A8AF00687F831A3F228095494DC116B3281D5C060300F1FFFFFFFF0D67EF2B000000000000000000000000
(00.002797) can0 D9#3913001545D9B010A04B8DAB0F1268F0FFFFFFFFFF0DFEA1FF00000000000000
(00.005833) can0 DC#391000164887B10EA221002320352C0000000000FFFF0CD18EEC000000000000
(00.007259) can0 DB#390F00150711AF20FFFF7FCFFFFF3FFFFFFFFFFFFF0D3E6AE500000000000000
(00.007652) can0 21C#2400000000000000
(00.010917) can0 E3#410000080142315052313138
(00.015878) can0 18E19490#0284006464640100032756020200000000000000E600E900BF04C004C5040100FDFF00005114C40572058213000010028608800C9B0F2C0D1311001505150000
(00.021013) can0 2D#DFA8D104C4090090709758624652452CA8DE30FFFFFF7F4002D235FFFFFFFF00FEFF13DEBEBF00000000000000000000
(00.022197) can0 DB#390E0020790AB000687F831A3F228095494DC116B3281D5C060300F1FFFFFFFF0FF5888C000000000000000000000000
(00.022718) can0 D9#39130015C6B2B110A04A8DAB0F1268F0FFFFFFFFFF0F132E8300000000000000
(00.025875) can0 DC#39100016056FB20EA221002320352C0000000000FFFF0E159126000000000000
(00.026258) can0 E3#39042208003C067E780FFAFF410000080234393711EAA8380500000CF5FCFF000000000015C8D5080000000000000000
(00.027390) can0 DB#390F0015B8FAB020FFFF7FCFFFFF3FFFFFFFFFFFFF0F0B576300000000000000
(00.030964) can0 D4#39040C050E0FF4FFFF000000
(00.035880) can0 E3#4100050800800343CCAF1398
(00.041000) can0 2D#FEB3D204C4090090709758624652452CA8DE30FFFFFF7F4002D235FFFFFFFF00FEFF15E59C5900000000000000000000
(00.042196) can0 DB#390E010F3C35FFFFFFFFFFFFFFAFD208BCFDFF390E0020D640B100687F831A3F218095494DC116B3281D5C060300F1FFFFFFFF11AD8520000000000000000000
(00.043646) can0 D9#3913010B57BA38559500FE03BAFFEF391300151F46B210A04B0DAD0F1268F0FFFFFFFFFF111E24140000000000000000
(00.045826) can0 DC#39100110553F41304B102156E99C122095C0FFF53910001621C7B30EA221002320352C0000000000FFFF10E387280000
(00.046340) can0 18E19490#036806BE1650D20E0E130E1D00FA00FA000000080108010000EF01EF01000000001002102700AC0D0F0E130E1E0094DB056616D50C841C001311001505150000
(00.047409) can0 DB#390F00155AEAB120FFFF7FCFFFFF3FFFFFFFFFFFFF119FC9F500000000000000
(00.002777) can0 DC#391000161129920EA221002320352C0000000000FFFFCEDAAB86000000000000
(00.003158) can0 18E19490#01F401480D1F01800CFF00BC02060620030000401F01AF01AC0DFF06012003700E01FB06860C000001010000DC37D007AC0D401F0C4E1F511311001505150000
(00.004326) can0 DB#390F0015BAC69020FFFF7FCFFFFF3FFFFFFFFFFFFFCF84DFEE00000000000000
(00.018077) can0 2D#5C70B204C4090090709758624652552C98DE30FFFFFF7F4002D235FFFFFFFF00FEFFD5D1114200000000000000000000
(00.018596) can0 D4#39040604AA77F784
(00.018757) can0 E3#008000040284EF00
(00.019344) can0 DB#390E002013F991FF677F831A3F228055494DC116B3281D5C060300F1FFFFFFFFD1431C71000000000000000000000000
(00.019864) can0 D9#3913001579ED9210A04ACDAC0F1268F0FFFFFFFFFFD1AAE24300000000000000
(00.022749) can0 DC#391000168DF6930EA241002320352C0000000000FFFFD04C9C43000000000000
(00.024374) can0 DB#390F001558D69120FFFF7FCFFFFF3FFFFFFFFFFFFFD17544F200000000000000
(00.032802) can0 18E19490#0284006464640100032754020200000000000000E600EA00BD04C104C6040200FEFF00004B14CF0573058513000011028708800C860F2C0D1311001505150000
(00.038067) can0 2D#4379B304C4090090709758624652552C98DE30FFFFFF7F4002D235FFFFFFFF00FEFFD79A9A6400000000000000000000
(00.038586) can0 E3#02800008B28849018333188339042208003C067E780FFAFF
(00.039312) can0 DB#390E002094FA92FF677F831A3F218055494DC116B3281D5C060300F1FFFFFFFFD3572EA4000000000000000000000000
(00.039833) can0 D9#39130015EB129310A04A0DAC0F1268F0FFFFFFFFFFD3A6014500000000000000
(00.042794) can0 DC#391000164FA3940EA22100231C352C0000000000FFFFD248F4E4000000000000
(00.043175) can0 E3#0500000CF5FCFF0000000000D996DEEB
(00.044325) can0 DB#390F00157EE79220FFFF7FCFFFFF3FFFFFFFFFFFFFD323847100000000000000
(00.048021) can0 D4#39040C050E0FF4FFFF000000
(00.006724) can0 18E19490#0284006464640100032754020300000000000000E600E900BE04BD04C7040300FDFF00004B14D20572058513000012028708800C760F2C0D1311001505150000
(00.012043) can0 2D#21EB9504C4090090709758624652452CA8DE30FFFFFF7F4002D235FFFFFFFF00FEFF9BFDA87700000000000000000000
(00.013225) can0 D9#39130015F3587510A04BCDAB0F1268F0FFFFFFFFFF97B0816900000000000000
(00.013602) can0 DB#390E002073547400687F831A3F228095494DC116B3281D5C060300F1FFFFFFFF983C46AD000000000000000000000000
(00.016713) can0 DC#39100016F43B760EAA2100251C352C0000000000FFFF9682023B000000000000
(00.017095) can0 E3#39042208003C067E780FFAFF0500000CF5FCFF00000000009D9311CF00000000
(00.017477) can0 4F#203A07A000499E56
(00.018368) can0 DB#390F00153C317420FFFF7FCFFFFF3FFFFFFFFFFFFF98223AC200000000000000
(00.022004) can0 D4#39040C050E0FF4FFFF39FE1D085940B20840020000000000
(00.026633) can0 DC08E2#4002000000000000
(00.026923) can0 E3#4100050800800343CCAE9B9A
(00.032026) can0 2D#00F09604C4090090709758624652452CA8DE30FFFFFF7F4002D235FFFFFFFF00FEFF9D2B353D00000000000000000000
(00.033226) can0 DB#390E010F4435FFFFFFFFFFFFFFAFD208BCFDFF390E0020DC1E7500687F831A3F218095494DC116B3281D5C060300F1FFFFFFFF9AB96FD2000000000000000000
(00.034604) can0 D9#3913010B56BA38559500FE03BAFFEF391300153ED47610A04B4DAC0F1268F0FFFFFFFFFF99E90F870000000000000000
(00.036667) can0 DC#39100110553F41004B10C112E99C122095C0FFF539100016D093770EAA2100251C352C0000000000FFFF97744A840000
(00.037181) can0 18E19490#036806B81673D20F0E130E1D00FB00F3000000080108010000EF01EF01000000001002102700AC0D0E0E130E1E0094D9057416D20C841C001311001505150000
(00.038502) can0 DB#390F0015DE217520FFFF7FCFFFFF3FFFFFFFFFFFFF9A51B2BE00000000000000
(00.041960) can0 E3#3980000C007F428FDF30B0FE9F4B0C364100050801BDBCD3C699F1D700000000
(00.006704) can0 2D#E21C7904C4090090709758624652452CA8DE30FFFFFF7F4002D235FFFFFFFF00FEFF63BA772000000000000000000000
(00.007894) can0 DB#390E00201B735800687F831A3F228055494DC116B3281D5C060300F1FFFFFFFF60FCF240000000000000000000000000
(00.008416) can0 D9#3913001527445910A04B0DAD0F1268F0FFFFFFFFFF5F72D3F800000000000000
(00.011307) can0 DC#39100016CDBC5A0EA221002320352C0000000000FFFF5E7EE35E000000000000
(00.012991) can0 DB#390F0015A6C95820FFFF7FCFFFFF3FFFFFFFFFFFFF6073A1F300000000000000
(00.021364) can0 18E19490#0460015E010F004830E80C4F0D22011F010803010101010100000000000000000000000000000000000000000000000000000000000000001311001505150000
(00.026709) can0 2D#22907A04C4090090709758624652552C98DE30FFFFFF7F4002D235FFFFFFFF00FEFF65D2B01800000000000000000000
(00.027902) can0 DB#390E00204E3C59FF677F831A3F218095494DC116B3281D5C060300F1FFFFFFFF62A79601000000000000000000000000
(00.028422) can0 D9#391300152EEA5A10A04ACDAB0F1268F0FFFFFFFFFF610059D100000000000000
(00.031465) can0 DC#39100016760E5B0EAA21002520352C0000000000FFFF61528103000000000000
(00.033042) can0 DB#390F001544D95920FFFF7FCFFFFF3FFFFFFFFFFFFF62181AED00000000000000
(00.046721) can0 2D#DC0E7B04C4090090709758624652452CA8DE30FFFFFF7F4002D235FFFFFFFF00FEFF67E9B66C00000000000000000000
(00.047242) can0 D4#390406041272EC84
(00.047402) can0 E3#008000041D9AE400
(00.047961) can0 D9#39130015F71D5B10A04A0DAC0F1268F0FFFFFFFFFF6387CE1100000000000000
(00.048339) can0 DB#390E002008545A00687F831A3F218055494DC116B3281D5C060300F1FFFFFFFF64CDD77E000000000000000000000000
(00.001068) can0 DC#391000166DDB3C0EAA41002520352C0000000000FFFF22EB678D000000000000
(00.002774) can0 DB#390F001564AC3A20FFFF7FCFFFFF3FFFFFFFFFFFFF24CF444D00000000000000
(00.011112) can0 18E19490#045E015D010F004830EB0C4E0D22011E010803010101010100000000000000000000000000000000000000000000000000000000000000001311001505150000
(00.016483) can0 2D#A1955C04C4090090709758624652552C98DE30FFFFFF7F4002D235FFFFFFFF00FEFF2913696C00000000000000000000
(00.017676) can0 DB#390E0020CD2E3BFF677F831A3F228055494DC116B3281D5C060300F1FFFFFFFF2632B6B6000000000000000000000000
(00.018195) can0 D9#391300158F713C10A04A4DAC0F1268F0FFFFFFFFFF256C27F700000000000000
(00.021186) can0 DC#391000168B543D0EA22100231C352C0000000000FFFF255E578D000000000000
(00.022775) can0 DB#390F001586BC3B20FFFF7FCFFFFF3FFFFFFFFFFFFF261FA85200000000000000
(00.036516) can0 2D#BE9C5D04C4090090709758624652552C98DE30FFFFFF7F4002D235FFFFFFFF00FEFF2B5479EC00000000000000000000
(00.037036) can0 D4#39040604B91AE684
(00.037195) can0 E3#008000045FDEDE003204000CB8040653670700F029D84268
(00.037782) can0 DB#390E002021D13CFF677F831A3F228055494DC116B3281D5C060300F1FFFFFFFF280B2525000000000000000000000000
(00.038302) can0 D9#391300156D613D10A04A4DAC0F1268F0FFFFFFFFFF27262C7300000000000000
(00.041053) can0 DC#3910001623F63E0EA221002320352C0000000000FFFF27A869A7000000000000
(00.041436) can0 18E19490#0000000100000055056806D8030000EF0164013B028D00008501910100000809050900004F4E4CE700E70061012B01140105014C4C4B39031311001505150000
(00.042792) can0 DB#390F001528CE3C20FFFF7FCFFFFF3FFFFFFFFFFFFF2845A96000000000000000
(00.010669) can0 2D#D5684004C4090090709758624652552C98DE30FFFFFF7F4002D235FFFFFFFF00FEFFF1D4B45C00000000000000000000
(00.011748) can0 D9#391300153CD82010A04B4DAB0F1268F0FFFFFFFFFFED7D8B6800000000000000
(00.012125) can0 DB#390E0020DE381F00687F831A3F228055494DC116B3281D5C060300F1FFFFFFFFEE4731C1000000000000000000000000
(00.015098) can0 DC#3910001633AC210EA221002320352C0000000000FFFFED277681000000000000
(00.015595) can0 E3#39042208003C067E780FFAFF
(00.016965) can0 DB#390F00150CC31F20FFFF7FCFFFFF3FFFFFFFFFFFFFEEA9460F00000000000000
(00.020624) can0 D4#39040C050E0FF4FFFF3915011445FD93E5F85FF5FFFFFFFFFE07009F2871FEFFFF000000000000000000000000000000
(00.025173) can0 18E19490#01F201480D1E01800CFF00BC02060620030000401F01C903AC0D0607012003800E01FA06870C000001010000E437D007AC0D401F0C3807511311001505150000
(00.025875) can0 E3#4100050800800343CCADF1B2
(00.030658) can0 2D#CA614104C4090090709758624652552C98DE30FFFFFF7F4002D235FFFFFFFF00FEFFF376EAEF00000000000000000000
(00.031867) can0 DB#390E010F4835FFFFFFFFFFFFFFAFD208BCFDFF390E002080FC20FF677F831A3F228095494DC116B3281D5C050300F1FFFFFFFFF00B34FE000000000000000000
(00.033140) can0 D9#3913010B56BA38559500FE03BAFFEF39130015BFB32110A04A4DAB0F1268F0FFFFFFFFFFEFE0C2240000000000000000
(00.035207) can0 DC#39100110553F41394B103946E99C122095C0FFF5391000165929220EAA41002520352C0000000000FFFFEF3B2A2E0000
(00.037104) can0 DB#390F0015B1142020FFFF7FCFFFFF3FFFFFFFFFFFFFF0B744FF00000000000000
(00.045577) can0 E3#4100050801A7B349B2A36090
(00.000505) can0 2D#02E91F04C4090090709758624652552C98DE30FFFFFF7F4002D235FFFFFFFF00FEFFAFCE960500000000000000000000
(00.001718) can0 DB#390E0020EE07FEFF677F831A3F228095494DC116B3281D5C060300F1FFFFFFFFAC4705D8000000000000000000000000
(00.002240) can0 D9#391300157592FF10A04A0DAC0F1268F0FFFFFFFFFFAB9C4FA400000000000000
(00.004922) can0 DC#39100016C165000EAA4100251C352C0000000000FFFFAAB21A01000000000000
(00.006873) can0 DB#390F0015E067FE20FFFF7FCFFFFF3FFFFFFFFFFFFFAC7B171B00000000000000
(00.014969) can0 18E19490#045E015E010F004830ED0C4F0D22011E010803010101010100000000000000000000000000000000000000000000000000000000000000001311001505150000
(00.020507) can0 2D#77AB2004C4090090709758624652452CA8DE30FFFFFF7F4002D235FFFFFFFF00FEFFB147966E00000000000000000000
(00.021624) can0 D9#3913001514970010A04A4DAC0F1268F0FFFFFFFFFFAD29756B00000000000000
(00.022002) can0 DB#390E0020BB48FF00687F831A3F218055494DC116B3281D5C060300F1FFFFFFFFAE4AC0F2000000000000000000000000
(00.025096) can0 DC#39100016E5CD010EAA4100251C352C0000000000FFFFADE2685A000000000000
(00.026821) can0 DB#390F00150277FF20FFFF7FCFFFFF3FFFFFFFFFFFFFAE4B349100000000000000
(00.040525) can0 2D#89352104C4090090709758624652552C98DE30FFFFFF7F4002D235FFFFFFFF00FEFFB332FC8700000000000000000000
(00.041044) can0 D4#390406046279DA84
(00.041203) can0 E3#008000046D91D200
(00.041687) can0 D9#391300151D3A0110A04ACDAB0F1268F0FFFFFFFFFFAFDC981600000000000000
(00.042064) can0 DB#390E0020F6CC00FF677F831A3F228055494DC116B3281D5C060300F1FFFFFFFFB04C179F000000000000000000000000
(00.044963) can0 DC#391000168F48020EA22100231C352C0000000000FFFFAF0148AC000000000000
(00.045345) can0 18E19490#0000000100000055056806D8030000EF0164013B028D00008601910100000E09020900004F4E4CE700E70061012B01150106014B4C4B57031311001505150000
(00.046822) can0 DB#390F0015B3280020FFFF7FCFFFFF3FFFFFFFFFFFFFB048156C00000000000000
(00.000165) can0 21D#304028
(00.000386) can0 21C#21988099669A4C9B469C189D4E9E5C9F60A06EA1E0A35C0000000000000000000000000000000000000000000000000000000000000000000000000000000000
(00.002849) can0 18E19490#045E015E010F004830EB0C4F0D22011D010803010101010100000000000000000000000000000000000000000000000000000000000000001311001505150000
(00.003592) can0 4F#28550104249D2846
(00.008484) can0 2D#691D0204C4090090709758624652552C98DE30FFFFFF7F4002D235FFFFFFFF00FEFF7510E1F700000000000000000000
(00.009561) can0 D9#39130015E5E5E210A04A8DAB0F1268F0FFFFFFFFFF714A444500000000000000
(00.009935) can0 DB#390E00204837E1FF677F831A3F228015494DC116B3281D5C060300F1FFFFFFFF71A750C2000000000000000000000000
(00.013051) can0 DC#391000162405E30EAA41002520352C0000000000FFFF71CE6C35000000000000
(00.014805) can0 DB#390F00155F8CE120FFFF7FCFFFFF3FFFFFFFFFFFFF71E15C0F00000000000000
(00.024455) can0 21C#22000000000000000000000000000000000000000000000000000000000000000000000000000000000000000000000000000000000000000000000000000000
(00.028499) can0 2D#76140304C4090090709758624652552C98DE30FFFFFF7F4002D235FFFFFFFF00FEFF77D9E52700000000000000000000
(00.029019) can0 D4#3904060438DBD484
(00.029178) can0 E3#008000049028CC00
(00.029615) can0 D9#39130015EC48E310A04A0DAC0F1268F0FFFFFFFFFF73DC1B3B00000000000000
(00.029992) can0 DB#390E0020F45AE2FF677F831A3F228015494DC116B3281D5C060300F1FFFFFFFF734F3955000000000000000000000000
(00.032945) can0 DC#391000169C00E40EA221002320352C0000000000FFFF73ABC033000000000000
(00.033329) can0 18E19490#0000000100000055056806D8030000EF0164013B028D000085019201000010090D0900004F4E4CE700E90061012B01140105014B4C4B4D031311001505150000
(00.035055) can0 DB#390F001579BDE220FFFF7FCFFFFF3FFFFFFFFFFFFF7358237200000000000000
(00.048494) can0 2D#2B2B0404C4090090709758624652552C98DE30FFFFFF7F4002D235FFFFFFFF00FEFF7908EC7C00000000000000000000
(00.049501) can0 D9#3913001532D5E410A04ACDAC0F1268F0FFFFFFFFFF7541F09700000000000000
(00.000883) can0 18E19490#0460015D010F003E30ED0C4E0D22011E010803010101010100000000000000000000000000000000000000000000000000000000000000001311001505150000
(00.006560) can0 2D#6CB0E404C4090090709758624652552C98DE30FFFFFF7F4002D235FFFFFFFF00FEFF396E777C00000000000000000000
(00.007787) can0 DB#390E0020106DC3FF677F831A3F228055494DC116B3281D5C060300F1FFFFFFFF366A5EB2000000000000000000000000
(00.008308) can0 D9#391300157BE1C410A04ACDAB0F1268F0FFFFFFFFFF3527F34C00000000000000
(00.011090) can0 DC#391000168B83C50EAA41002520352C0000000000FFFF354009BF000000000000
(00.012890) can0 DB#390F00159991C320FFFF7FCFFFFF3FFFFFFFFFFFFF365C9EF500000000000000
(00.026578) can0 2D#73B9E504C4090090709758624652552C98DE30FFFFFF7F4002D235FFFFFFFF00FEFF3B8D832800000000000000000000
(00.027098) can0 D4#3904060434A8CE84
(00.027257) can0 E3#008000043B40C600
(00.027876) can0 DB#390E0020BBC4C400687F831A3F228055494DC116B3281D5C060300F1FFFFFFFF38943CBB000000000000000000000000
(00.028395) can0 D9#3913001599F1C510A04ACDAB0F1268F0FFFFFFFFFF37C95ED000000000000000
(00.030980) can0 DC#39100016C66BC60EAA41002520352C0000000000FFFF376155D9000000000000
(00.031362) can0 18E19490#0000000100000055056906D8030000EF0164013B028D00008301900100000F090C0900004E4E4CE700E60060012B01140106014B4C4B3C031311001505150000
(00.032891) can0 DB#390F001537E3C420FFFF7FCFFFFF3FFFFFFFFFFFFF38A85CA900000000000000
(00.046564) can0 2D#52A2E604C4090090709758624652552C98DE30FFFFFF7F4002D235FFFFFFFF00FEFF3D0CFF2600000000000000000000
(00.047796) can0 D9#391300156F9AC610A04A8DAB0F1268F0FFFFFFFFFF39EEDB7B00000000000000
(00.048171) can0 DB#390E002068B6C5FF677F831A3F228055494DC116B3281D5C060300F1FFFFFFFF3A69D2D8000000000000000000000000
(00.007430) can0 E3#410005080102E5D446976E62
(00.012505) can0 2D#17FDCA04C4090090709758624652552C98DE30FFFFFF7F4002D235FFFFFFFF00FEFF050C078900000000000000000000
(00.013742) can0 D9#391300155443AA10A04ACDAA0F1268F0FFFFFFFFFF015BDFEA00000000000000
(00.014120) can0 DB#390F01064E850460DC1C390E00209476A9FF677F831A3F228055494DC116B3281D5C060300F1FFFFFFFF025F40DD0000
(00.016786) can0 DC#391000161682AB0EA241002320352C0000000000FFFF016FF8A4000000000000
(00.017170) can0 18E19490#0284006464640100062754020300000000000000E600EA00C004C004C2040200FFFF00004A14C80571058213000012028708800C6A0F2C0D1311001505150000
(00.018850) can0 DB#390F00154B73A920FFFF7FCFFFFF3FFFFFFFFFFFFF026F79E100000000000000
(00.032510) can0 2D#08F4CB04C4090090709758624652552C98DE30FFFFFF7F4002D235FFFFFFFF00FEFF074FECD700000000000000000000
(00.033694) can0 D9#3913001563E5AB10A04A4DAB0F1268F0FFFFFFFFFF03676CBE00000000000000
(00.034071) can0 DB#390E0020E7AAAAFF677F831A3F228055494DC116B3281D5C050300F1FFFFFFFF04116395000000000000000000000000
(00.036841) can0 DC#39100016F3BAAC0EAA4100251C352C0000000000FFFF02F80F21000000000000
(00.038900) can0 DB#390F00156D42AA20FFFF7FCFFFFF3FFFFFFFFFFFFF04AFBFA500000000000000
(00.046759) can0 18E19490#036906BA1673D2130E170E1D00FC00F8000000080108010000EF01EF01000000001002102700AC0D0F0E130E1E0094D7057816D10C841C001311001505150000
(00.000014) can0 DB#390F01064E850460DC1C390E0020F7428BFF677F831A3F218015494DC116B3281D5C060300F1FFFFFFFFC61D7A460000
(00.002681) can0 DC#3910001601738D0EA221002320352C0000000000FFFFC5BD3A87000000000000
(00.003062) can0 18E19490#0284006464640100032755020300000000000000E600E900BE04C004C0040100FDFF00004714C00573058713000012028708800CAF0F2C0D1311001505150000
(00.004783) can0 DB#390F00158D6E8B20FFFF7FCFFFFF3FFFFFFFFFFFFFC6959F6800000000000000
(00.018433) can0 2D#0996AD04C4090090709758624652552C98DE30FFFFFF7F4002D235FFFFFFFF00FEFFCB3DB31A00000000000000000000
(00.019595) can0 D9#3913001566B38D10A04A4DAC0F1268F0FFFFFFFFFFC7DCB0DA00000000000000
(00.019971) can0 DB#390E00201BBD8CFF677F831A3F218015494DC116B3281D5C060300F1FFFFFFFFC8A96C2D000000000000000000000000
(00.022735) can0 DC#391000168EBC8E0EAA4100251C352C0000000000FFFFC695EE9F000000000000
(00.024784) can0 DB#390F0015231C8C20FFFF7FCFFFFF3FFFFFFFFFFFFFC8278C5300000000000000
(00.028372) can0 DC085B#4002080400000000
(00.032662) can0 18E19490#036906CC1677D2130E160E1D00FC00F6000000080108010000EF01EF01000000001002102700AC0D100E140E1E0094D9056B16D50C841C001311001505150000
(00.038455) can0 2D#288DAE04C4090090709758624652552C98DE30FFFFFF7F4002D235FFFFFFFF00FEFFCDBB9A2600000000000000000000
(00.038975) can0 D4#39040604B291C384
(00.039134) can0 E3#00800004C83BBB00
(00.039535) can0 D9#3913001590D88E10A04A0DAC0F1268F0FFFFFFFFFFC975864B00000000000000
(00.039911) can0 DB#390E0020B4F78DFF677F831A3F228015494DC116B3281D5C060300F1FFFFFFFFCA3D896C000000000000000000000000
(00.042760) can0 DC#39100016D0448F0EA241002320352C0000000000FFFFC84CDE9F000000000000
(00.044785) can0 DB#390F0015C10C8D20FFFF7FCFFFFF3FFFFFFFFFFFFFCAA9955F00000000000000
(00.004882) can0 2D#F6B78F04C4090090709758624652552C98DE30FFFFFF7F4002D235FFFFFFFF00FEFF8F31A50F00000000000000000000
(00.005828) can0 D9#3913001537746F10A04A0DAB0F1268F0FFFFFFFFFF8B47C10600000000000000
(00.006206) can0 DB#390E0020EDF46EFF677F831A3F228055494DC116B3281D5C050300F1FFFFFFFF8C632332000000000000000000000000
(00.009175) can0 DC#391000164FFB700EAA2100251C352C0000000000FFFF8A948D10000000000000
(00.011243) can0 DB#390F0015E9896E20FFFF7FCFFFFF3FFFFFFFFFFFFF8C57912400000000000000
(00.019065) can0 18E19490#036906BE1650D2120E160E1D00F800FE000000070107010000EF01EF01000000000F02102700AC0D0F0E120E1E0094D9056B16D10C841C001311001505150000
(00.024897) can0 2D#A3519004C4090090709758624652552C98DE30FFFFFF7F4002D235FFFFFFFF00FEFF911EC6FF00000000000000000000
(00.025415) can0 D4#390406049D71BD84
(00.025888) can0 D9#3913001558C57010A04A4DAB0F1268F0FFFFFFFFFF8DACF5EC00000000000000
(00.026264) can0 DB#390E00200D116FFF677F831A3F228015494DC116B3281D5C050300F1FFFFFFFF8EF907D9000000000000000000000000
(00.029183) can0 DC#39100016A974710EA241002320352C0000000000FFFF8C833538000000000000
(00.029800) can0 E3#008000049299B500
(00.031262) can0 DB#390F00150B996F20FFFF7FCFFFFF3FFFFFFFFFFFFF8E461DF600000000000000
(00.044886) can0 2D#BC589104C4090090709758624652552C98DE30FFFFFF7F4002D235FFFFFFFF00FEFF9339D49100000000000000000000
(00.045832) can0 D9#39130015CA3A7110A04A8DAB0F1268F0FFFFFFFFFF8F1BA2C400000000000000
(00.046206) can0 DB#390E0020167270FF677F831A3F228055494DC116B3281D5C050300F1FFFFFFFF9058804E000000000000000000000000
(00.049088) can0 DC#39100016E49C720EA241002320352C0000000000FFFF8E4DC21E000000000000
(00.000733) can0 DC#391000166C05530EA221002320352C0000000000FFFF50B051D5000000000000
(00.001472) can0 E3#008000049EEAAF00410000080142315052313138
(00.003022) can0 DB#390F0015545E5120FFFF7FCFFFFF3FFFFFFFFFFFFF52221FAC00000000000000
(00.016561) can0 2D#C5D17304C4090090709758624652552C98DE30FFFFFF7F4002D235FFFFFFFF00FEFF579E056600000000000000000000
(00.017080) can0 E3#410002080007E706170F142E39042208003C067E780FFAFF
(00.017535) can0 D9#3913001537C05310A04A4DAC0F1268F0FFFFFFFFFF53C15AB400000000000000
(00.017913) can0 DB#390E0020F55852FF677F831A3F228055494DC116B3281D5C060300F1FFFFFFFF5438C08F000000000000000000000000
(00.020675) can0 DC#39100016AE50540EA24100231C352C0000000000FFFF52190BE6000000000000
(00.021058) can0 18E19490#0461015E010F003430EE0C4E0D22011D010803010101010100000000000000000000000000000000000000000000000000000000000000001311001505150000
(00.021779) can0 E3#410000080234393755C763300500000CF5FCFF00000000005930A25D00000000
(00.022946) can0 DB#390F0015726F5220FFFF7FCFFFFF3FFFFFFFFFFFFF5447165900000000000000
(00.026522) can0 D4#39040C050E0FF4FFFF000000
(00.031463) can0 E3#4100050800800343CCAC57BF410002080101B9A313EA5868
(00.036550) can0 2D#98EE7404C4090090709758624652552C98DE30FFFFFF7F4002D235FFFFFFFF00FEFF5955F80100000000000000000000
(00.037830) can0 DB#390E010F2C35FFFFFFFFFFFFFF9FD208BCFDFF390E00205A1253FF677F831A3F218055494DC116B3281D5C060300F1FFFFFFFF5661FDA0000000000000000000
(00.038490) can0 D9#3913010B56BA38559500FE03BAFFEF3913001549E85410A04A0DAC0F1268F0FFFFFFFFFF555FC5910000000000000000
(00.040717) can0 DC#39100110553F41004B10F142E99C122095C0FFF539100016D7C5550EA221002320352C0000000000FFFF54F39B020000
(00.043079) can0 DB#390F0015907F5320FFFF7FCFFFFF3FFFFFFFFFFFFF562DCBD700000000000000
(00.046481) can0 E3#3980000C007F418FE130B0FE5B7FE8724100000803E99786C2640000410005080189EA75F8203D860000000000000000
(00.000877) can0 E3#4100050801439542F95F0DAA
(00.005954) can0 2D#1BEB5204C4090090709758624652552C98DE30FFFFFF7F4002D235FFFFFFFF00FEFF152F554C00000000000000000000
(00.007086) can0 D9#39130015989C3210A04A4DAB0F1268F0FFFFFFFFFF107B9E6000000000000000
(00.007463) can0 DB#390F01064E8504608C1D390E0020109231FF677F831A3F228015494DC116B3281D5C060300F1FFFFFFFF12DDE1F70000
(00.010024) can0 DC#391000160DF2330EA24100231C352C0000000000FFFF10CC092A000000000000
(00.010407) can0 18E19490#0284006464640100052755020300000000000000E600EA00BF04C104C1040200FFFF00005114D90572058513000012028708800CC40F2C0D1311001505150000
(00.012339) can0 DB#390F0015521A3120FFFF7FCFFFFF3FFFFFFFFFFFFF12B5FD5700000000000000
(00.021022) can0 4F#28890A0406D04503
(00.025956) can0 2D#04E25304C4090090709758624652552C98DE30FFFFFF7F4002D235FFFFFFFF00FEFF17ABDE2300000000000000000000
(00.027086) can0 D9#391300150A633310A04A8DAB0F1268F0FFFFFFFFFF138DBB8E00000000000000
(00.027461) can0 DB#390E0020979132FF677F831A3F218015494DC116B3281D5C060300F1FFFFFFFF13150678000000000000000000000000
(00.030077) can0 DC#391000160D80340EAA4100251C352C0000000000FFFF12118105000000000000
(00.032340) can0 DB#390F0015742B3220FFFF7FCFFFFF3FFFFFFFFFFFFF13DA13CF00000000000000
(00.039996) can0 18E19490#036806C71670D2100E120E1D00FD00F7000000080108010000EF01EF01000000001102102700AC0D0E0E110E1E0094D9057116D20C841C001311001505150000
(00.045981) can0 2D#59DD5404C4090090709758624652552C98DE30FFFFFF7F4002D235FFFFFFFF00FEFF1907530B00000000000000000000
(00.046500) can0 D4#39040604AF3EB184
(00.046660) can0 E3#0080000407CDA900
(00.047238) can0 D9#39130015D4FE3410A04A4DAB0F1268F0FFFFFFFFFF154BCA5F00000000000000
(00.047616) can0 DB#390E00204C1A33FF677F831A3F228055494DC116B3281D5C060300F1FFFFFFFF1588DFF5000000000000000000000000
(00.002119) can0 D4#39040C050E0FF4FFFF000000
(00.007034) can0 E3#4100050800800343CCABCB98
(00.012155) can0 2D#2C422E04C4090090709758624652552C98DE30FFFFFF7F4002D235FFFFFFFF00FEFFCDE7D82D00000000000000000000
(00.013457) can0 DB#390E010F3C35FFFFFFFFFFFFFF9FD208BCFDFF390E002029260DFF577F831A3F228015494DC116B3281D5C060300F1FFFFFFFFCA908C2E000000000000000000
(00.014321) can0 D9#3913010B56BA38559500FE03BAFFEF3913001576790E10A04A4DAA0F1268F0FFFFFFFFFFC928ABBF0000000000000000
(00.016179) can0 DC#39100110553F41824B108156E99C122095C0FFF13910001686210F0EAA21002520352C0000000000FFFFC8F7DB5D0000
(00.016695) can0 18E19490#036906C31674D2100E120E1D00FA00FC000000080108010000EF01EF01000000001002102700AC0D0E0E100E1E0094D9055E16D70C841C001311001505150000
(00.018695) can0 DB#390F0015C9FC0D20FFFF7FCFFFFF3FFFFFFFFFFFFFCAEF545000000000000000
(00.022086) can0 E3#3980000C007F6D8FE230B0FECFDFDABB4100050801461F527F1CDFB400000000
(00.032153) can0 2D#334B2F04C4090090709758624652552C98DE30FFFFFF7F4002D235FFFFFFFF00FEFFCF0EA30100000000000000000000
(00.033218) can0 D9#39130015E4860F10A04A8DAA0F1268F0FFFFFFFFFFCB2E2EA600000000000000
(00.033596) can0 DB#390E0020408C0EFF677F831A3F218015494DC116B3281D5C060300F1FFFFFFFFCC9746BF000000000000000000000000
(00.036159) can0 DC#39100016B116100EA241002320352C0000000000FFFFCA614997000000000000
(00.038549) can0 DB#390F0015EFCD0E20FFFF7FCFFFFF3FFFFFFFFFFFFFCCE58D4E00000000000000
(00.046124) can0 18E19490#04600161010F003E30ED0C4E0D22011D010803010101010100000000000000000000000000000000000000000000000000000000000000001311001505150000
(00.007329) can0 2D#B8971104C4090090709758624652552C98DE30FFFFFF7F4002D235FFFFFFFF00FEFF932DFC3200000000000000000000
(00.008360) can0 D9#391300156793F110A04ACDAA0F1268F0FFFFFFFFFF8F8D188900000000000000
(00.008738) can0 DB#390E00202AA5F0FF677F831A3F218015494DC116B3281D5C050300F1FFFFFFFF90054811000000000000000000000000
(00.011310) can0 DC#39100016B2F9F20EAA21002520352C0000000000FFFF8E7AEDB1000000000000
(00.013733) can0 DB#390F0015BC82F020FFFF7FCFFFFF3FFFFFFFFFFFFF909C70EF00000000000000
(00.021286) can0 18E19490#04600160010F003430EB0C4E0D22011D010803010101010100000000000000000000000000000000000000000000000000000000000000001311001505150000
(00.027335) can0 2D#998C1204C4090090709758624652552C98DE30FFFFFF7F4002D235FFFFFFFF00FEFF95E9F28600000000000000000000
(00.028134) can0 D9#39130015E117F210A04A4DAA0F1268F0FFFFFFFFFF911A51E800000000000000
(00.028671) can0 DB#390E00204A5EF1FF677F831A3F228015494DC116B3281D5C060300F1FFFFFFFF92434C36000000000000000000000000
(00.031454) can0 DC#39100016B13CF30EA241002320352C0000000000FFFF917057F8000000000000
(00.033734) can0 DB#390F00155E92F120FFFF7FCFFFFF3FFFFFFFFFFFFF9294DA2B00000000000000
(00.047343) can0 2D#86851304C4090090709758624652552C98DE30FFFFFF7F4002D235FFFFFFFF00FEFF970D219000000000000000000000
(00.047862) can0 D4#390406044D99A484
(00.048191) can0 D9#391300150307F310A04A4DAA0F1268F0FFFFFFFFFF938F19BC00000000000000
(00.048708) can0 DB#390E0020CD5DF2FF677F831A3F218015494DC116B3281D5C060300F1FFFFFFFF9433E35E000000000000000000000000
(00.001411) can0 E3#3980000C007F6D8FE330B0FE579AC7353E800108C3020360B828E0FF4100050801AD0FB5D50BE9600000000000000000
(00.011480) can0 2D#C11EF304C4090090709758624652552C98DE30FFFFFF7F4002D235FFFFFFFF00FEFF57335D0E00000000000000000000
(00.012474) can0 D9#3913001504D7D310A04A8DAB0F1268F0FFFFFFFFFF53293A1700000000000000
(00.012850) can0 DB#390E0020C98FD2FF677F831A3F218015494DC116B3281D5C060300F1FFFFFFFF5467F4DC000000000000000000000000
(00.015447) can0 DC#391000168265D40EA221002320352C0000000000FFFF528FC266000000000000
(00.017894) can0 DB#390F00157A9FD220FFFF7FCFFFFF3FFFFFFFFFFFFF5434DF1200000000000000
(00.025380) can0 18E19490#045D015F010F003E30EA0C4E0D22011D010803010101010100000000000000000000000000000000000000000000000000000000000000001311001505150000
(00.031485) can0 2D#9C21F404C4090090709758624652552C98DE30FFFFFF7F4002D235FFFFFFFF00FEFF597B5C9E00000000000000000000
(00.032234) can0 D9#391300150FFCD410A04ACDAA0F1268F0FFFFFFFFFF5515563E00000000000000
(00.032830) can0 DB#390E00205DABD3FF677F831A3F218015494DC116B3281D5C060300F1FFFFFFFF569055A4000000000000000000000000
(00.035561) can0 DC#39100016FBF0D50EA24100231C352C0000000000FFFF55D215E9000000000000
(00.037895) can0 DB#390F0015988FD320FFFF7FCFFFFF3FFFFFFFFFFFFF56D803C100000000000000
(00.003196) can0 2D#6300D604C4090090709758624652552C98DE30FFFFFF7F4002D235FFFFFFFF00FEFF1DA5977E00000000000000000000
(00.004085) can0 D9#39130015C875B610A04A0DAB0F1268F0FFFFFFFFFF1941087600000000000000
(00.004553) can0 DB#390E00207CD7B5FF677F831A3F218055494DC116B3281D5C060300F1FFFFFFFF197C7617000000000000000000000000
(00.007181) can0 DC#39100016F347B70EA221002320352C0000000000FFFF19B5CB05000000000000
(00.009666) can0 DB#390F0015D2A9B520FFFF7FCFFFFF3FFFFFFFFFFFFF19F1A71F00000000000000
(00.019266) can0 21C#22000000000000000000000000000000000000000000000000000000000000000000000000000000000000000000000000000000000000000000000000000000
(00.023206) can0 2D#7C09D704C4090090709758624652552C98DE30FFFFFF7F4002D235FFFFFFFF00FEFF1FF98A3800000000000000000000
(00.023729) can0 D4#3904060496FA9884
(00.023977) can0 D9#39130015B137B710A04A4DAC0F1268F0FFFFFFFFFF1B0935B800000000000000
(00.024598) can0 DB#390E0020B47BB6FF677F831A3F218015494DC116B3281D5C060300F1FFFFFFFF1B0D3356000000000000000000000000
(00.027055) can0 DC#39100016E93EB80EA221002320352C0000000000FFFF1B0864CE000000000000
(00.027438) can0 18E19490#0000000100000055056906D8030000EF0164013B028D000082018F0100001309070900004E4E4CE700E6005E012901130105014C4C4B22031311001505150000
(00.028134) can0 E3#0080000499129000
(00.029833) can0 DB#390F0015F498B620FFFF7FCFFFFF3FFFFFFFFFFFFF1BC263FF00000000000000
(00.043204) can0 2D#D97ED804C4090090709758624652552C98DE30FFFFFF7F4002D235FFFFFFFF00FEFF212152CB00000000000000000000
(00.043917) can0 D9#39130015DF98B810A04A0DAC0F1268F0FFFFFFFFFF1DA0B56E00000000000000
(00.044562) can0 DB#390E0020205FB7FF677F831A3F218015494DC116B3281D5C060300F1FFFFFFFF1D3BD5A7000000000000000000000000
(00.047036) can0 DC#39100016528CB90EAA21002520352C0000000000FFFF1D8899FB000000000000
(00.048121) can0 E3#39042208003C067E780FFAFF
(00.049619) can0 DB#390F00151688B720FFFF7FCFFFFF3FFFFFFFFFFFFF1DD7282600000000000000
(00.000181) can0 DB#390F0015AA419820FFFF7FCFFFFF3FFFFFFFFFFFFFE0A370A200000000000000
(00.013745) can0 2D#A438BA04C4090090709758624652552C98DE30FFFFFF7F4002D235FFFFFFFF00FEFFE564039B00000000000000000000
(00.014573) can0 D9#3913001557619A10A04ACDAA0F1268F0FFFFFFFFFFE1FE0CC300000000000000
(00.015103) can0 DB#390E002092CD99FF677F831A3F228055494DC116B3281D5C060300F1FFFFFFFFE2034CAD000000000000000000000000
(00.017491) can0 DC#3910001608E79B0EA241002320352C0000000000FFFFE1BFE226000000000000
(00.018660) can0 E3#39042208003C067E780FFAFF
(00.018942) can0 4F#204504A000499E4D
(00.020219) can0 DB#390F001548519920FFFF7FCFFFFF3FFFFFFFFFFFFFE226893000000000000000
(00.023700) can0 D4#39040C050E0FF4FFFF3915011445FD93E1F85FF5FFFFFFFFFE07009F2871FEFFFF000000000000000000000000000000
(00.027588) can0 18E19490#01EF01480D1C01800CFF00BC02060620030000401F01CA03AC0D03070120037C0E01FA06870C000001010000E437D007AC0D401F0C4F1D4F1311001505150000
(00.028614) can0 E3#4100050800800343CCAAE5FA
(00.033736) can0 2D#BB31BB04C4090090709758624652552C98DE30FFFFFF7F4002D235FFFFFFFF00FEFFE7843D9D00000000000000000000
(00.034518) can0 D9#3913010B56BA38559500FE03BAFFEF3913001560C79B10A04A4DAB0F1268F0FFFFFFFFFFE35DBEEF0000000000000000
(00.035111) can0 DB#390E010F3035FFFFFFFFFFFFFF9FD208BCFDFF390E0020DA7F9AFF677F831A3F218055494DC116B3281D5C050300F1FFFFFFFFE459BDEA000000000000000000
(00.037599) can0 DC#39100110553F41004B10C902E99C122095C0FFF5391000162FF89C0EA221002320352C0000000000FFFFE27ED39E0000
(00.040308) can0 DB#390F00156E609A20FFFF7FCFFFFF3FFFFFFFFFFFFFE40F798400000000000000
(00.048650) can0 E3#410005080139F5052226A6FD
(00.002187) can0 18E19490#045F0161010F005230EB0C4E0D22011C010803010101010100000000000000000000000000000000000000000000000000000000000000001311001505150000
(00.008384) can0 2D#650B9A04C4090090709758624652552C98DE30FFFFFF7F4002D235FFFFFFFF00FEFFA51572F800000000000000000000
(00.009265) can0 D9#39130015168A7A10A04A8DA90F1268F0FFFFFFFFFFA108678200000000000000
(00.009758) can0 DB#390E0020837C79FF677F831A3F218015494DC116B3281D5C060300F1FFFFFFFFA2220959000000000000000000000000
(00.012264) can0 DC#39100016FD527B0EA221002320352C0000000000FFFFA1D29CD5000000000000
(00.014824) can0 DB#390F001546E57920FFFF7FCFFFFF3FFFFFFFFFFFFFA28513C200000000000000
(00.028409) can0 2D#7A029B04C4090090709758624652552C98DE30FFFFFF7F4002D235FFFFFFFF00FEFFA637F24A00000000000000000000
(00.028929) can0 D4#39040604C02B8C84
(00.029245) can0 D9#391300151B707B10A04A4DAA0F1268F0FFFFFFFFFFA3555FB000000000000000
(00.029795) can0 DB#390E00203F117AFF677F831A3F218015494DC116B3281D5C060300F1FFFFFFFFA435B0A1000000000000000000000000
(00.032137) can0 DC#39100016623A7C0EA221002320352C0000000000FFFFA3EA1298000000000000
(00.032521) can0 18E19490#0000000100000055056806D8030000EF0164013B028D000083018E0100001109050900004E4E4CE600E6005F012901130105014C4C4B28031311001505150000
(00.033270) can0 E3#3204000CA656FD53670700F0A5CC015400800004CFC38400
(00.034840) can0 DB#390F001560D47A20FFFF7FCFFFFF3FFFFFFFFFFFFFA482DD7E00000000000000
(00.048394) can0 2D#273D9C04C4090090709758624652552C98DE30FFFFFF7F4002D235FFFFFFFF00FEFFA9E5287A00000000000000000000
(00.049182) can0 D9#39130015105B7C10A04A0DAB0F1268F0FFFFFFFFFFA57CF76500000000000000
(00.002941) can0 2D#5EB47E04C4090090709758624652552C98DE30FFFFFF7F4002D235FFFFFFFF00FEFF6DA255A400000000000000000000
(00.003694) can0 D9#3913001503F05E10A04A8DAA0F1268F0FFFFFFFFFF693BC50400000000000000
(00.004324) can0 DB#390E0020D73C5DFF677F831A3F218015494DC116B3281D5C060300F1FFFFFFFF6AE31159000000000000000000000000
(00.006567) can0 DC#391000163B945F0EA221002320352C0000000000FFFF69EB30B6000000000000
(00.007851) can0 E3#39042208003C067E780FFAFF
(00.009384) can0 DB#390F0015CC9A5D20FFFF7FCFFFFF3FFFFFFFFFFFFF6A57C88F00000000000000
(00.012893) can0 D4#39040C050E0FF4FFFF3915011445FD93E1F85FF5FFFFFFFFFE07009F2875FEFFFF000000000000000000000000000000
(00.016667) can0 18E19490#01F301470D1B01800CFF00BC02060620030000401F01E900AC0D0207012003780E01FB06840C000001010000DC37D007AC0D401F0C4309511311001505150000
(00.017805) can0 E3#4100050800800343CCAA6D04
(00.022949) can0 2D#41BD7F04C4090090709758624652552C98DE30FFFFFF7F4002D235FFFFFFFF00FEFF6F296C4D00000000000000000000
(00.024284) can0 DB#390E010F3035FFFFFFFFFFFFFF9FD208BCFDFF390E00206B515EFF677F831A3F218015494DC116B3281D5C060300F1FFFFFFFF6C80BF97000000000000000000
(00.024945) can0 D9#3913010B56BA38559500FE03BAFFEF3913001534565F10A04A0DAB0F1268F0FFFFFFFFFF6B5178D30000000000000000
(00.026650) can0 DC#39100110553F41304B106906E89C122095C0FFF1391000163F88600EA221002320352C0000000000FFFF6B66C7520000
(00.029523) can0 DB#390F0015EAAB5E20FFFF7FCFFFFF3FFFFFFFFFFFFF6C1852F300000000000000
(00.037847) can0 E3#4100050801060AA3A729F38F
(00.042924) can0 2D#53C08004C4090090709758624652552C98DE30FFFFFF7F4002D235FFFFFFFF00FEFF7144C13200000000000000000000
(00.043617) can0 D9#3913001589816010A04A0DAB0F1268F0FFFFFFFFFF6DAB58D900000000000000
(00.044322) can0 DB#390F01064E8504607819390E002030C45FFF677F831A3F218015494DC116B3281D5C050300F1FFFFFFFF6E6FC46E0000
(00.046575) can0 DC#39100016FE6A610EA22100231C352C0000000000FFFF6D03B191000000000000
(00.046956) can0 18E19490#0284006464640100032753020400000000000000E600E900BF04C204BB040200FEFF00004D14BC0573058A13000010028608800C9F0F2C0D1311001505150000
(00.049378) can0 DB#390F001508BB5F20FFFF7FCFFFFF3FFFFFFFFFFFFF6E4601A400000000000000
(00.004320) can0 2D#145B6004C4090090709758624652552C98DE30FFFFFF7F4002D235FFFFFFFF00FEFF319546BF00000000000000000000
(00.004952) can0 D9#391300155E0B4010A04A8DAA0F1268F0FFFFFFFFFF2D3E04A900000000000000
(00.005714) can0 DB#39FE0B086100000001000000390E0020A6D23FFF677F831A3F218055494DC116B3281D5C060300F1FFFFFFFF2EA89C79
(00.007893) can0 DC#39100016EA2C410EA22100231C352C0000000000FFFF2DE57513000000000000
(00.009229) can0 E3#39042208003C467E782FFEFF
(00.010771) can0 DB#390F00150EFF3F20FFFF7FCFFFFF3FFFFFFFFFFFFF2EECE90B00000000000000
(00.014274) can0 D4#39040C050E0FF4FFFF390C1608FFFFFFFFFFFFFFFF3915011445FD93E1F85FF5FFFFFFFFFE07009F2871FEFFFF000000
(00.014911) can0 D9#39FE28082900000000000000
(00.017932) can0 DC#39FE6F089401008003000000
(00.018130) can0 18E19490#01F501480D1B01800CFF00BC02060620030000401F016D01AC0D0307012003780E01FB06870C000001010000DC37D007AC0D401F0C3D31501311001505150000
(00.019182) can0 E3#4100050800800343CCAA318F
(00.020292) can0 DB#390E022A3E004B00650AA0411664010047403E49E0D16CC24E85D04D8B82F847CE43068867E9FFFFFFFF2F293EF90000
(00.024308) can0 2D#0B526104C4090090709758624652552C98DE30FFFFFF7F4002D235FFFFFFFF00FEFF3301916400000000000000000000
(00.025670) can0 DB#390E010F3835FFFFFFFFFFFFFF9FD208BCFDFF390E03089B2210F8FFFFFFFF00
(00.026048) can0 D9#3913010B56BA38559500FE03BAFFEF39130015BC1B4110A04A8DAA0F1268F0FFFFFFFFFF2FFDB27A0000000000000000
(00.027976) can0 DC#39100110553F41394B103946E99C122095C0FFF539100016A7C4420EA22100231C352C0000000000FFFF2F7FE1FB0000
(00.030822) can0 DB#390E002090D740FF677F831A3F218015494DC116B3281D5C060300F1FFFFFFFF3080ED03390F0015B7504020FFFF7FCFFFFF3FFFFFFFFFFFFF3002AE2C000000
(00.039225) can0 E3#4100050801A80294E9F2E4DB
(00.040341) can0 DB#390E04105CE30B4C24B4DBFF0FAE6C71EBFFFFFF390F01064E8504605C190000
(00.040719) can0 DC085D#4002000000000000
(00.044302) can0 2D#2A496204C4090090709758624652552C98DE30FFFFFF7F4002D235FFFFFFFF00FEFF3573ECDB00000000000000000000
(00.045140) can0 D9#391300154A704210A04ACDAA0F1268F0FFFFFFFFFF318DCAED00000000000000
(00.045699) can0 DB#390E00203F9D41FF677F831A3F228015494DC116B3281D5C060300F1FFFFFFFF325DA76B000000000000000000000000
(00.047907) can0 DC#39100016DE51430EA241002320352C0000000000FFFF31E4BC18000000000000
(00.048291) can0 18E19490#0284006464640100042753020300000000000000E800E900C104C004BB040200FEFF00005A14C10571058513000010028608800C5D0F2C0D1311001505150000
(00.001046) can0 18E19490#036906C01671D2110E110E1D00FB00FF000000080108010000EF01EF01000000001002102700AC0D0D0E0D0E1E0094DA055916D20C841C001311001505150000
(00.007518) can0 2D#3B923704C4090090709758624652552C98DE30FFFFFF7F4002D235FFFFFFFF00FEFFDEF8812100000000000000000000
(00.008038) can0 D4#390406047C7E7884
(00.008199) can0 D9#39130015F0F31710A04A4DAB0F1268F0FFFFFFFFFFDB1546F000000000000000
(00.008915) can0 DB#390E0020741C16FF677F831A3F2280D5484DC116B3281D5C060300F1FFFFFFFFDCDD41A4000000000000000000000000
(00.011061) can0 DC#39100016D14D180EA24100231C352C0000000000FFFFDB675C28000000000000
(00.012389) can0 E3#3204000C47DBFB53670700F0DD9D07CC0080000473967000
(00.013974) can0 DB#390F0015FE541620FFFF7FCFFFFF3FFFFFFFFFFFFFDC35F65200000000000000
(00.027496) can0 2D#9EE53804C4090090709758624652552C98DE30FFFFFF7F4002D235FFFFFFFF00FEFFE154821200000000000000000000
(00.028017) can0 D9#391300154BEA1810A04A8DAA0F1268F0FFFFFFFFFFDDE44BB500000000000000
(00.028895) can0 DB#390E0020B95C17FF577F831A3F218015494DC116B3281D5C060300F1FFFFFFFFDE633CA7000000000000000000000000
(00.030993) can0 DC#3910001610AF190EA241002320352C0000000000FFFFDD5A91EC000000000000
(00.031374) can0 18E19490#045F0160010E004830EE0C4E0D22011C010803010101010100000000000000000000000000000000000000000000000000000000000000001311001505150000
(00.032410) can0 E3#39042208003C067E780FFAFF
(00.033960) can0 DB#390F00151C441720FFFF7FCFFFFF3FFFFFFFFFFFFFDE7729A500000000000000
(00.037456) can0 D4#39040C050E0FF4FFFF3915011445FD93E1F85FF5FFFFFFFFFE07009F2871FEFFFF000000000000000000000000000000
(00.042362) can0 E3#4100050800800343CCA9E169
(00.047445) can0 D4#390C083CFE7403800000086C55B92D83FF2F145A100DC501A82CE07C8FB30400009E053C400B5AD08216B4A0052D68BFF8FFFFFFFFFF00FFC9FFFFFF833EE4FF
(00.048103) can0 2D#81EC3904C4090090709758624652552C98DE30FFFFFF7F4002D235FFFFFFFF00FEFFE33E7DFD00000000000000000000
(00.048809) can0 DB#390E010F3035FFFFFFFFFFFFFF9FD208BCFDFF390E00203A3E18FF677F831A3F218015494DC116B3281D5C060300F1FFFFFFFFE0A36A0D000000000000000000
(00.049473) can0 D9#3913010B56BA38559500FE03BAFFEF39130015094F1910A04A0DAA0F1268F0FFFFFFFFFFDFD09A300000000000000000
(00.001934) can0 DC#39100016EC01F30EA22100231C352C0000000000FFFF91C8D7BC000000000000
(00.005015) can0 DB#390F00155E92F120FFFF7FCFFFFF3FFFFFFFFFFFFF92290F5100000000000000
(00.011974) can0 18E19490#045B015D010F003E30ED0C4E0D22011B010803010101010100000000000000000000000000000000000000000000000000000000000000001311001505150000
(00.018481) can0 2D#86851304C4090090709758624652552C98DE30FFFFFF7F4002D235FFFFFFFF00FEFF97822E2B00000000000000000000
(00.018999) can0 D9#39130015A2C8F310A04ACDAA0F1270F0FFFFFFFFFF931347D100000000000000
(00.019896) can0 DB#390E0020CD5DF2FF677F831A3F218015494DC116B3281D5C060300F1FFFFFFFF9468F480000000000000000000000000
(00.022053) can0 DC#391000162E54F40EA241002320352C0000000000FFFF92194766000000000000
(00.024964) can0 DB#390F001578A3F220FFFF7FCFFFFF3FFFFFFFFFFFFF942C616900000000000000
(00.028388) can0 E3#410000080057314B41463545
(00.038491) can0 2D#DBBA1404C4090090709758624652552C98DE30FFFFFF7F4002D235FFFFFFFF00FEFF9922057400000000000000000000
(00.039010) can0 D4#390406040B8D7184
(00.039171) can0 D9#39130015DCE0F410A04A8DAA0F1270F0FFFFFFFFFF95F8703200000000000000
(00.039908) can0 DB#390E0020ADA6F3FF677F831A3F228015494DC116B3281D5C050300F1FFFFFFFF9630EF65000000000000000000000000
(00.041926) can0 DC#3910001657C1F50EA22100231C352C0000000000FFFF941C2FCE000000000000
(00.042311) can0 18E19490#0000000100000055056906D8030000EF0164013B028D000083018E0100000B09090900004E4E4CE700E6005E012801120104014C4C4B3F031311001505150000
(00.043385) can0 E3#00800004A37E6900410000080142315052313138
(00.045058) can0 DB#390F00159AB3F320FFFF7FCFFFFF3FFFFFFFFFFFFF967FDBA300000000000000
(00.008433) can0 2D#265FFA04C4090090709758624652552C98DE30FFFFFF7F4002D235FFFFFFFF00FEFF65F539A200000000000000000000
(00.008955) can0 D9#391300151C46DA10A04A8DA90F1268F0FFFFFFFFFF616C2F3400000000000000
(00.009949) can0 DB#390E00207875D9FF677F831A3F2180D5484DC116B3281D5C060300F1FFFFFFFF62C74421000000000000000000000000
(00.011969) can0 DC#39100016C521DB0EA24100231C352C0000000000FFFF61E93432000000000000
(00.014837) can0 DB#390F00154C29D920FFFF7FCFFFFF3FFFFFFFFFFFFF62258C2800000000000000
(00.021929) can0 18E19490#036806BD1647D2100E100E1D00FC00F5000000080108010000EF01EF01000000001102102700AC0D0D0E0E0E1E0094DC056216DA0C841C001311001505150000
(00.028445) can0 2D#3956FB04C4090090709758624652552C98DE30FFFFFF7F4002D235FFFFFFFF00FEFF673107BD00000000000000000000
(00.028965) can0 D4#390406042AAF6C84
(00.029124) can0 D9#39130015FF2CDB10A04A8DA90F1270F0FFFFFFFFFF63C3072500000000000000
(00.029870) can0 DB#390E00202AB1DAFF577F831A3F2180D5484DC116B3281D5C060300F1FFFFFFFF642CE5BF000000000000000000000000
(00.031970) can0 DC#39100016BF03DC0EA241002320352C0000000000FFFF633F6549000000000000
(00.033335) can0 E3#0080000425476400
(00.034945) can0 DB#390F00156A18DA20FFFF7FCFFFFF3FFFFFFFFFFFFF64202F4F00000000000000
(00.048444) can0 2D#6469FC04C4090090709758624652552C98DE30FFFFFF7F4002D235FFFFFFFF00FEFF69BC307100000000000000000000
(00.048963) can0 D9#39130015BEB4DC10A04A4DAA0F1270F0FFFFFFFFFF657E6D4C00000000000000
(00.005017) can0 18E19490#0000000100000055056806D8030000EF0164013B028D00008201910100001109090900004E4E4CE600E6005E012801130104014C4C4B3F031311001505150000
(00.006528) can0 E3#410005080142C73FA4FCE506
(00.007763) can0 21C#2400000000000000
(00.011628) can0 2D#1094E004C4090090709758624652552C98DE30FFFFFF7F4002D235FFFFFFFF00FEFF31BBF97200000000000000000000
(00.012541) can0 D9#39130015F734C010A04A0DAA0F1270F0FFFFFFFFFF2D668FD700000000000000
(00.013055) can0 DB#390F01064E8504607819390E00206EDABFFF677F831A3F218015494DC116B3281D5C050300F1FFFFFFFF2E3CEC840000
(00.015038) can0 DC#391000162353C10EA24100231C352C0000000000FFFF2D60A632000000000000
(00.018108) can0 DB#390F0015060FBF20FFFF7FCFFFFF3FFFFFFFFFFFFF2E1A253500000000000000
(00.031606) can0 2D#0F9DE104C4090090709758624652552C98DE30FFFFFF7F4002D235FFFFFFFF00FEFF332897CC00000000000000000000
(00.032472) can0 D9#39130015C57EC110A04A4DAA0F1270F0FFFFFFFFFF2F5967CF00000000000000
(00.033045) can0 DB#390E0020A0BDC0FF677F831A3F2180D5484DC116B3281D5C050300F1FFFFFFFF30296EDA000000000000000000000000
(00.035026) can0 DC#39100016D6CCC20EA22100231C352C0000000000FFFF2E4634F9000000000000
(00.035407) can0 18E19490#01F301470D1B01800CFF00BC02060620030000401F01C903AC0D0607012003800E01FA06840C000001010000E437D007AC0D401F0C232B511311001505150000
(00.038174) can0 DB#390F0015BFA0C020FFFF7FCFFFFF3FFFFFFFFFFFFF300D21AF00000000000000
(00.041517) can0 E3#410000080057314B41463545
(00.004145) can0 2D#AD83C404C4090090709758624652552C98DE30FFFFFF7F4002D235FFFFFFFF00FEFFF97E206E00000000000000000000
(00.004668) can0 D4#39040604AC966184
(00.004828) can0 D9#391300158DC1A411A04A4DAA0F1270F0FFFFFFFFFFF5C784A900000000000000
(00.005206) can0 E3#008000044A525900
(00.005612) can0 DB#390E00209C0DA3FF577F831A3F218015494DC116B3281D5C060300F1FFFFFFFFF5D5C411000000000000000000000000
(00.007457) can0 DC#39100016756EA50EA22100231C352C0000000000FFFFF4C486DC000000000000
(00.010657) can0 DB#390F00159FD5A320FFFF7FCFFFFF3FFFFFFFFFFFFFF51535D800000000000000
(00.017528) can0 18E19490#0284006464640100042754020400000000000000E600E900BE04C104C3040200FDFF00004D14CB0574058713000011028708800C490F2C0D1311001505150000
(00.024138) can0 2D#B28AC504C4090090709758624652552C98DE30FFFFFF7F4002D235FFFFFFFF00FEFFFB3A8DDD00000000000000000000
(00.024656) can0 D9#39130015E8F4A510A0494DAA0F1270F0FFFFFFFFFFF70902AF00000000000000
(00.025033) can0 E3#02800008CBF03A018333188339042208003C067E780FFAFF
(00.025713) can0 DB#390E002012F8A4FF677F831A3F2180D5484DC116B3281D5C060300F1FFFFFFFFF7FA1453000000000000000000000000
(00.027525) can0 DC#391000163886A60EA22100231C352C0000000000FFFFF69FC7F0000000000000
(00.029057) can0 E3#0500000CF5FCFF0000000000FD151C00
(00.030611) can0 DB#390F001531A7A420FFFF7FCFFFFF3FFFFFFFFFFFFFF798AFFC00000000000000
(00.034094) can0 D4#39040C050E0FF4FFFF000000
(00.039008) can0 E3#4100050800800343CCA8FB1B
(00.044127) can0 2D#9391C604C4090090709758624652552C98DE30FFFFFF7F4002D235FFFFFFFF00FEFFFD9A3EFA00000000000000000000
(00.045544) can0 DB#390E010F3035FFFFFFFFFFFFFF9FD208BCFDFF390E00206875A5FF577F831A3F2180D5484DC116B3281D5C060300F1FFFFFFFFF97A8695000000000000000000
(00.046203) can0 D9#3913010B56BA38559500FE03BAFFEF3913001582A2A610A04A8DA90F1270F0FFFFFFFFFFF9140F250000000000000000
(00.047478) can0 DC#39100110553F41384B104146E99C122095C0FFF539100016A459A70EA24100231C352C0000000000FFFFF84B90C30000
(00.047993) can0 18E19490#036806C2167BD2100E100E1D00F600FD000000080108010000EF01EF01000000001002102700AC0D100E0E0E1E0094DA055716D10C841C001311001505150000
(00.001222) can0 DB#390F0015D18B8520FFFF7FCFFFFF3FFFFFFFFFFFFFBA3DFA3700000000000000
(00.008095) can0 18E19490#0284006464640100042755020100000000000000E600E900BE04C104C3040200FDFF00004B14C70572058513000010028708800C930F2C0D1311001505150000
(00.014692) can0 2D#CFCCA704C4090090709758624652552C98DE30FFFFFF7F4002D235FFFFFFFF00FEFFBFAFBA6F00000000000000000000
(00.015212) can0 D9#3913001536C98711A04A4DA90F1270F0FFFFFFFFFFBB7684C400000000000000
(00.016236) can0 DB#390E0020D0CA86FF577F831A3F2180D5484DC116B3281D5C060300F1FFFFFFFFBC263D50000000000000000000000000
(00.018066) can0 DC#391000161211880EA22100231C352C0000000000FFFFBA22FF82000000000000
(00.019609) can0 E3#39042208003C067E780FFAFF0500000CF5FCFF0000000000C11CD2B900000000
(00.019992) can0 4F#206709A000499E47
(00.021117) can0 DB#390F0015F7BA8620FFFF7FCFFFFF3FFFFFFFFFFFFFBCE8132600000000000000
(00.024654) can0 D4#39040C050E0FF4FFFF39FE1D085940B20840020000000000
(00.028004) can0 DC08E2#4002000000000000
(00.029558) can0 E3#4100050800800343CCA8BFB6
(00.034677) can0 2D#6ABBA804C4090090709758624652552C98DE30FFFFFF7F4002D235FFFFFFFF00FEFFC155A0D500000000000000000000
(00.036109) can0 DB#390E010F3835FFFFFFFFFFFFFF9FD208BCFDFF390E002026E487FF677F831A3F218015494DC116B3281D5C060300F1FFFFFFFFBEEA3422000000000000000000
(00.036771) can0 D9#3913010B56BA38559500FE03BAFFEF391300157FF68810A0498DA90F1270F0FFFFFFFFFFBDDAD7010000000000000000
(00.038024) can0 DC#39100110553F41304A101116E99C122095C0FFF53910001636B9890EA22100231C352C0000000000FFFFBBDE52E60000
(00.038537) can0 18E19490#036806C41654D2120E120E1D00FA00F8000000080108010000EF01EF01000000001002102700AC0D0E0E0E0E1E0094DA056416D10C841C001311001505150000
(00.041348) can0 DB#390F001515AA8720FFFF7FCFFFFF3FFFFFFFFFFFFFBEA9AAB900000000000000
(00.044610) can0 E3#3980000C00FF418FE630B0FEC3E400F04100050801FEDB401710B8CE00000000
(00.002264) can0 2D#B4818904C4090090709758624652552C98DE30FFFFFF7F4002D235FFFFFFFF00FEFF8334D64E00000000000000000000
(00.002784) can0 D9#3913001530DF6910A04A8DA90F1270F0FFFFFFFFFF7F90728700000000000000
(00.003821) can0 DB#390E0020773B68FF577F831A3F2180D5484DC116B3281D5C060300F1FFFFFFFF80872828000000000000000000000000
(00.005525) can0 DC#3910001636936A0EA22100231C352C0000000000FFFF7E6FACA8000000000000
(00.007182) can0 E3#39042208003C067E780FFAFF0500000CF5FCFF0000000000856E3BB900000000
(00.008703) can0 DB#390F0015A5EB6820FFFF7FCFFFFF3FFFFFFFFFFFFF805E4DE600000000000000
(00.012220) can0 D4#39040C050E0FF4FFFF000000
(00.017135) can0 E3#4100050800800343CCA883E0
(00.022254) can0 2D#959A8A04C4090090709758624652552C98DE30FFFFFF7F4002D235FFFFFFFF00FEFF85DAB2BC00000000000000000000
(00.023516) can0 D9#3913010B56BA38559500FE03BAFFEF39130015295E6A10A04A0DAA0F1270F0FFFFFFFFFF81845C720000000000000000
(00.024029) can0 DB#390E010F3835FFFFFFFFFFFFFF9FD208BCFDFF390E0020E31F69FF577F831A3F2180D5484DC116B3281D5C060300F1FFFFFFFF824F314B000000000000000000
(00.025477) can0 DC#39100110553F41004A10E142E99C122095C0FFF539100016123B6B0EA22100231C352C0000000000FFFF809FB87C0000
(00.025993) can0 18E19490#036806C1166ED2100E100E1D00FB00F8000000080108010000EF01EF01000000001002102700AC0D100E100E1E0094DA056216CF0C841C001311001505150000
(00.028934) can0 DB#390F001547FB6920FFFF7FCFFFFF3FFFFFFFFFFFFF82DABADE00000000000000
(00.032185) can0 E3#3980000C00FF418FE730B0FE8725A2F141000508012F6C1D4DF35DBE00000000
(00.042252) can0 2D#8A938B04C4090090709758624652552C98DE30FFFFFF7F4002D235FFFFFFFF00FEFF875520B000000000000000000000
(00.042772) can0 D9#39130015BBA16B10A04ACDAA0F1270F0FFFFFFFFFF8335094200000000000000
(00.043811) can0 DB#390E00205F726AFF577F831A3F2180D5484DC116B3281D5C060300F1FFFFFFFF847A6221000000000000000000000000
(00.045470) can0 DC#391000168D536C0EA22100231C352C0000000000FFFF8222957D000000000000
(00.048698) can0 DB#390F001561CA6A20FFFF7FCFFFFF3FFFFFFFFFFFFF84B30D2400000000000000
(00.002244) can0 2D#AE256E04C4090090709758624652552C98DE30FFFFFF7F4002D235FFFFFFFF00FEFF4D6C7FEB00000000000000000000
(00.002763) can0 D9#391300153C244E10A04A0DA90F1270F0FFFFFFFFFF49DECC2F00000000000000
(00.003778) can0 DB#390E002059F64DFF677F831A3F2180D5484DC116B3281D5C060300F1FFFFFFFF4A76AAF1000000000000000000000000
(00.005591) can0 DC#39100016D4FD4F0EA22100231C352C0000000000FFFF495CD74C000000000000
(00.008667) can0 DB#390F0015CD844D20FFFF7FCFFFFF3FFFFFFFFFFFFF4AF2C24400000000000000
(00.022252) can0 2D#B12C6F04C4090090709758624652552C98DE30FFFFFF7F4002D235FFFFFFFF00FEFF4E17EB4900000000000000000000
(00.022770) can0 D4#39040604F1CC5084
(00.022929) can0 D9#391300157E814F10A04A8DA90F1270F0FFFFFFFFFF4B40D5CB00000000000000
(00.023700) can0 DB#390E00200B324EFF577F831A3F2180D5484DC116B3281D5C060300F1FFFFFFFF4C745D42000000000000000000000000
(00.025415) can0 DC#39100016C4A7500EA22100231C352C0000000000FFFF4BF1E1ED000000000000
(00.025796) can0 18E19490#0000000100000055056906D8030000EF0164013B028D000082018E0100000909070900004E4E4CE700E6005D012701100104014C4C4B53031311001505150000
(00.027106) can0 E3#3204000CA4D0F753670700F04D3F4B5600800004593F4800
(00.028775) can0 DB#390F0015EBB54E20FFFF7FCFFFFF3FFFFFFFFFFFFF4C007C8700000000000000
(00.042229) can0 2D#E4CA7004C4090090709758624652552C98DE30FFFFFF7F4002D235FFFFFFFF00FEFF51DCA0E400000000000000000000
(00.042748) can0 D9#391300155E6F5010A04A8DAA0F1270F0FFFFFFFFFF4D0A511800000000000000
(00.043789) can0 DB#390E00209F164FFF577F831A3F2180D5484DC116B3281D5C060300F1FFFFFFFF4E3CD9FE000000000000000000000000
(00.045436) can0 DC#39100016E00F510EA22100231C352C0000000000FFFF4D37659D000000000000
(00.047144) can0 E3#39042208003C067E780FFAFF
(00.048671) can0 DB#390F001509A54F20FFFF7FCFFFFF3FFFFFFFFFFFFF4EA74EF900000000000000
(00.009418) can0 2D#3AF05104C4090090709758624652552C98DE30FFFFFF7F4002D235FFFFFFFF00FEFF139F36F700000000000000000000
(00.009937) can0 D4#39040604FDBF4A84
(00.010099) can0 D9#39130015F5643110A04ACDA90F1270F0FFFFFFFFFF0F4D578600000000000000
(00.010898) can0 DB#390E0020A91330FF577F831A3F218095484DC116B3281D5C060300F1FFFFFFFF107D0F50000000000000000000000000
(00.012614) can0 DC#39100016912D320EA22100231C352C0000000000FFFF0FA71E1C000000000000
(00.012995) can0 18E19490#0000000100000055056806D8030000EF0164013B028D00008401910100000E09010900004E4E4CE600E6005A012701110104014C4C4A5D031311001505150000
(00.014293) can0 E3#00800004F2574200
(00.015973) can0 DB#390F0015B00A3020FFFF7FCFFFFF3FFFFFFFFFFFFF10D6468400000000000000
(00.029417) can0 2D#1BEB5204C4090090709758624652552C98DE30FFFFFF7F4002D235FFFFFFFF00FEFF157C865800000000000000000000
(00.029937) can0 D9#391300153CBF3210A04A0DAA0F1270F0FFFFFFFFFF11FA915200000000000000
(00.030987) can0 DB#390E00203D3731FF577F831A3F218095484DC116B3281D5C060300F1FFFFFFFF12F33BF0000000000000000000000000
(00.032680) can0 DC#39100016B585330EA22100231C352C0000000000FFFF114C1373000000000000
(00.034332) can0 E3#39042208003C067E780FFAFF
(00.035868) can0 DB#390F0015521A3120FFFF7FCFFFFF3FFFFFFFFFFFFF1251963700000000000000
(00.039376) can0 D4#39040C050E0FF4FFFF3915011445FD93E1F85FF5FFFFFFFFFE07009F2871FEFFFF000000000000000000000000000000
(00.042617) can0 18E19490#01EF01470D1A01800CFF00BC02060620030000401F01C903AC0DFF06012003740E01FC06840C000001010000E437D007AC0D401F0C070A501311001505150000
(00.044288) can0 E3#4100050800800343CCA815CB
(00.049407) can0 2D#04E25304C4090090709758624652552C98DE30FFFFFF7F4002D235FFFFFFFF00FEFF174C525F00000000000000000000
(00.000418) can0 E3#00800004DDB73C00
(00.002108) can0 DB#390F001576171220FFFF7FCFFFFF3FFFFFFFFFFFFFD488D82C00000000000000
(00.015549) can0 2D#1A893404C4090090709758624652552C98DE30FFFFFF7F4002D235FFFFFFFF00FEFFD98824E200000000000000000000
(00.016069) can0 D9#39130015A2BB1410A04A4DAA0F1270F0FFFFFFFFFFD5C23F5800000000000000
(00.017131) can0 DB#39FE0B086100000001000000390E0020447513FF677F831A3F2180D5484DC116B3281D5C050300F1FFFFFFFFD6C587B6
(00.018641) can0 DC#391000161A03150EA22100231C352C0000000000FFFFD5131E33000000000000
(00.020457) can0 E3#39042208003C467E782FFEFF
(00.022010) can0 DB#390F001594071320FFFF7FCFFFFF3FFFFFFFFFFFFFD6F0D67E00000000000000
(00.025503) can0 D4#39040C050E0FF4FFFF390C1608FFFFFFFFFFFFFFFF3915011445FD93E1F85FF5FFFFFFFFFE07009F2871FEFFFF000000
(00.026030) can0 D9#39FE28082900000000000000
(00.028569) can0 DC#39FE6F089401008003000000
(00.028768) can0 18E19490#01F301470D1A01800CFF00BC02060620030000401F01C803AC0D02070120037C0E01FA06870C000001010000EC37D007AC0D401F0C0132501311001505150000
(00.030412) can0 E3#4100050800800343CCA7D952
(00.031617) can0 DB#390E022A3E004B00650AA0411664010047403E49E0D16CC24E85D04D8B82F847CE43068867E9FFFFFFFFD7D104D30000
(00.035538) can0 2D#05803504C4090090709758624652552C98DE30FFFFFF7F4002D235FFFFFFFF00FEFFDB585C5C00000000000000000000
(00.036995) can0 DB#390E010F3835FFFFFFFFFFFFFF9FD208BCFDFF390E0308538E0AF8FFFFFFFF00
(00.037375) can0 D9#3913010B56BA38559500FE03BAFFEF3913001530441510A04A8DAA0F1270F0FFFFFFFFFFD7873FCB0000000000000000
(00.038709) can0 DC#39100110553F41384A105906E99C122095C0FFF13910001657EB160EA22100231C352C0000000000FFFFD7B3AC520000
(00.042146) can0 DB#390E0020A88A14FF677F831A3F2180D5484DC116B3281D5C050300F1FFFFFFFFD8F5E15E390F00153A751420FFFF7FCFFFFF3FFFFFFFFFFFFFD891ACAB000000
(00.000340) can0 18E19490#01EF01470D1A01800CFF00BC02060620030000401F01CA03AC0D02070120037C0E01FB06840C000001010000EC37D007AC0D401F0C6028511311001505150000
(00.002185) can0 E3#4100050800800343CCA79D50
(00.007306) can0 2D#FAA11704C4090090709758624652552C98DE30FFFFFF7F4002D235FFFFFFFF00FEFF9FB2045200000000000000000000
(00.008781) can0 DB#390E010F4435FFFFFFFFFFFFFF9FD208BCFDFF390E0020FFC5F6FF577F831A3F2180D5484DC116B3281D5C060300F1FFFFFFFF9B8F3672000000000000000000
(00.009441) can0 D9#3913010B56BA38559500FE03BAFFEF391300152A8BF710A04ACDAA0F1270F0FFFFFFFFFF9B58F18C0000000000000000
(00.010430) can0 DC#39100110553F41324A102956E99C122095C0FFF53910001624F8F80EA22100231C352C0000000000FFFF9B4460E30000
(00.014020) can0 DB#390F0015F0E0F620FFFF7FCFFFFF3FFFFFFFFFFFFF9B96D36B00000000000000
(00.022226) can0 E3#4100050801CE1DFC5423D2E3
(00.023529) can0 21C#2400000000000000
(00.027302) can0 2D#5FD61804C4090090709758624652552C98DE30FFFFFF7F4002D235FFFFFFFF00FEFFA14B2A7F00000000000000000000
(00.027821) can0 D9#391300154424F810A04A8DAA0F1270F0FFFFFFFFFF9DD58D4400000000000000
(00.028906) can0 DB#390F01064E8504605C19390E00201F20F7FF577F831A3F218095484DC116B3281D5C060300F1FFFFFFFF9EA1E0C60000
(00.030356) can0 DC#391000160050F90EA22100231C352C0000000000FFFF9D5BF2E2000000000000
(00.030739) can0 18E19490#0284006464640100052755020200000000000000E500E900BE04C104C5040200040000005014BF057205811300000F028708800C6E0F2C0D1311001505150000
(00.033783) can0 DB#390F001512F0F720FFFF7FCFFFFF3FFFFFFFFFFFFF9E943AFB00000000000000
(00.047307) can0 2D#40DF1904C4090090709758624652552C98DE30FFFFFF7F4002D235FFFFFFFF00FEFFA3D08DBF00000000000000000000
(00.047828) can0 D9#3913001552C6F911A04ACDAA0F1270F0FFFFFFFFFF9F5B569100000000000000
(00.048896) can0 DB#390E0020062AF8FF577F831A3F2180D5484DC116B3281D5C060300F1FFFFFFFFA046EA66000000000000000000000000
(00.001687) can0 E3#39042208003C067E780FFAFF0500000CF5FCFF0000000000598B545C00000000
(00.003303) can0 DB#390F00157A9FD220FFFF7FCFFFFF3FFFFFFFFFFFFF545A1B9B00000000000000
(00.006722) can0 D4#39040C050E0FF4FFFF000000
(00.011635) can0 E3#4100050800800343CCA757C4
(00.016755) can0 2D#9C21F404C4090090709758624652552C98DE30FFFFFF7F4002D235FFFFFFFF00FEFF59A67F8800000000000000000000
(00.018245) can0 DB#390E010F4835FFFFFFFFFFFFFF9FD208BCFDFF390E00201EB9D3FF677F831A3F2180D5484DC116B3281D5C050300F1FFFFFFFF5621FF6E000000000000000000
(00.018905) can0 D9#3913010B56BA38559500FE03BAFFEF391300156571D411A04A8DA90F1270F0FFFFFFFFFF55E36E180000000000000000
(00.019778) can0 DC#39100110553F41004A10F142E99C122095C0FFF5391000164387D50EA22100231C352C0000000000FFFF54C41B870000
(00.020293) can0 18E19490#036906C0166CD20F0E0F0E1D00FA00F9000000070107010000EF01EF01000000000F02102700AC0D0F0E0F0E1E0094D9055916D20C841C001311001505150000
(00.023483) can0 DB#390F0015988FD320FFFF7FCFFFFF3FFFFFFFFFFFFF5699F16D00000000000000
(00.026687) can0 E3#3980000C007F418FE830B0FE5B54569E41000508018182C29C547F1A00000000
(00.036753) can0 2D#8328F504C4090090709758624652552C98DE30FFFFFF7F4002D235FFFFFFFF00FEFF5B79793A00000000000000000000
(00.037413) can0 D9#39130015B8D1D511A04A0DAA0F1270F0FFFFFFFFFF576684C000000000000000
(00.038271) can0 DB#390E00201CEFD4FF577F831A3F2180D5484DC116B3281D5C050300F1FFFFFFFF587B2449000000000000000000000000
(00.039774) can0 DC#391000160E6FD60EA22100231C352C0000000000FFFF56565E62000000000000
(00.043338) can0 DB#390F001536FDD420FFFF7FCFFFFF3FFFFFFFFFFFFF58D73D5F00000000000000
(00.005743) can0 2D#E76CDA04C4090090709758624652552C98DE30FFFFFF7F4002D235FFFFFFFF00FEFF25309AB600000000000000000000
(00.006261) can0 D9#39130015D03ABA11A04A4DAA0F1270F0FFFFFFFFFF21315BC300000000000000
(00.007346) can0 DB#390E00205513B9FF677F831A3F2180D5484DC116B3281D5C060300F1FFFFFFFF222A1D42000000000000000000000000
(00.008682) can0 DC#39100016419CBB0EA22100231C352C0000000000FFFF216EC4C8000000000000
(00.010657) can0 E3#39042208003C067E780FFAFF
(00.012235) can0 DB#390F00154A6DB920FFFF7FCFFFFF3FFFFFFFFFFFFF22B6E33700000000000000
(00.015702) can0 D4#39040C050E0FF4FFFF3915011445FD93E5F85FF5FFFFFFFFFE07009F2871FEFFFF000000000000000000000000000000
(00.018659) can0 18E19490#01F001470D1901800CFF00BC02060620030000401F01F300AC0D0207012003780E01FB06840C000001010000DC37D007AC0D401F0C5414501311001505150000
(00.020611) can0 E3#4100050800800343CCA72567
(00.025699) can0 D4#390C083CFE7403800000086C55392A83FF2F145A100DC501A82CE07C8FB30400009E053C400B5AD08216B4A0052D68BFF8FFFFFFFFFF00FFC9FFFFFF833EE4FF
(00.026358) can0 2D#F865DB04C4090090709758624652552C98DE30FFFFFF7F4002D235FFFFFFFF00FEFF27D23EC000000000000000000000
(00.026881) can0 D9#3913010B56BA38559500FE03BAFFEF39130015666DBB10A04A8DAA0F1270F0FFFFFFFFFF235839950000000000000000
(00.027393) can0 DB#390E010F3035FFFFFFFFFFFFFF9FD208BCFDFF390E002007D7BAFF577F831A3F2180D5484DC116B3281D5C060300F1FFFFFFFF24FDBF15000000000000000000
(00.028783) can0 DC#39100110553F41004A10C902E99C122095C0FFF5391000166683BC0EA24100231C352C0000000000FFFF238D1DF40000
(00.032573) can0 DB#390F00156C5CBA20FFFF7FCFFFFF3FFFFFFFFFFFFF243CF04400000000000000
(00.040654) can0 E3#41000508018446D963C9264E
(00.045732) can0 2D#A55ADC04C4090090709758624652552C98DE30FFFFFF7F4002D235FFFFFFFF00FEFF29B55D4600000000000000000000
(00.046250) can0 D9#39130015571ABC10A04A8DA90F1270F0FFFFFFFFFF2502846B00000000000000
(00.047351) can0 DB#390F01064E8504605C19390E002093F3BBFF577F831A3F2180D5484DC116B3281D5C060300F1FFFFFFFF261CACA30000
(00.048674) can0 DC#39100016FA5CBD0EA22100231C352C0000000000FFFF25A1F758000000000000
(00.049056) can0 18E19490#0284006464640100032752020300000000000000E500E900BD04C104C4040200000000004D14C60572058713000010028708800C720F2C0D1311001505150000
(00.003875) can0 2D#BB31BB04C4090090709758624652552C98DE30FFFFFF7F4002D235FFFFFFFF00FEFFE7F2EC9800000000000000000000
(00.004395) can0 D4#39040604B6C12C84
(00.004555) can0 D9#391300158BBB9B10A04A4DA90F1270F0FFFFFFFFFFE31D31BD00000000000000
(00.004930) can0 E3#00800004B9292400
(00.005430) can0 DB#390E0020EDAC9AFF677F831A3F2180D5484DC116B3281D5C060300F1FFFFFFFFE4D1BEA4000000000000000000000000
(00.006744) can0 DC#3910001672C59C0EA24100231C352C0000000000FFFFE3F53D46000000000000
(00.007126) can0 18E19490#0000000100000055056806D8030000EF0164013B028D00008501910100000D09000900004E4D4CE600E6005B012701110104014C4A4B50031311001505150000
(00.010522) can0 DB#390F00156E609A20FFFF7FCFFFFF3FFFFFFFFFFFFFE439B23100000000000000
(00.023866) can0 2D#E60EBC04C4090090709758624652552C98DE30FFFFFF7F4002D235FFFFFFFF00FEFFE9AF5EF300000000000000000000
(00.024386) can0 D9#3913001550CA9C10A04A4DA80F1270F0FFFFFFFFFFE51D5DB700000000000000
(00.025480) can0 DB#390E0020F52B9BFF677F831A3F218015494DC116B3281D5C060300F1FFFFFFFFE6EDC2B9000000000000000000000000
(00.026754) can0 DC#39100016EE1A9D0EA22100231C352C0000000000FFFFE5A1AE92000000000000
(00.028781) can0 E3#39042208003C067E780FFAFF
(00.030367) can0 DB#390F00158C709B20FFFF7FCFFFFF3FFFFFFFFFFFFFE69E363C00000000000000
(00.033823) can0 D4#39040C050E0FF4FFFF3915011445FD93E1F85FF5FFFFFFFFFE07009F2871FEFFFF000000000000000000000000000000
(00.036731) can0 18E19490#01F501470D1901800CFF00BC02060620030000401F01C903AC0DFF06012003740E01FB06860C000001010000F437D007AC0D401F0C4E0A501311001505150000
(00.038735) can0 E3#4100050800800343CCA6E9D1
(00.043875) can0 2D#F907BD04C4090090709758624652552C98DE30FFFFFF7F4002D235FFFFFFFF00FEFFEB9FFD9800000000000000000000
(00.044880) can0 D9#3913010B56BA38559500FE03BAFFEF39130015E3719D11A04A4DA90F1270F0FFFFFFFFFFE706CDF00000000000000000
(00.045392) can0 DB#390E010F2C35FFFFFFFFFFFFFF9FD208BCFDFF390E002095779CFF677F831A3F2180D5484DC116B3281D5C060300F1FFFFFFFFE8BBDFDA000000000000000000
(00.046847) can0 DC#39100110553F41004A109916E89C122095C0FFF539100016A3F29E0EA22100231C352C0000000000FFFFE7F2775F0000
(00.000301) can0 DB#390F00152CB67C20FFFF7FCFFFFF3FFFFFFFFFFFFFA84B74DD00000000000000
(00.013787) can0 D9#3913001584AB7E11A04A0DAA0F1270F0FFFFFFFFFFA9DE01D900000000000000
(00.014166) can0 2D#192F9E04C4090090709758624652552C98DE30FFFFFF7F4002D235FFFFFFFF00FEFFAD0C0DB300000000000000000000
(00.015417) can0 DB#39FE0B086100000001000000390E00205F4D7DFF677F831A3F2180D5484DC116B3281D5C060300F1FFFFFFFFAA08EC79
(00.016648) can0 DC#39100016CA987F0EA22100231C352C0000000000FFFFA937FE32000000000000
(00.018707) can0 E3#39042208003C467E782FFEFF
(00.020309) can0 DB#390F0015CEA67D20FFFF7FCFFFFF3FFFFFFFFFFFFFAAFA39AD00000000000000
(00.023752) can0 D4#39040C050E0FF4FFFF390C1608FFFFFFFFFFFFFFFF3915011445FD93E1F85FF5FFFFFFFFFE07009F2871FEFFFF000000
(00.024279) can0 D9#39FE28082900000000000000
(00.026576) can0 DC#39FE6F089401008003000000
(00.026775) can0 18E19490#01F401470D1A01800CFF00BC02060620030000401F01C803AC0D0207012003780E01FA06870C000001010000E437D007AC0D401F0C4832501311001505150000
(00.028664) can0 E3#4100050800800343CCA6ADA6
(00.029916) can0 DB#390E022A3E004B00650AA0411664010047403E49E0D16CC24E85D04D8B82F847CE43068867E9FFFFFFFFABA058AE0000
(00.033789) can0 2D#06269F04C4090090709758624652552C98DE30FFFFFF7F4002D235FFFFFFFF00FEFFAF72E5D800000000000000000000
(00.034780) can0 D9#3913010B56BA38559500FE03BAFFEF39130015590B7F11A04A8DA90F1270F0FFFFFFFFFFAB3906A60000000000000000
(00.035295) can0 DB#390E010F4835FFFFFFFFFFFFFF9FD208BCFDFF390E030837D807F8FFFFFFFF00
(00.036742) can0 DC#39100110553F41304A106946E89C122095C0FFF1391000169700800EA22100231C352C0000000000FFFFAB2AC8C40000
(00.040496) can0 DB#390E0020812A7EFF577F831A3F218015494DC116B3281D5C060300F1FFFFFFFFAC36BF39390F0015E8977E20FFFF7FCFFFFF3FFFFFFFFFFFFFAC06CF09000000
(00.048701) can0 E3#4100050801A8C119A85A66EC
(00.003484) can0 2D#7FAF7D04C4090090709758624652552C98DE30FFFFFF7F4002D235FFFFFFFF00FEFF6B26592000000000000000000000
(00.004004) can0 D9#391300159F165D11A04A8DA90F1270F0FFFFFFFFFF669FB97B00000000000000
(00.005122) can0 DB#390E002021125CFF577F831A3F2180D5484DC116B3281D5C060300F1FFFFFFFF686C02D5000000000000000000000000
(00.006326) can0 DC#3910001642015E0EA24100231C352C0000000000FFFF65E9DF87000000000000
(00.010013) can0 DB#390F00152E8A5C20FFFF7FCFFFFF3FFFFFFFFFFFFF684FCA5D00000000000000
(00.014830) can0 21C#11020101000001F403E805DC07D009C40DAC138819641F402328251C271000000000000000000000000000000000000000000000000000000000000000000000
(00.015526) can0 21D#304028
(00.015681) can0 21C#21000000000000000000000000000000000000000000000000000000000000000000000000000000000000000000000000000000000000000000000000000000
(00.016391) can0 18E19490#045F015C010E003430EE0C4E0D22011A010803010101010100000000000000000000000000000000000000000000000000000000000000001311001505150000
(00.018597) can0 4F#28740D0424A8AD14
(00.023449) can0 D9#3913001556CD5E11A04A4DAA0F1270F0FFFFFFFFFF69AE8F8F00000000000000
(00.023826) can0 2D#5EB47E04C4090090709758624652552C98DE30FFFFFF7F4002D235FFFFFFFF00FEFF6D57635B00000000000000000000
(00.025101) can0 DB#390E00205B9F5DFF677F831A3F2180D5484DC116B3281D5C060300F1FFFFFFFF696157D7000000000000000000000000
(00.026465) can0 DC#39100016DEDE5F0EA22100231C352C0000000000FFFF69903941000000000000
(00.030012) can0 DB#390F0015CC9A5D20FFFF7FCFFFFF3FFFFFFFFFFFFF69C419DB00000000000000
(00.039751) can0 21C#22000000000000000000000000000000000000000000000000000000000000000000000000000000000000000000000000000000000000000000000000000000
(00.043448) can0 D9#39130015B4DD5F11A04A4DAA0F1270F0FFFFFFFFFF6BCD6D4D00000000000000
(00.043825) can0 2D#41BD7F04C4090090709758624652552C98DE30FFFFFF7F4002D235FFFFFFFF00FEFF6F6DD69500000000000000000000
(00.044344) can0 D4#39040604848E2084
(00.044504) can0 E3#00800004624A1800
(00.045192) can0 DB#390E002085F85EFF577F831A3F218015494DC116B3281D5C060300F1FFFFFFFF6B8764E7000000000000000000000000
(00.046332) can0 DC#3910001662B5600EA24100231C352C0000000000FFFF6B963F07000000000000
(00.046715) can0 18E19490#0000000100000055056806D8030000EF0164013B028D00008501900100000C09050900004E4D4CE600E6005B012701100103014C4A4B5D031311001505150000
(00.004647) can0 18E19490#0460015E010E003430EB0C4E0D220119010803010101010100000000000000000000000000000000000000000000000000000000000000001311001505150000
(00.011887) can0 D9#3913001591DF4011A04A8DA80F1270F0FFFFFFFFFF2D5D9BCB00000000000000
(00.012265) can0 2D#145B6004C4090090709758624652552C98DE30FFFFFF7F4002D235FFFFFFFF00FEFF3102115E00000000000000000000
(00.013585) can0 DB#390E0020B0193FFF577F831A3F2180D5484DC116B3281D5C060300F1FFFFFFFF2E5AA3B2000000000000000000000000
(00.014821) can0 DC#39100016525B410EA24100231C352C0000000000FFFF2DC6B0F0000000000000
(00.018545) can0 DB#390F00150EFF3F20FFFF7FCFFFFF3FFFFFFFFFFFFF2EEE8EEC00000000000000
(00.031973) can0 2D#0B526104C4090090709758624652552C98DE30FFFFFF7F4002D235FFFFFFFF00FEFF33B8547600000000000000000000
(00.032493) can0 D4#39040604C6CA1A84
(00.032652) can0 D9#3913001576234111A04A4DA90F1270F0FFFFFFFFFF2F416A8C00000000000000
(00.033028) can0 E3#00800004C9221200
(00.033556) can0 DB#390E0020861C40FF577F831A3F218095484DC116B3281D5C060300F1FFFFFFFF30F1D441000000000000000000000000
(00.034684) can0 DC#39100016A7C4420EA22100231C352C0000000000FFFF2F101250000000000000
(00.035068) can0 18E19490#0000000100000055056806D8030000EF0164013B028D000085018F0100000D09050900004E4D4CE600E6005C012601110104014C4C4B46031311001505150000
(00.038602) can0 DB#390F0015B7504020FFFF7FCFFFFF3FFFFFFFFFFFFF301BC9B400000000000000
(00.000738) can0 DC#39100016BFA6230EA22100231C352C0000000000FFFFF17986E2000000000000
(00.004475) can0 DB#390F001553042120FFFF7FCFFFFF3FFFFFFFFFFFFFF2761DF500000000000000
(00.017823) can0 D9#39130015C4A92311A04A8DA90F1270F0FFFFFFFFFFF373546900000000000000
(00.018197) can0 2D#F4734304C4090090709758624652552C98DE30FFFFFF7F4002D235FFFFFFFF00FEFFF6560B6900000000000000000000
(00.018717) can0 D4#390406049C681484
(00.019591) can0 DB#390E0020833322FF577F831A3F218095484DC116B3281D5C060300F1FFFFFFFFF47EA502000000000000000000000000
(00.020589) can0 DC#3910001620CE240EA22100231C352C0000000000FFFFF355F2DF000000000000
(00.020973) can0 18E19490#0000000100000055056706D7030000EF0164013B028D000083018E0100000709000900004E4D4CE600E6005B012501100104014C4B4B53031311001505150000
(00.022817) can0 E3#3204000C455DF153670700F0F591CCE400800004349B0C00
(00.024496) can0 DB#390F001575352220FFFF7FCFFFFF3FFFFFFFFFFFFFF473963900000000000000
(00.037828) can0 D9#391300151A342411A04A4DA90F1270F0FFFFFFFFFFF589AB1000000000000000
(00.038203) can0 2D#A94C4404C4090090709758624652552C98DE30FFFFFF7F4002D235FFFFFFFF00FEFFF9A7296B00000000000000000000
(00.039559) can0 DB#390E0020171723FF577F831A3F218095484DC116B3281D5C060300F1FFFFFFFFF6161860000000000000000000000000
(00.040610) can0 DC#391000160466250EA22100231C352C0000000000FFFFF52E52C5000000000000
(00.042854) can0 E3#39042208003C067E780FFAFF
(00.044530) can0 DB#390F001597252320FFFF7FCFFFFF3FFFFFFFFFFFFFF67DFE8400000000000000
(00.047891) can0 D4#39040C050E0FF4FFFF3915011445FD93E1F85FF5FFFFFFFFFE07009F2875FEFFFF000000000000000000000000000000
(00.002948) can0 DB#390F0015FF4A0620FFFF7FCFFFFF3FFFFFFFFFFFFFBCB54EA300000000000000
(00.011077) can0 E3#4100050801B12A6CCCBAEA2F
(00.016156) can0 2D#4E732804C4090090709758624652652C98DE30FFFFFF7F4002D235FFFFFFFF00FEFFC1D8820C00000000000000000000
(00.016678) can0 D9#39130015F0230811A04A8DA90F1270F0FFFFFFFFFFBD1BF86D00000000000000
(00.017824) can0 DB#390F01064E850460DC1C390E0020379607FF577F831A3F2180D5484DC116B3281D5C060300F1FFFFFFFFBE5DA9280000
(00.018898) can0 DC#3910001647B1090EA22100231C352C0000000000FFFFBD5E8B11000000000000
(00.019278) can0 18E19490#0284006464640100052755020300000000000000E500E900BC04C004CC040300FFFF00004B14C4057205841300000F028708800C7E0F2C0D1311001505150000
(00.022764) can0 DB#390F00151D5A0720FFFF7FCFFFFF3FFFFFFFFFFFFFBEF3731600000000000000
(00.036026) can0 D9#3913001512330911A04A8DA90F1270F0FFFFFFFFFFBECAE91100000000000000
(00.036401) can0 2D#517A2904C4090090709758624652652C98DE30FFFFFF7F4002D235FFFFFFFF00FEFFC3FAF7E100000000000000000000
(00.037788) can0 DB#390E00205A5D08FF577F831A3F2180D5484DC116B3281D5C060300F1FFFFFFFFC0AAD770000000000000000000000000
(00.038968) can0 DC#391000160A590A0EA22100231C352C0000000000FFFFBE673EFB000000000000
(00.042714) can0 DB#390F0015A3AF0820FFFF7FCFFFFF3FFFFFFFFFFFFFC073CA5A00000000000000
(00.046102) can0 DC085B#4002080400000000
(00.048818) can0 18E19490#036906C61676D2100E0F0E1D00F700FB000000080108010000EF01EF01000000001002102700AC0D0C0E0C0E1E0094D9056016D50C841C001311001505150000
(00.001645) can0 DB#390E00207082E8FF577F831A3F218095484DC116B3281D5C060300F1FFFFFFFF80030ADE390F0015AD1BE820FFFF7FCFFFFF3FFFFFFFFFFFFF80294125000000
(00.009850) can0 E3#4100050801FFC41FE8A12F7B
(00.011164) can0 DB#390E04105CE30B4C24B4DBFF0FAE6C75EBFFFFFF390F01064E850460BC1C0000
(00.011542) can0 DC085D#4002000000000000
(00.014928) can0 2D#B1520A04C4090090709758624652652C98DE30FFFFFF7F4002D235FFFFFFFF00FEFF85B00F9F00000000000000000000
(00.015451) can0 D9#391300150506EA11A04A0DAA0F1270F0FFFFFFFFFF819962F800000000000000
(00.016594) can0 DB#390E0020E4A6E9FF577F831A3F218095484DC116B3281D5C060300F1FFFFFFFF82C60731000000000000000000000000
(00.017480) can0 DC#391000166333EB0EA22100231C352C0000000000FFFF81BEE850000000000000
(00.017863) can0 18E19490#0284006464640100052756020200000000000000E500E900BC04C004CE040200FEFF00004D14C80571058113000010028708800C7E0F2C0D1311001505150000
(00.021498) can0 DB#390F00154F0BE920FFFF7FCFFFFF3FFFFFFFFFFFFF8268BB5500000000000000
(00.034764) can0 D9#391300150E28EB11A0498DA80F1270F0FFFFFFFFFF825CD6C600000000000000
(00.035140) can0 2D#AE5B0B04C4090090709758624652652C98DE30FFFFFF7F4002D235FFFFFFFF00FEFF87C4715700000000000000000000
(00.036574) can0 DB#390E00202C0AEAFF577F831A3F2180D5484DC116B3281D5C060300F1FFFFFFFF846771C3000000000000000000000000
(00.037513) can0 DC#39100016442CEC0EA24100231C352C0000000000FFFF825E1F21000000000000
(00.041498) can0 DB#390F0015693AEA20FFFF7FCFFFFF3FFFFFFFFFFFFF847E82CE00000000000000
(00.047535) can0 18E19490#036906C11671D2110E100E1D00FC00F4000000070107010000EF01EF01000000000E02102700AC0D0E0E0E0E1E0094D9056216D70C841C001311001505150000
(00.000234) can0 2D#B4FFEC04C4090090709758624652652C98DE30FFFFFF7F4002D235FFFFFFFF00FEFF49E02F8000000000000000000000
(00.000758) can0 D9#39130015E8D5CC11A0490DAA0F1270F0FFFFFFFFFF45E3144000000000000000
(00.001908) can0 DB#390F01064E850460BC1C390E0020BCFCCBFF577F831A3F2180D5484DC116B3281D5C060300F1FFFFFFFF46E64ADB0000
(00.002779) can0 DC#39100016CCB5CD0EA22100231C352C0000000000FFFF453C1DC0000000000000
(00.003160) can0 18E19490#0284006464640100022755020300000000000000E400E800BE04C204CB040100FDFF00004E14C20571058513000011028708800C6E0F2C0D1311001505150000
(00.006814) can0 DB#390F00158916CB20FFFF7FCFFFFF3FFFFFFFFFFFFF46C364BD00000000000000
(00.016596) can0 21C#23000000000000000000000000000000000000000000000000000000000000000000000000000000000000000000000000000000000000000000000000000000
(00.020034) can0 D9#39130015459ACD11A0494DA90F1270F0FFFFFFFFFF46DD468500000000000000
(00.020408) can0 2D#ABF6ED04C4090090709758624652652C98DE30FFFFFF7F4002D235FFFFFFFF00FEFF4BC8B48400000000000000000000
(00.021890) can0 DB#390E00205003CCFF577F831A3F2180D5484DC116B3281D5C060300F1FFFFFFFF48A901EF000000000000000000000000
(00.022824) can0 DC#39100016815DCE0EA22100231C352C0000000000FFFF46F9B06D000000000000
(00.026813) can0 DB#390F00152764CC20FFFF7FCFFFFF3FFFFFFFFFFFFF489A1CF000000000000000
(00.030145) can0 E3#410000080057314B41463545
(00.032794) can0 18E19490#036906C11677D2100E0F0E1D00F400FC000000080108010000EF01EF01000000001002102700AC0D0D0E0D0E1E0094D8056216D20C841C001311001505150000
(00.040123) can0 D9#39130015B61DCE11A049CDA80F1270F0FFFFFFFFFF48640BEC00000000000000
(00.040500) can0 2D#8AEDEE04C4090090709758624652652C98DE30FFFFFF7F4002D235FFFFFFFF00FEFF4D3C95E000000000000000000000
(00.041019) can0 D4#3904060416220384
(00.041928) can0 DB#390E0020C427CDFF577F831A3F2180D5484DC116B3281D5C060300F1FFFFFFFF4AC9A212000000000000000000000000
(00.042859) can0 DC#39100016A5F5CF0EA22100231C352C0000000000FFFF484DACFD000000000000
(00.045142) can0 E3#008000045455FB00410000080142315052313138
(00.046843) can0 DB#390F0015C574CD20FFFF7FCFFFFF3FFFFFFFFFFFFF4AF9DF7000000000000000
(00.047237) can0 21C#2400000000000000
(00.011830) can0 2D#7D15D404C4090090709758624652652C98DE30FFFFFF7F4002D235FFFFFFFF00FEFF196D239400000000000000000000
(00.012349) can0 D9#39130015150EB411A0490DA80F1270F0FFFFFFFFFF155F3D1B00000000000000
(00.013496) can0 DB#390E002012C7B3FF577F831A3F2180D5484DC116B3281D5C060300F1FFFFFFFF16A456A4000000000000000000000000
(00.014345) can0 DC#391000167F4DB50EA22100231C352C0000000000FFFF15C55337000000000000
(00.014726) can0 18E19490#01ED01470D1801800C0301BC02060620030000401F01C803AC0DFF06012003700E01FA06860C000001010000EC37D007AC0D401F0C1F2D501311001505150000
(00.018469) can0 DB#390F00159ECBB320FFFF7FCFFFFF3FFFFFFFFFFFFF169EBA5100000000000000
(00.031844) can0 D9#3913001557ABB511A0498DA80F1270F0FFFFFFFFFF17F7306000000000000000
(00.032222) can0 2D#621CD504C4090090709758624652652C98DE30FFFFFF7F4002D235FFFFFFFF00FEFF1BD1866A00000000000000000000
(00.032740) can0 D4#39040604DD84FE84
(00.032901) can0 E3#3E800108C3020360B829E0FF
