(00.001099) can0 D9#39130015C2E74F13A05A8D9A0F1280F0FFFFFFFFFF856BC60C00000000000000
(00.002757) can0 DC#391000169C60510E9A21002358352C0000000000FFFF83221C09000000000000
(00.003141) can0 18E19490#028400646464010006275302010000000000000000010501BE04C004C4040200FEFF00004B14C50572058513000003028108800C820FED0B1311001505150000
(00.005644) can0 DB#390E0020D81F69107880831A3F1E8095594DC116B3281D5C060300F1FFFFFFFF85FBDAEB000000000000000000000000
(00.010206) can0 DB#390F001547FB6920FFFF7FCFFFFF3FFFFFFFFFFFFF85D0ABC100000000000000
(00.014416) can0 2D#85045604C4090090709758624652552CA8DF30FFFFFF7F4002D235FFFFFFFF00FEFF891662B000000000000000000000
(00.014937) can0 D4#39040604203DE084
(00.020970) can0 D9#391300150DE35013A05A4D9A0F1280F0FFFFFFFFFF878E957900000000000000
(00.022749) can0 DC#39100016D188520E9A21002358352C0000000000FFFF8681434D000000000000
(00.025631) can0 DB#390E002064726A107880831A3F1E8095594DC116B3281D5C060300F1FFFFFFFF8752E7CA000000000000000000000000
(00.028745) can0 44#04
(00.030261) can0 DB#390F001561CA6A20FFFF7FCFFFFF3FFFFFFFFFFFFF87D1928D00000000000000
(00.032946) can0 18E19490#036806B8165CD2100E120E16000101EB000000020102010000EF01EF01000000000402D80F00AC0D0F0E0F0E160094DA056D16DB0C841C001311001505150000
(00.034410) can0 D4#39040C050E0FF4FFFF390C1608FFFFFFFFFFFFFFFF3915011444F991E5F85FF5FFFFFFFFFE0700A02875FEFFFF000000
(00.034936) can0 2D#9A0D5704C4090090709758624652552CA8DF30FFFFFF7F4002D235FFFFFFFF00FEFF8B34865400000000000000000000
(00.035456) can0 D4#390C083CFE7403800000086C35BC3183FF33025A70F8C401A82CE07C8FB30400009E053C400B5AD08216B4A0052D68DB086BFE7FA9E600FFC9FFFFFF833EE4FF
(00.039724) can0 E3#39042208003D867E780FFAFF
(00.041691) can0 D9#391300154AAA5113A05A0D9B0F1280F0FFFFFFFFFF89EA5F6A00000000000000
(00.042840) can0 DC#39100016C08D530E9A2100235C352C0000000000FFFF888EFF6C000000000000
(00.045629) can0 DB#390E0020F0566B107880831A3F1E8095594DC116B3281D5C060300F1FFFFFFFF89F01351000000000000000000000000
(00.001884) can0 DB#390E00204EDE43107880831A3F1D8095594DC116B3281D5C060300F1FFFFFFFF3A5CB9CD000000000000000000000000
(00.006441) can0 DB#390F001591614320FFFF7FCFFFFF3FFFFFFFFFFFFF3A5C2EF400000000000000
(00.009075) can0 18E19490#028400646464010004275402030000000000000000010501BD04C004C3040100FEFF00004D14BA0571058713000004028108800C820FED0B1311001505150000
(00.010639) can0 2D#84663004C4090090709758624652552CA8DF30FFFFFF7F4002D235FFFFFFFF00FEFF3E15A48F00000000000000000000
(00.011160) can0 4F#205707A00049A3B4
(00.011325) can0 D4#390C140CFFFFFFFFFDFFFFFFFFFFFFFF
(00.017163) can0 D9#3913010B55BA38559500FE03BAFFEF3913001502BC2A13A05ACD960F1280F0FFFFFFFFFF3BA583860000000000000000
(00.019013) can0 DC#39100110554141004F10A902E89C122095C0FFF139100016D9B02C0E9A21002358352C0000000000FFFF3ADD5E430000
(00.021879) can0 DB#390E010F8435FFFFFFFFFFFFFF4FD308BCFDFF390E0020994F44107880831A3F1E8095594DC116B3281D5C060300F1FFFFFFFF3C9CA384000000000000000000
(00.026441) can0 DB#390F00153F134420FFFF7FCFFFFF3FFFFFFFFFFFFF3C9C02B400000000000000
(00.030598) can0 2D#9B6F3104C4090090709758624652552CA8DF30FFFFFF7F4002D235FFFFFFFF00FEFF40F4AF6700000000000000000000
(00.031117) can0 E3#39060B08001111180000D0FF4100050800800343CEC73F55
(00.037156) can0 D9#3913001545F52B13A05A8D970F1280F0FFFFFFFFFF3D5CD16400000000000000
(00.038964) can0 DC#39100016FD182D0E9A21002358352C0000000000FFFF3C98A5F7000000000000
(00.039347) can0 18E19490#036806BA1638D2100E100E1600F200FA000000020102010000EF01EF01000000000402D80F00AC0D0E0E0C0E160094D9056F16D50C841C001311001505150000
(00.041877) can0 DB#390F01064E850460381B390E0020360545107880831A3F1D8095594DC116B3281D5C060300F1FFFFFFFF3E27C7500000
(00.046441) can0 DB#390F0015DD034520FFFF7FCFFFFF3FFFFFFFFFFFFF3ECA86FA00000000000000
(00.003753) can0 2D#5B301004C4090090709758624652552C98DF30FFFFFF7F4002D235FFFFFFFF00FEFFFE575D2F00000000000000000000
(00.004275) can0 D4#39040604A1FCD284
(00.010209) can0 D9#39130015652D0A14A05A0D970F1288F0FFFFFFFFFFF943948C00000000000000
(00.011897) can0 DC#39100016CDF60C0E9A21002358352C0000000000FFFFF9A6E0B7000000000000
(00.012283) can0 18E19490#01EC01570D4B01800CFF00BC02060620030000401F01C203AC0DD706012003240E01FC06860C000001010000D437D007AC0D401F0C251B521311001505150000
(00.013705) can0 E3#410000080057314B41463545
(00.015164) can0 DB#390E0020321424107880831A3F1D8055594DC116B3281D5C060300F1FFFFFFFFFB9C7CE1000000000000000000000000
(00.018122) can0 44#04
(00.019561) can0 DB#390F001539572420FFFF7FCFFFFF3FFFFFFFFFFFFFFB56988300000000000000
(00.023797) can0 2D#44391104C4090090709758624652552C98DF30FFFFFF7F4002D235FFFFFFFF00FEFF00B6644C00000000000000000000
(00.029069) can0 D4#39040C050E0FF4FFFF3915011444F991E5F85FF5FFFFFFFFFE0780A02875FEFFFF000000000000000000000000000000
(00.029599) can0 E3#39042208003D867E781FFAFF410000080142315052313138
(00.031117) can0 D9#39130015F23E0B14A05A0D960F1288F0FFFFFFFFFFFBF29C7A00000000000000
(00.031883) can0 DC#39100016DCF30D0E9A2100235C352C0000000000FFFFFBC77301000000000000
(00.035016) can0 DB#39FE0B086100000001000000390E00201D4025107880831A3F1D8015594DC116B3281D5C050300F1FFFFFFFFFD9424D6
(00.039552) can0 DB#390F0015DB472520FFFF7FCFFFFF3FFFFFFFFFFFFFFDDC7FAE00000000000000
(00.040306) can0 D9#39FE28082900000000000000
(00.042005) can0 DC#39FE6F089401008003000000
(00.042203) can0 18E19490#028400646464010005275402020000000000000000010501BF04C204C4040200FDFF00004B14BF0571058513000002028108800C820FED0B1311001505150000
(00.043738) can0 2D#65221204C4090090709758624652552C98DF30FFFFFF7F4002D235FFFFFFFF00FEFF024242B200000000000000000000
(00.044259) can0 D4#390C140CFFFFFFFFFDFFFFFFFFFFFFFF
(00.049336) can0 DB#390E022A3E004800650AD4C1199C010047403E49E0D16CC24E85DA4D8E82F847CE43068867E9FFFFFFFFFEA1DD0B0000
(00.000072) can0 2D#7633EC04C4090090709758624652552CA8DF30FFFFFF7F4002D235FFFFFFFF00FEFFB6D539A600000000000000000000
(00.000592) can0 E3#410005080185CBD80E52217F
(00.005252) can0 E3#008000047BB58500
(00.006751) can0 D9#39130015CCEDE614A05A8D940F1288F0FFFFFFFFFFB35AA9FA00000000000000
(00.008153) can0 DC#3910001652B4E80E9A21002358352C0000000000FFFFB3275C57000000000000
(00.008534) can0 18E19490#028400646464010003275702030000000000000000010601BE04C104C4040200FCFF00004D14BE0571057E13000003028108800CA70FED0B1311001505150000
(00.011303) can0 DB#390E0020DB0700107880831A3F1D8095594DC116B3281D5C060300F1FFFFFFFFB467F159000000000000000000000000
(00.015869) can0 DB#390F0015B3280020FFFF7FCFFFFF3FFFFFFFFFFFFFB47CB69500000000000000
(00.020063) can0 2D#775FED04C4090090709758624652552C98DF30FFFFFF7F4002D235FFFFFFFF00FEFFB84B202900000000000000000000
(00.020583) can0 D4#390406047114CB84
(00.025233) can0 E3#0500000CF5FCFF0000000000BB1821FA
(00.025469) can0 DC085B#4003080000000000
(00.026747) can0 D9#39130015FEA7E714A05ACD940F1288F0FFFFFFFFFFB5B6FC1C00000000000000
(00.028147) can0 DC#39100016761CE90E9A21002358352C0000000000FFFFB48DF697000000000000
(00.031294) can0 DB#390E0020F27001107880831A3F1D8055594DC116B3281D5C060300F1FFFFFFFFB6F30DF2000000000000000000000000
(00.035873) can0 DB#390F001551380120FFFF7FCFFFFF3FFFFFFFFFFFFFB6A335A600000000000000
(00.038356) can0 18E19490#036806C31672D2100E100E1500F600F9000000010101010000EF01EF01000000000202D80F00AC0D0F0E0F0E150094D9057416DA0C841C001311001505150000
(00.040092) can0 2D#4821EE04C4090090709758624652552CA8DF30FFFFFF7F4002D235FFFFFFFF00FEFFBA7C63A300000000000000000000
(00.045379) can0 D4#39040C050E0FF4FFFF000000
(00.045578) can0 E3#39042208003D877E780FFAFF3980000C007F018F0031B0FEBDC2AF8100000000
(00.047971) can0 D9#391300159008E814A05A8D940F1288F0FFFFFFFFFFB7A4319400000000000000
(00.048348) can0 DC#391000160E59EA0E9A2100235C352C0000000000FFFFB677D550000000000000
(00.003638) can0 E3#39042208003D877E780FFAFF3980000C00FF2E8F0931B0FE6D9AA83A00000000
(00.005437) can0 D9#39130015690EC014A05A0D930F1288F0FFFFFFFFFF6521984900000000000000
(00.006345) can0 DC#39100016AAA3C20E9A21002358352C0000000000FFFF650FA96A000000000000
(00.009593) can0 DB#390E0020E34DDA107880831A3F1D8015594DC116B3281D5C060300F1FFFFFFFF67D80486000000000000000000000000
(00.014147) can0 DB#390F00156A18DA20FFFF7FCFFFFF3FFFFFFFFFFFFF67F4CA1F00000000000000
(00.016476) can0 18E19490#028400646464010005275502020000000000000000010501BF04C004C3040200FEFF00005114C00572058413000004028108800C6E0FED0B1311001505150000
(00.018330) can0 2D#7036C704C4090090709758624652552C98DF30FFFFFF7F4002D235FFFFFFFF00FEFF6CD00F3A00000000000000000000
(00.018851) can0 D4#390C140CFFFFFFFFFDFFFFFFFFFFFFFF
(00.024705) can0 D9#3913010B55BA38559500FE03BAFFEF391300152BABC114A05A8D930F1288F0FFFFFFFFFF67A794B30000000000000000
(00.026409) can0 DC#39100110554141304F100156E99C122095C0FFF5391000168E0BC30E9A21002358352C0000000000FFFF67E5C9470000
(00.029584) can0 DB#390E010F7C35FFFFFFFFFFFFFF4FD308BCFDFF390E0020B6FADB0F7880831A3F1C8055594DC116B3281D5C060300F1FFFFFFFF692AA40A000000000000000000
(00.034145) can0 DB#390F00158808DB20FFFF7FCFFFFF3FFFFFFFFFFFFF69D7B15400000000000000
(00.038305) can0 2D#D541C804C4090090709758624652552C98DF30FFFFFF7F4002D235FFFFFFFF00FEFF6E2F661400000000000000000000
(00.038825) can0 E3#39060B08001111180000D0FF4100050800800343CEC66DDE
(00.044697) can0 D9#39130015AD2FC214A05A0D930F1288F0FFFFFFFFFF69AE890C00000000000000
(00.046379) can0 DC#391000161163C40E9A21002358352C0000000000FFFF69A3BE2D000000000000
(00.046761) can0 18E19490#036706C3166BD2110E100E1400F900F4000000020102010000EF01EF01000000000402D80F00AC0D100E0F0E150094D9056D16D70C841C001311001505150000
(00.001109) can0 D9#3913010B55BA38559500FE03BAFFEF39130015E7E39915A05ACD8F0F1290F0FFFFFFFFFF19211CD10000000000000000
(00.002759) can0 DC#39100110554141004F10C112E99C122095C0FFF53910001629B59B0E9A21002358352C0000000000FFFF18A30B9D0000
(00.006049) can0 DB#390E010F8435FFFFFFFFFFFFFF4FD308BCFDFF390E0020592FB3107880831A3F1C8055594DC116B3281D5C060300F1FFFFFFFF1A0AE464000000000000000000
(00.010610) can0 DB#390F00159ECBB320FFFF7FCFFFFF3FFFFFFFFFFFFF1A69951900000000000000
(00.012934) can0 18E19490#01EE01560D4C01800CFF00BC02060620030000401F015001AC0DD706012003200E01FA06860C000001010000DC37D007AC0D401F0C0F03521311001505150000
(00.014771) can0 2D#6E5DA004C4090090709758624652552C98DF30FFFFFF7F4002D235FFFFFFFF00FEFF1ECE093700000000000000000000
(00.015291) can0 E3#39060B08001111180000D0FF4100050800800343CEC61D1E
(00.021099) can0 D9#3913001561679A15A05A4D8F0F1290F0FFFFFFFFFF1B597CB500000000000000
(00.022896) can0 DC#39100016B6DD9C0E9A21002358352C0000000000FFFF1A0BA934000000000000
(00.026038) can0 DB#390E0020B5D0B4107880831A3F1C8055594DC116B3281D5C060300F1FFFFFFFF1C24C91F000000000000000000000000
(00.030609) can0 DB#390F001530B9B420FFFF7FCFFFFF3FFFFFFFFFFFFF1C39DA0E00000000000000
(00.034805) can0 2D#7154A104C4090090709758624652552C98DF30FFFFFF7F4002D235FFFFFFFF00FEFF2088520700000000000000000000
(00.035325) can0 E3#410005080185ACC9E982650A
(00.039996) can0 E3#00800004EAB17600
(00.041117) can0 D9#3913001543849B15A0590D900F1290F0FFFFFFFFFF1D9188BE00000000000000
(00.042805) can0 DC#3910001692759D0E9A21002358352C0000000000FFFF1C2E1BF8000000000000
(00.043187) can0 18E19490#028400646464010007275602030000000000000000010701BE04C104C3040200FCFF00004B14C00572058113000001028108800C860FED0B1311001505150000
(00.046049) can0 DB#390E002021F4B5107880831A3F1C8055594DC116B3281D5C060300F1FFFFFFFF1E033D07000000000000000000000000
(00.000219) can0 E3#008000048E2F6E00
(00.001253) can0 D9#3913001598A87315A05A8D8E0F1290F0FFFFFFFFFFCDE7BAA200000000000000
(00.003006) can0 DC#391000165AA6750E9A21002358352C0000000000FFFFCCA6ABAD000000000000
(00.006244) can0 DB#390E0020913D8D0F7880831A3F1C8015594DC116B3281D5C060300F1FFFFFFFFCDAD0FBF000000000000000000000000
(00.010233) can0 E3#3E800108C3021AD0B911E0FF
(00.010830) can0 DB#390F0015C10C8D20FFFF7FCFFFFF3FFFFFFFFFFFFFCDCCE7BA00000000000000
(00.014982) can0 2D#69FF7A04C409009070974E624652552C98DF30FFFFFF7F4002D235FFFFFFFF00FEFFD28A6A2E00000000000000000000
(00.015504) can0 D4#39040604EA82B484
(00.021238) can0 D9#3913001543D97415A05A8D8F0F1290F0FFFFFFFFFFCD5820E600000000000000
(00.022892) can0 DC#39100016174E760E9A21002358352C0000000000FFFFCD1EB5EC000000000000
(00.023273) can0 18E19490#01ED01560D4B01800CFF00BC02060620030000401F015001AC0DDA06012003240E01FA06830C000001010000BC37D007AC0D401F0C071B521311001505150000
(00.024920) can0 E3#410000080057314B41463545
(00.026413) can0 DB#390E00202D508E0F7880831A3F1C8015594DC116B3281D5C060300F1FFFFFFFFCF93B934000000000000000000000000
(00.029329) can0 44#04
(00.030814) can0 DB#390F0015E73D8E20FFFF7FCFFFFF3FFFFFFFFFFFFFCFA7A38200000000000000
(00.035019) can0 2D#76F67B04C409009070974E624652552C98DF30FFFFFF7F4002D235FFFFFFFF00FEFFD4D8200B00000000000000000000
(00.040306) can0 D4#39040C050E0FF4FFFF3915011444F991E5F85FF5FFFFFFFFFE0700A02875FEFFFF000000000000000000000000000000
(00.040837) can0 E3#39042208003D867E781FFAFF410000080142315052313138
(00.042188) can0 D9#3913001571937515A05ACD8F0F1290F0FFFFFFFFFFCF7E478A00000000000000
(00.042917) can0 DC#3910001633E6770E9A21002358352C0000000000FFFFCF99F1DA000000000000
(00.046268) can0 DB#39FE0B086100000001000000390E0020CDB58F0F7880831A3F1C8055594DC116B3281D5C060300F1FFFFFFFFD11AC4E0
(00.003093) can0 DB#390F0015DF3F6520FFFF7FCFFFFF3FFFFFFFFFFFFF7EB4253E00000000000000
(00.005186) can0 18E19490#045A015C010E003430EE0C5E0D22014C010803010101010100000000000000000000000000000000000000000000000000000000000000001311001505150000
(00.007272) can0 2D#42D85204C4090090709736624652552C98DF30FFFFFF7F4002D235FFFFFFFF00FEFF823B327500000000000000000000
(00.007791) can0 D4#390406048E1CAC84
(00.013467) can0 D9#39130015CA954C15A05A4D8D0F1290F0FFFFFFFFFF7FDC48F800000000000000
(00.015236) can0 DC#391000168C3A4E0E9A21002358352C0000000000FFFF7EC20D76000000000000
(00.018519) can0 DB#390E002086BB660F7880831A3F1C8055594DC116B3281D5C060300F1FFFFFFFF808D3C1E000000000000000000000000
(00.021589) can0 44#04
(00.023097) can0 DB#390F0015F90E6620FFFF7FCFFFFF3FFFFFFFFFFFFF80C346D800000000000000
(00.027305) can0 2D#5DD15304C4090090709736624652552C98DF30FFFFFF7F4002D235FFFFFFFF00FEFF840564C700000000000000000000
(00.032566) can0 D4#39040C050E0FF4FFFF3915011444F991E5F85FF5FFFFFFFFFE0700A02875FEFFFF000000000000000000000000000000
(00.033096) can0 E3#39042208003D867E780FFAFF
(00.034372) can0 D9#3913001567DA4D15A05A0D8E0F1290F0FFFFFFFFFF81C283B200000000000000
(00.035132) can0 DC#39100016A8924F0E9A21002358352C0000000000FFFF80CD35DE000000000000
(00.035513) can0 18E19490#0000000100000055056806D8030000EF0165013B028D00008D019A010000D808DA080000504F4F0201040187015D014201370150514F4D031311001505150000
(00.038532) can0 DB#390E0020511867107880831A3F1C8055594DC116B3281D5C060300F1FFFFFFFF82E25F89000000000000000000000000
(00.043088) can0 DB#390F00151B1E6720FFFF7FCFFFFF3FFFFFFFFFFFFF828B7A6200000000000000
(00.047256) can0 2D#D8835404C4090090709737624652552C98DF30FFFFFF7F4002D235FFFFFFFF00FEFF86DCAB4000000000000000000000
(00.047777) can0 D4#390C140CFFFFFFFFFDFFFFFFFFFFFFFF
(00.002150) can0 DB#390F0015FB324620FFFF7FCFFFFF3FFFFFFFFFFFFF3F7F7EEE00000000000000
(00.006309) can0 2D#E1F53304C4090090709723624652652C98DF30FFFFFF7F4002D235FFFFFFFF00FEFF4467A90400000000000000000000
(00.006830) can0 E3#4100050801957CD4F7E198FE
(00.011471) can0 E3#00800004D48D6000
(00.012441) can0 D9#39130015F1B92D13A05A0D9E2F1288F0FFFFFFFFFF3F92320100000000000000
(00.014063) can0 DC#3910001694582F0E9A21002358352C0000000000FFFF3FE2A86B000000000000
(00.017539) can0 DB#390E00209459470F7880831A3F1D8015594DC116B3281D5C060300F1FFFFFFFF42071E2B000000000000000000000000
(00.022102) can0 DB#390F001519224720FFFF7FCFFFFF3FFFFFFFFFFFFF42ED59DC00000000000000
(00.024092) can0 18E19490#045D015A010E003E30ED0C5D0D22014C010803010101010100000000000000000000000000000000000000000000000000000000000000001311001505150000
(00.026250) can0 2D#B5DC3404C4090090709724624652552C98DF30FFFFFF7F4002D235FFFFFFFF00FEFF46DEACD500000000000000000000
(00.026768) can0 D4#390406042574A684
(00.032428) can0 D9#39130015A5E12E14A05A8D950F1288F0FFFFFFFFFF430F7B4300000000000000
(00.034122) can0 DC#391000168402300E9A21002358352C0000000000FFFF42C2B2B0000000000000
(00.037529) can0 DB#390E00200F47480F7880831A3F1C8015594DC116B3281D5C060300F1FFFFFFFF4473F969000000000000000000000000
(00.040581) can0 44#04
(00.042107) can0 DB#390F0015A7D74820FFFF7FCFFFFF3FFFFFFFFFFFFF442A392100000000000000
(00.042628) can0 DC085D#4002000000000000
(00.046272) can0 2D#AAD53504C4090090709724624652552C98DF30FFFFFF7F4002D235FFFFFFFF00FEFF48C2174D00000000000000000000
(00.001295) can0 D9#3913010B55BA38559500FE03BAFFEF39130015FCA90816A0598D882F1298F0FFFFFFFFFFF7AEB5390000000000000000
(00.002899) can0 DC#39100110554141004F10D906E99C122095C0FFF53910001676360A0E9A21002358352C0000000000FFFFF6980AEA0000
(00.003418) can0 18E19490#045E015B010F003E30ED0C5D0D22014B010803010101010100000000000000000000000000000000000000000000000000000000000000001311001505150000
(00.006453) can0 DB#390E010F8435FFFFFFFFFFFFFF4FD308BCFDFF390E0020C4E4220F7880831A3F1B8015594DC116B3281D5C050300F1FFFFFFFFF8B26E0E000000000000000000
(00.011013) can0 DB#390F001575352220FFFF7FCFFFFF3FFFFFFFFFFFFFF8AAF06B00000000000000
(00.014493) can0 2D#D3AB0F04C409009070970E624652752C98DF30FFFFFF7F4402D235FFFFFFFF00FEFFFC6CB8BD00000000000000000000
(00.015011) can0 E3#39060B08001111180000D0FF4100050800800343CEC4FB96
(00.021286) can0 D9#3913001568820916A05A0D892F1298F0FFFFFFFFFFF9A3E58700000000000000
(00.022937) can0 DC#39100016529E0B0E9A21002358352C0000000000FFFFF7BE2EE5000000000000
(00.026451) can0 DB#390F01064E850460A41A390E00209F71230F7880831A3F1B8015594DC116B3281D5C060300F1FFFFFFFFFAEF521C0000
(00.031062) can0 DB#390F001597252320FFFF7FCFFFFF3FFFFFFFFFFFFFFAE6B81E00000000000000
(00.032954) can0 18E19490#0000000100000055056906D8030000EF0165013B028E00008E019B010000D708D9080000504F4F0201030186015D014201360150514F46031311001505150000
(00.034443) can0 2D#864D1004C409009070970E624652752C98DF30FFFFFF7F4402D235FFFFFFFF00FEFFFE25D0C600000000000000000000
(00.034964) can0 E3#4100050801C279E5773DC1AA
(00.041287) can0 D9#39130015ED3E0A16A0590D892F1298F0FFFFFFFFFFFBD9870700000000000000
(00.042977) can0 DC#39100016CDF60C0E9A21002358352C0000000000FFFFF9379796000000000000
(00.044464) can0 E3#008000044A525900
(00.046376) can0 21C#11020107000001F405DC09380FA01388189C1C3E21E8254427100000000000000000000000000000000000000000000000000000000000000000000000000000
(00.047074) can0 21D#304028
(00.047285) can0 DB#390E0020738E240F7880831A3F1B8015594DC116B3281D5C060300F1FFFFFFFFFBAD5E07000000000000000000000000
(00.047818) can0 21C#21000000000000000000000000000000000000000000000000000000000000000000000000000000000000000000000000000000000000000000000000000000
(00.001735) can0 E3#0500000CF5FCFF0000000000B31F19B8
(00.003126) can0 D9#3913001599F9E317A0594D852F1298F0FFFFFFFFFFADA90A9C00000000000000
(00.004827) can0 DC#39100016218DE50E9A21002358352C0000000000FFFFACD44334000000000000
(00.008332) can0 DB#390E0020444DFD0F7880831A3F1A80D5584DC116B3281D5C060300F1FFFFFFFFAE60592E000000000000000000000000
(00.012911) can0 DB#390F0015C656FD20FFFF7FCFFFFF3FFFFFFFFFFFFFAE2E9DFA00000000000000
(00.016478) can0 2D#93F8EA04C40900907097F7614652752C98DF30FFFFFF7F4402D235FFFFFFFF00FEFFB2A474A400000000000000000000
(00.021758) can0 D4#39040C050E0FF4FFFF000000
(00.021958) can0 E3#39042208003DC77E782FFEFF3980000C007F32914531B0FEB589833D3E800108C3021AD0B911E0FF0000000000000000
(00.024225) can0 D9#39130015E23DE417A059CD842F1298F0FFFFFFFFFFAF4B92C200000000000000
(00.024718) can0 DC#391000166C65E60E9A21002358352C0000000000FFFFAE3140D1000000000000
(00.025101) can0 18E19490#0000000100000055056806D8030000EF0165013B028E00008C0198010000D808DA0800004F4F4E0201040186015D014301360151514F4D031311001505150000
(00.028331) can0 DB#390E00208256FE0F7880831A3F1B8015594DC116B3281D5C060300F1FFFFFFFFB0C2C162000000000000000000000000
(00.032900) can0 DB#390F0015E067FE20FFFF7FCFFFFF3FFFFFFFFFFFFFB039494A00000000000000
(00.036489) can0 2D#06BEEB04C40900907097F8614652752C98DF30FFFFFF7F4402D235FFFFFFFF00FEFFB40E3D7F00000000000000000000
(00.037012) can0 D4#390C140CFFFFFFFFFDFFFFFFFFFFFFFF
(00.041651) can0 E3#3204000CD12DA153670700F0B444EF99
(00.043162) can0 D9#3913010B55BA38559500FE03BAFFEF39130015D077E517A0598D842F1298F0FFFFFFFFFFB1CA74D40000000000000000
(00.044757) can0 DC#39100110554141004F10A102E89C122095C0FFF13910001648CDE70E9A21002358352C0000000000FFFFB00049500000
(00.046635) can0 4F#205F0AA00049A3AD
(00.048340) can0 DB#390E010F8435FFFFFFFFFFFFFF4FD308BCFDFF390E00201672FF0F7880831A3F1B8015594DC116B3281D5C060300F1FFFFFFFFB213CA35000000000000000000
(00.000423) can0 18E19490#0000000100000055056906D8030000EF0165013B028F00008D019A010000D808D4080000504F4F0301040186015D014201360151514F3F031311001505150000
(00.002206) can0 2D#50C8C504C40900907097E1614652752C98DF30FFFFFF7F4802D235FFFFFFFF00FEFF68EDC1FA00000000000000000000
(00.002728) can0 E3#410005080119B472190EAED9
(00.007464) can0 E3#0080000431D24A00
(00.008862) can0 D9#391300150719BF18A0594D824F12A0F0FFFFFFFFFF65D8729400000000000000
(00.010450) can0 DC#39100016E74BC10E9A21002358352C0000000000FFFF6361977A000000000000
(00.014178) can0 DB#390E0020DFBCD90F7880831A3F1A80D5584DC116B3281D5C050300F1FFFFFFFF656B186D000000000000000000000000
(00.018692) can0 DB#390F00154C29D920FFFF7FCFFFFF3FFFFFFFFFFFFF65EA228400000000000000
(00.022218) can0 2D#1965C604C40900907097E2614652752C98DF30FFFFFF7F4802D235FFFFFFFF00FEFF69C2B8C300000000000000000000
(00.022736) can0 D4#39040604557F9084
(00.028849) can0 D9#39130015CE59C018A0598D824F12A0F0FFFFFFFFFF671CA30200000000000000
(00.030375) can0 DC#39100016AAA3C20E9A21002358352C0000000000FFFF66B18FAD000000000000
(00.030758) can0 18E19490#01F201560D4C01800CFF00BC02060620030000401F019200AC0DDE060120032C0E01FC06840C000001010000A838D007AC0D401F0C4812511311001505150000
(00.034119) can0 DB#390E0020AC60DA0F7880831A3F1A80D5584DC116B3281D5C060300F1FFFFFFFF67D41B5A000000000000000000000000
(00.036545) can0 44#04
(00.038697) can0 DB#390F00156A18DA20FFFF7FCFFFFF3FFFFFFFFFFFFF674D5B0600000000000000
(00.042206) can0 D4#39040C050E0FF4FFFF390C1608FFFFFFFFFFFFFFFF3915011444F991E5F85FF5FFFFFFFFFE0700A02875FEFFFF000000
(00.042732) can0 2D#066CC704C40900907097E2614652752C98DF30FFFFFF7F4802D235FFFFFFFF00FEFF6C91D40100000000000000000000
(00.043252) can0 D4#390C083CFE7403800000086C35BC2D83FF33025A70F8C401A82CE07C8FB30400009E053C400B5AD08216B4A0052D68DB006BFE7FA9E600FFC9FFFFFF833EE4FF
(00.047492) can0 E3#39042208003D867E780FFAFF
(00.049572) can0 D9#39130015F9FFC118A0590D834F12A0F0FFFFFFFFFF69A04E6300000000000000
(00.001022) can0 DB#390E0020305BB70F7880831A3F1980D5584DC116B3281D5C050300F1FFFFFFFF225984B6000000000000000000000000
(00.005603) can0 DB#390F00151688B720FFFF7FCFFFFF3FFFFFFFFFFFFF220B4C9200000000000000
(00.007312) can0 18E19490#036806C31668D2110E110E1000F400FB000000000100010000EF01EF01000000000102D80F00AC0D0F0E0F0E110094D7057116D80C841C001311001505150000
(00.009162) can0 2D#4306A404C40900907097CD614652752C98DF30FFFFFF7F4802D235FFFFFFFF00FEFF266B900800000000000000000000
(00.014425) can0 D4#39040C050E0FF4FFFF000000
(00.014625) can0 E3#39042208003D877E780FFAFF3980000C007F42915231B0FE29BF575400000000
(00.016609) can0 D9#391300155FBB9E18A059CD7F4F12A0F0FFFFFFFFFF23EC8B1400000000000000
(00.017261) can0 DC#39100016FF29A00E9A21002358352C0000000000FFFF22B465E5000000000000
(00.021024) can0 DB#390E00209221B80F7880831A3F1980D5584DC116B3281D5C060300F1FFFFFFFF24CC841A000000000000000000000000
(00.025593) can0 DB#390F0015A87DB820FFFF7FCFFFFF3FFFFFFFFFFFFF2493F4F300000000000000
(00.029096) can0 2D#34B9A504C40900907097CE614652752C98DF30FFFFFF7F4802D235FFFFFFFF00FEFF287F79A600000000000000000000
(00.029616) can0 D4#390C140CFFFFFFFFFDFFFFFFFFFFFFFF
(00.035712) can0 D9#3913010B55BA38559500FE03BAFFEF39130015CD449F18A0590D7F4F12A0F0FFFFFFFFFF25BC14B60000000000000000
(00.037201) can0 DC#39100110554141324E103146E99C122095C0FFF539100016A566A10E9A21002354352C0000000000FFFF248C03AE0000
(00.037715) can0 18E19490#045A015F010F003E30ED0C5D0D22014B010803010101010100000000000000000000000000000000000000000000000000000000000000001311001505150000
(00.041033) can0 DB#390E010F8435FFFFFFFFFFFFFF4FD308BCFDFF390E002072C4B90F7880831A3F198095584DC116B3281D5C060300F1FFFFFFFF269AE4B7000000000000000000
(00.045592) can0 DB#390F00154A6DB920FFFF7FCFFFFF3FFFFFFFFFFFFF2684C14300000000000000
(00.049073) can0 2D#CDCFA604C40900907097CF614652752C98DF30FFFFFF7F4802D235FFFFFFFF00FEFF2AFD0F8F00000000000000000000
(00.049595) can0 E3#39060B08001111180000D0FF4100050800800343CEC429C2
(00.005996) can0 DB#390E04105CE30B4C24B4DBFF2FAE6C75EBFFFFFF390F01064E850460F81C0000
(00.006368) can0 D9#39130015994A7D19A0598D7C6F12A8F0FFFFFFFFFFE019D1DD00000000000000
(00.007875) can0 DC#391000160E807F0E9A41002358352C0000000000FFFFE045C465000000000000
(00.011572) can0 DB#390E0020A15F970F6880831A3F1980D5584DC116B3281D5C060300F1FFFFFFFFE20E4D4E000000000000000000000000
(00.014862) can0 E3#41000008034132031AC500003A020004F4FFFFFF410005080113B95834B90EA6
(00.016225) can0 DB#390F001514B49720FFFF7FCFFFFF3FFFFFFFFFFFFFE243BAD800000000000000
(00.019644) can0 2D#9A3A8404C40900907097BA614652B52C98DF30FFFFFF7F4802D235FFFFFFFF00FEFFE653CD0F00000000000000000000
(00.026468) can0 D9#3913001524297E19A059CD7B6F12A8F0FFFFFFFFFFE31379D700000000000000
(00.027738) can0 DC#39100016EB6F800E9A21002358352C0000000000FFFFE2DD3350000000000000
(00.028122) can0 18E19490#028400646464010005275502020000000000000001010701C004BF04B6040200FDFF00004B14C0058F058413000002028108800C970FED0B1311001505150000
(00.029648) can0 E3#0080000469C13D00028000084F799E0183331883
(00.031606) can0 DB#390E0020E232980F7880831A3F198095584DC116B3281D5C060300F1FFFFFFFFE5C4C223000000000000000000000000
(00.036146) can0 DB#390F0015AA419820FFFF7FCFFFFF3FFFFFFFFFFFFFE5D53B3F00000000000000
(00.039666) can0 2D#5D5E8504C40900907097BB614652B52C98DF30FFFFFF7F4802D235FFFFFFFF00FEFFE8CFE19E00000000000000000000
(00.040186) can0 D4#390406042EFF8384
(00.044937) can0 E3#0500000CF5FCFF0000000000EBE7C270
(00.046483) can0 D9#39130015668C7F19A0594D7B6F12A8F0FFFFFFFFFFE5EFE74B00000000000000
(00.047761) can0 DC#39100016B120810E9A21002354352C0000000000FFFFE5C6F089000000000000
(00.004076) can0 DB#390F001560D47A20FFFF7FCFFFFF3FFFFFFFFFFFFFA81FFD2200000000000000
(00.007591) can0 2D#3D2D6704C40900907097A9614652B52C98DF30FFFFFF7F4C02D235FFFFFFFF00FEFFACBA3AC800000000000000000000
(00.008109) can0 D4#3904060439C27D84
(00.012868) can0 E3#0500000CF5FCFF0000000000AF4A3667
(00.014158) can0 D9#391300159F546119A0590D7A6F12B0F0FFFFFFFFFFA8FDC1A600000000000000
(00.015559) can0 DC#39100016EB45630E9A21002358352C0000000000FFFFA85553FC000000000000
(00.019502) can0 DB#390E0020BB317B0F7880831A3F1980D5584DC116B3281D5C050300F1FFFFFFFFAA86B792000000000000000000000000
(00.024131) can0 DB#390F001582C47B20FFFF7FCFFFFF3FFFFFFFFFFFFFAAD8BABD00000000000000
(00.025662) can0 18E19490#036806C11668D2110E110E0F00F700FD000000000100010000EF01EF01000000000102D80F00AC0D0F0E100E100094D8057116D20C841C001311001505150000
(00.027624) can0 2D#985A6804C40900907097A9614652B52C98DF30FFFFFF7F4C02D235FFFFFFFF00FEFFAE83E06E00000000000000000000
(00.028145) can0 D4#39FE1D085940B2084002000039040C050E0FF4FFFF000000
(00.032950) can0 E3#39042208003D877E780FFAFF
(00.034133) can0 D9#39130015F63A6219A0594D796F12B0F0FFFFFFFFFFAA48A7C100000000000000
(00.035634) can0 DC#39100016CC5A640E9A41002358352C0000000000FFFFAA9D13A7000000000000
(00.039502) can0 DB#390E0020230F7C0F7880831A3F198095584DC116B3281D5C050300F1FFFFFFFFACECBFE7000000000000000000000000
(00.042820) can0 E3#3980000C007FE0917231B0FEB16B18A5
(00.044085) can0 DB#390F00152CB67C20FFFF7FCFFFFF3FFFFFFFFFFFFFAC1210DD00000000000000
(00.047577) can0 2D#EFE56904C40900907097AA614652B52C98DF30FFFFFF7F4C02D235FFFFFFFF00FEFFB06358EF00000000000000000000
(00.048096) can0 D4#390C140CFFFFFFFFFDFFFFFFFFFFFFFF
(00.001714) can0 44#04
(00.003916) can0 DB#390F0015A6C95820FFFF7FCFFFFF3FFFFFFFFFFFFF64F45B0300000000000000
(00.007414) can0 2D#196C4504C4090090709794614652B52C88DF30FFFFFF7F4C02D235FFFFFFFF00FEFF6849586000000000000000000000
(00.012644) can0 D4#39040C050E0FF4FFFF3915011444F991E5F85FF5FFFFFFFFFE0700A02875FEFFFF000000000000000000000000000000
(00.013175) can0 E3#39042208003D867E781FFAFF
(00.014727) can0 D9#39130015F7293F1AA0590D766F12B0F0FFFFFFFFFF65AC7ED700000000000000
(00.015236) can0 DC#3910001650D3410E9A41002354352C0000000000FFFF648055A6000000000000
(00.015619) can0 18E19490#0000000100000055056806D8030000EF0165013B0290000092019E010000DA08D70800004F4F4F0201050185015C014201370151514F39031311001505150000
(00.019286) can0 DB#390E00208068590F6880831A3F188095584DC116B3281D5C060300F1FFFFFFFF66B1CE93000000000000000000000000
(00.023854) can0 DB#390F001544D95920FFFF7FCFFFFF3FFFFFFFFFFFFF66E9762300000000000000
(00.025212) can0 DC08E2#4002000000000000
(00.027360) can0 2D#EA394604C4090090709795614652B52C98DF30FFFFFF7F4C02D235FFFFFFFF00FEFF6AC6647200000000000000000000
(00.027879) can0 D4#390C140CFFFFFFFFFDFFFFFFFFFFFFFF
(00.033836) can0 D9#3913010B55B938559500FE03BAFFEF3913001501D9401AA0594D756F12B0F0FFFFFFFFFF6721FF2D0000000000000000
(00.035287) can0 DC#39100110554141004E109906E89C122095C0FFF539100016A54C420E9A21002354352C0000000000FFFF662D21F60000
(00.039296) can0 DB#390E010F8435FFFFFFFFFFFFFF4FD308BCFDFF390E00203C055A0F6880831A3F188095584DC116B3281D5C060300F1FFFFFFFF68E11BE9000000000000000000
(00.043855) can0 DB#390F001562E85A20FFFF7FCFFFFF3FFFFFFFFFFFFF68DD1C0B00000000000000
(00.045392) can0 18E19490#01F401560D4B01800CFF00BC02060620030000401F01C403AC0DDE06012003300E01FA06840C000001010000FA38D007AC0D401F0C2F0E511311001505150000
(00.047340) can0 2D#9D864704C4090090709796614652B52C98DF30FFFFFF7F4C02D235FFFFFFFF00FEFF6CD306EC00000000000000000000
(00.047860) can0 E3#39060B08001111180000D0FF4100050800800343CEC36B43
(00.000776) can0 DB#390F0015DA593520FFFF7FCFFFFF3FFFFFFFFFFFFF1F14B95500000000000000
(00.004269) can0 2D#A4C92204C409009070977F614652B52C98DF30FFFFFF7F4C02D235FFFFFFFF00FEFF22A17E3600000000000000000000
(00.009499) can0 D4#39040C050E0FF4FFFF000000
(00.009699) can0 E3#39042208003DC77E782FFEFF
(00.011521) can0 D9#3913001588EF1C1AA059CD726F12B8F0FFFFFFFFFF1FF6E03F00000000000000
(00.012113) can0 DC#3910001668051E0E9A41002354352C0000000000FFFF1F7D4AA6000000000000
(00.016145) can0 DB#390E00206C64360F7880831A3F178095584DC116B3281D5C060300F1FFFFFFFF212A61F8000000000000000000000000
(00.019463) can0 E3#3980000C00FFC1919131B0FE25DD1C913E800108C3021AD0B911E0FF3204000CBE099D53670700F02268408400000000
(00.020740) can0 DB#390F0015FC683620FFFF7FCFFFFF3FFFFFFFFFFFFF2124A0C700000000000000
(00.022175) can0 18E19490#028400646464010006275702020000000000000002010801C004C104B8040100FDFF00005014D8058E058113000003028108800C8E0FED0B1311001505150000
(00.024226) can0 2D#15372304C4090090709780614652B52C98DF30FFFFFF7F4C02D235FFFFFFFF00FEFF241E3E4200000000000000000000
(00.024748) can0 D4#390C140CFFFFFFFFFDFFFFFFFFFFFFFF
(00.030642) can0 D9#3913010B54BA28559500FE03BAFFEF39130015EEE21D1BA0594D726F12B8F0FFFFFFFFFF21C6213F0000000000000000
(00.032210) can0 DC#39100110554141304E106106E99C122095C0FFF1391000164CAD1F0E9A41002354352C0000000000FFFF21A481190000
(00.034410) can0 4F#20A202A00049A3A9
(00.036154) can0 DB#390E010F8435FFFFFFFFFFFFFF4FD308BCFDFF390E002054E1370F6880831A3F188095584DC116B3281D5C060300F1FFFFFFFF23F86200000000000000000000
(00.040715) can0 DB#390F00151E783720FFFF7FCFFFFF3FFFFFFFFFFFFF23548F7400000000000000
(00.044192) can0 2D#90652404C4090090709781614652B52C98DF30FFFFFF7F4C02D235FFFFFFFF00FEFF267E306900000000000000000000
(00.044713) can0 E3#39060B08001111180000D0FF4100050800800343CEC3256F
(00.000476) can0 E3#0080000494782300
(00.002487) can0 DB#390E002032D1160F6880831A3F178095584DC116B3281D5C060300F1FFFFFFFFE04C8E58000000000000000000000000
(00.007030) can0 DB#390F0015FE541620FFFF7FCFFFFF3FFFFFFFFFFFFFE0EDB8D400000000000000
(00.010530) can0 2D#8C950304C409009070976D614652B52C98DF30FFFFFF7F4C02D235FFFFFFFF00FEFFE4516E6A00000000000000000000
(00.011050) can0 D4#390406046F136984
(00.015798) can0 E3#0500000CF5FCFF0000000000E78C0005
(00.016905) can0 D9#39130015CC77FD1BA0594D6E6F12B8F0FFFFFFFFFFE09B180E00000000000000
(00.018210) can0 DC#391000167F88FF0E9A41002358352C0000000000FFFFE082AFC9000000000000
(00.018597) can0 18E19490#01FA01550D4B01800CFF00BC02060620030000401F01B400AC0DD606012003200E01FA06870C0000010100000A39D007AC0D401F0C211D511311001505150000
(00.022458) can0 DB#390E0020A6F5170F6880831A3F178095584DC116B3281D5C060300F1FFFFFFFFE2EBC034000000000000000000000000
(00.027035) can0 DB#390F00151C441720FFFF7FCFFFFF3FFFFFFFFFFFFFE2E4EF3D00000000000000
(00.030603) can0 2D#D1AA0404C409009070976D614652B52C98DF30FFFFFF7F4C02D235FFFFFFFF00FEFFE6B396FD00000000000000000000
(00.031124) can0 D4#39FE1D085940B2084002000039040C050E0FF4FFFF000000
(00.035804) can0 E3#39042208003D877E780FFAFF
(00.037773) can0 D9#391300154F1FFE1BA0590D6F6F12B8F0FFFFFFFFFFE2E855F000000000000000
(00.038214) can0 DC#391000165CF7000E9A41002354352C0000000000FFFFE215339B000000000000
(00.042458) can0 DB#390E0020766D180F6880831A3F178055584DC116B3281D5C060300F1FFFFFFFFE4FA8AC1000000000000000000000000
(00.045755) can0 E3#3980000C00FF25929831B0FEE9B6C9B9
(00.047038) can0 DB#390F0015A2B11820FFFF7FCFFFFF3FFFFFFFFFFFFFE4D5AE4D00000000000000
(00.048356) can0 18E19490#028400646464010007275502030000000000000001010801C004C004B9040100FDFF00004E14C5058C058213000001028108800C860FED0B1311001505150000
(00.000033) can0 18E19490#01FA01550D4B01800CFF00BC02060620030000401F018403AC0DDA06012003240E01FB06840C0000010100006439D007AC0D401F0C1A05511311001505150000
(00.002213) can0 2D#93B8DE04C4090090709757614652B52C88DF30FFFFFF7F4C02D235FFFFFFFF00FEFF9A162D5400000000000000000000
(00.002732) can0 E3#39060B08001111180000D0FF4100050800800343CEC29928
(00.008455) can0 D9#39130015C0C0D81AA0594D79AF12C0F0FFFFFFFFFF975C9F0200000000000000
(00.009977) can0 DC#39100016E301DA0E9A41002354352C0000000000FFFF96DA6C8A000000000000
(00.014170) can0 DB#390E0020E708F20E6880831A3F198055584DC116B3281D5C060300F1FFFFFFFF9807E515000000000000000000000000
(00.018740) can0 DB#390F001578A3F220FFFF7FCFFFFF3FFFFFFFFFFFFF9814F68400000000000000
(00.022225) can0 2D#8CB1DF04C4090090709757614652B52C88DF30FFFFFF7F4C02D235FFFFFFFF00FEFF9C6F961C00000000000000000000
(00.022745) can0 E3#4100050801A8D346B3606780
(00.028546) can0 D9#391300152430D919A0594D7EAF12C0F0FFFFFFFFFF99E1D4CD00000000000000
(00.029876) can0 DC#39100016C7A9DB0E9A41002354352C0000000000FFFF98BD32F8000000000000
(00.030259) can0 18E19490#028400646464010007275402020000000000000002010801C004C004B9040100FFFF00004B14C305A2058813000001028108800C8A0FED0B1311001505150000
(00.032220) can0 E3#0080000493801C00
(00.034194) can0 DB#390E00201733F30F6880831A3F1B8055584DC116B3281D5C050300F1FFFFFFFF9AD9DB0A000000000000000000000000
(00.038742) can0 DB#390F00159AB3F320FFFF7FCFFFFF3FFFFFFFFFFFFF9AD6BD2900000000000000
(00.042240) can0 2D#922BE004C4090090709758614652B52C88DF30FFFFFF7F4C02D235FFFFFFFF00FEFF9E8B715300000000000000000000
(00.042760) can0 D4#39040604700D6284
(00.048730) can0 D9#391300157BA2DA19A059CD808F12B8F0FFFFFFFFFF9BDA477D00000000000000
(00.005610) can0 D9#39130015D9A8B61DA0594D648F12C8F0FFFFFFFFFF53CD9DA700000000000000
(00.007049) can0 DC#39100016B68BB80E9A41002354352C0000000000FFFF52882A44000000000000
(00.009393) can0 E3#00800004E4731500
(00.011411) can0 DB#390E0020063BD00E6880831A3F158055584DC116B3281D5C060300F1FFFFFFFF55730CFB000000000000000000000000
(00.015953) can0 DB#390F0015BEBED020FFFF7FCFFFFF3FFFFFFFFFFFFF55A8691300000000000000
(00.017223) can0 18E19490#04650167010F003430ED0C5C0D22014C010803010101010100000000000000000000000000000000000000000000000000000000000000001311001505150000
(00.019452) can0 2D#180BBD04C4090090709743614652B52C88DF30FFFFFF7F5002D235FFFFFFFF00FEFF587B19A800000000000000000000
(00.019972) can0 D4#39040604EED25B84
(00.020131) can0 E3#0280000822769A0183331883
(00.024747) can0 E3#0500000CF5FCFF00000000005B8EED14
(00.025621) can0 D9#391300153BB8B71DA0594D648F12C8F0FFFFFFFFFF5579C5E300000000000000
(00.027143) can0 DC#391000169223B90E9A41002354352C0000000000FFFF55B2A9AA000000000000
(00.031379) can0 DB#390E0020E6DED10E6880831A3F158015584DC116B3281D5C060300F1FFFFFFFF577292FA000000000000000000000000
(00.035959) can0 DB#390F00155CAED120FFFF7FCFFFFF3FFFFFFFFFFFFF5745523A00000000000000
(00.039493) can0 2D#3910BE04C4090090709743614652B52C88DF30FFFFFF7F5002D235FFFFFFFF00FEFF5AC1AEF800000000000000000000
(00.044719) can0 D4#39040C050E0FF4FFFF000000
(00.044919) can0 E3#39042208003DC77E782FFEFF
(00.046607) can0 D9#39130015346CB81DA0580D648F12C8F0FFFFFFFFFF57F04F5700000000000000
(00.047049) can0 DC#39100016DFCBBA0E9A41002354352C0000000000FFFF575696F1000000000000
(00.047432) can0 18E19490#0000000100000055056806D8030000EF0165013B029100009301A1010000DF08CE0800004F4F4F0401050185015D014201370150514F32031311001505150000
(00.000004) can0 2D#4F458F04C4090090709727614652B52C88DF30FFFFFF7F4C02D235FFFFFFFF00FEFFFCF5184900000000000000000000
(00.000523) can0 E3#41000508017A46595696AFB0
(00.006204) can0 D9#39130015C105891EA058CD5D6F12D0F0FFFFFFFFFFF9B1772F00000000000000
(00.007528) can0 DC#39100016E5068B0E9A41002354352C0000000000FFFFF9BF89D1000000000000
(00.009947) can0 E3#00800004349B0C00
(00.011967) can0 DB#390E0020174DA30E6880831A3F148015584DC116B3281D5C060300F1FFFFFFFFFA3113FD000000000000000000000000
(00.016517) can0 DB#390F00159FD5A320FFFF7FCFFFFF3FFFFFFFFFFFFFFAB81A0C00000000000000
(00.017691) can0 18E19490#04660162010F003E30ED0C5B0D22014C010803010101010100000000000000000000000000000000000000000000000000000000000000001311001505150000
(00.020008) can0 2D#90EC9004C4090090709728614652B52C88DF30FFFFFF7F4C02D235FFFFFFFF00FEFFFE1E10BE00000000000000000000
(00.020533) can0 4F#28C80C003211B602
(00.020697) can0 D4#3904060499215284
(00.026207) can0 D9#391300157DDD8A1EA0580D5F6F12D0F0FFFFFFFFFFFB70C40700000000000000
(00.027582) can0 DC#3910001612438C0E9A61002354352C0000000000FFFFFA596783000000000000
(00.031942) can0 DB#390E0020FBB2A40E6880831A3F148015584DC116B3281D5C060300F1FFFFFFFFFCBB4F2F000000000000000000000000
(00.034307) can0 44#04
(00.036521) can0 DB#390F001531A7A420FFFF7FCFFFFF3FFFFFFFFFFFFFFC3BEBD300000000000000
(00.040048) can0 2D#8FE59104C4090090709728614652B52C88DF30FFFFFF7F4C02D235FFFFFFFF00FEFF00A4812C00000000000000000000
(00.045281) can0 D4#39040C050E0FF4FFFF3915011444F991E1F85FF5FFFFFFFFFE0700A02875FEFFFF000000000000000000000000000000
(00.045811) can0 E3#39042208003D867E780FFAFF
(00.047123) can0 D9#391300153F788B1EA0588D5F6F12D0F0FFFFFFFFFFFD18411000000000000000
(00.047515) can0 DC#3910001636EB8D0E9A61002354352C0000000000FFFFFC31FB87000000000000
(00.047896) can0 18E19490#0000000100000055056906D8030000EF0165013B029000009501A3010000D608CE0800004F4F4E0401070185015C014301370150514F35031311001505150000
(00.001804) can0 2D#F1676204C409009070970C614652952C88DF30FFFFFF7F3C02D235FFFFFFFF00FEFFA2EFF68500000000000000000000
(00.002322) can0 E3#41000508012AD6DC66ABE273
(00.007924) can0 D9#39130015FFD25C1FA058CD4EAF11E0F0FFFFFFFFFF9FB5DA7F00000000000000
(00.009217) can0 DC#3910001640895E0E9A41002354352C0000000000FFFF9E8DE0B1000000000000
(00.011728) can0 E3#00800004DA4F0300
(00.013753) can0 DB#390E00202F17760E5880831A3F1180D5574DC116B3281D5C060300F1FFFFFFFFA04F6CA5000000000000000000000000
(00.018302) can0 DB#390F0015F8107620FFFF7FCFFFFF3FFFFFFFFFFFFFA0D1E0B700000000000000
(00.019377) can0 18E19490#046B016C010F003E30EA0C5C0D22014C010803010101010100000000000000000000000000000000000000000000000000000000000000001311001505150000
(00.021798) can0 2D#36036304C409009070970D614652952C88DF30FFFFFF7F3C02D235FFFFFFFF00FEFFA4F5CA1E00000000000000000000
(00.022317) can0 D4#3904060421244984
(00.027085) can0 E3#0500000CF5FCFF0000000000A799055E
(00.027936) can0 D9#3913001530345D21A0588D47AF11E0F0FFFFFFFFFFA133B55200000000000000
(00.029272) can0 DC#3910001664215F0E9A41002354352C0000000000FFFFA0F6444B000000000000
(00.033730) can0 DB#390E0020559A770E6880831A3F1180D5574DC116B3281D5C060300F1FFFFFFFFA29C5127000000000000000000000000
(00.038309) can0 DB#390F00151A007720FFFF7FCFFFFF3FFFFFFFFFFFFFA2EF123900000000000000
(00.041825) can0 2D#A0226404C409009070970D614652952C88DF30FFFFFF7F4002D235FFFFFFFF00FEFFA60534A900000000000000000000
(00.047057) can0 D4#39040C050E0FF4FFFF000000
(00.047256) can0 E3#39042208003D877E780FFAFF
(00.048988) can0 D9#3913001512525E21A058CD43AF11E0F0FFFFFFFFFFA319472700000000000000
(00.049365) can0 DC#391000163DBD600E9A61002350352C0000000000FFFFA2559D27000000000000
(00.000511) can0 DB#390E00200208490F6880831A3F1F8095584DC116B3281D5C060300F1FFFFFFFF45EEDADE000000000000000000000000
(00.005073) can0 DB#390F001545C74920FFFF7FCFFFFF3FFFFFFFFFFFFF457B26D300000000000000
(00.006035) can0 18E19490#046F016F0111002A30ED0C5C0D22014C010803010101010100000000000000000000000000000000000000000000000000000000000000001311001505150000
(00.008562) can0 2D#79DE3604C40900907097F2604652052C98DF30FFFFFF7F1002D235FFFFFFFF00FEFF493DEB3000000000000000000000
(00.009084) can0 D4#3904060456D74084
(00.014627) can0 D9#3913001585F93014A05A4D898F1090F0FFFFFFFFFF47F50B0A00000000000000
(00.015918) can0 DC#391000163D18320E9A61002358352C0000000000FFFF463466EA000000000000
(00.020498) can0 DB#390E0020CAA44A0F6880831A3F1F80D5584DC116B3281D5C060300F1FFFFFFFF470FDD11000000000000000000000000
(00.022868) can0 44#04
(00.025078) can0 DB#390F001563F64A20FFFF7FCFFFFF3FFFFFFFFFFFFF477D759300000000000000
(00.028534) can0 D4#39040C050E0FF4FFFF390C1608FFFFFFFFFFFFFFFF3915011444F991E5F85FF5FFFFFFFFFE0700A02875FEFFFF000000
(00.029059) can0 2D#66D73704C40900907097F2604652052C98DF30FFFFFF7F1002D235FFFFFFFF00FEFF4CB7DBD300000000000000000000
(00.029582) can0 D4#390C083CFE7403800000086C35BC2983FF2F015870F8C401A82CE07C8FB30400009E053C400B5AD08216B4A0052D68DBF06AFE7FA9E600FFC9FFFFFF833EE4FF
(00.033829) can0 E3#39042208003D867E780FFAFF
(00.035364) can0 D9#3913001528B63114A05A0D8A8F1090F0FFFFFFFFFF4903D2BA00000000000000
(00.035859) can0 DC#3910001619B0330E9A61002358352C0000000000FFFF48433FBC000000000000
(00.036241) can0 18E19490#0000000100000055056806D8030000EF0165013B028100009501A6010000D308D00800004F4F4E0401070185015C014301370150514F8F031311001505150000
(00.040504) can0 DB#390E002004E74B0F7880831A3F1F80D5584DC116B3281D5C060300F1FFFFFFFF495F0F37000000000000000000000000
(00.045066) can0 DB#390F001581E64B20FFFF7FCFFFFF3FFFFFFFFFFFFF49D2F07C00000000000000
(00.048530) can0 2D#1BCD3804C40900907097F3604652052C98DF30FFFFFF7F1002D235FFFFFFFF00FEFF4E6BB09D00000000000000000000
(00.049051) can0 D4#390C140CFFFFFFFFFDFFFFFFFFFFFFFF
(00.003770) can0 DB#390F0015DB472520FFFF7FCFFFFF3FFFFFFFFFFFFFFEEB8B8500000000000000
(00.004604) can0 18E19490#0000000100000055056806D8030000EF0165013B0280000036000500000046093F0900004F4F4F0701070185015F014301370152514FA7021311001505150000
(00.007266) can0 2D#8CE31204C40900907097DC604652052C58DF30FFFFFF7F0C02D235FFFFFFFF00FEFF02C72C3C00000000000000000000
(00.007789) can0 E3#410005080112DA14CC9B9486
(00.012469) can0 E3#0080000497D0F300
(00.013186) can0 D9#39130015F66F0C12A056CD976F1080F0FFFFFFFFFFFF5BE01900000000000000
(00.014522) can0 DC#39100016744B0E0EB241FA243C352C0000000000FFFFFEF55945000000000000
(00.019204) can0 DB#390E002054BA260B3880831A3FF27F55554DC116B3281D5C060300F1FFFFFFFF00FB7792000000000000000000000000
(00.023773) can0 DB#390F0015FD762620FFFF7FCFFFFF3FFFFFFFFFFFFF003382FD00000000000000
(00.027256) can0 2D#4B871304C40900907097DD604652052C58DF30FFFFFF7F0C02D235FFFFFFFF00FEFF04BA436100000000000000000000
(00.027777) can0 D4#3904060454663984
(00.032511) can0 E3#0500000CF5FCFF0000000000079D57AE
(00.033285) can0 D9#39130015F2800D12A0560D996F1080F0FFFFFFFFFF016FE10300000000000000
(00.034435) can0 DC#3910001638CE0F0EB261FA243C352C0000000000FFFF000112B1000000000000
(00.034820) can0 18E19490#0131004F0D4C01800CFF00BC02060620030000401F01F800AC0D2F07012003D80E01FA06860C8A0201010000C132D007AC0D401F0C5631501311001505150000
(00.037398) can0 4F#280E070014E38B91
(00.039198) can0 DB#390E0020B642270B3880831A3FF47F55554DC116B3281D5C060300F1FFFFFFFF02D54E04000000000000000000000000
(00.043778) can0 DB#390F00151F662720FFFF7FCFFFFF3FFFFFFFFFFFFF020B4FA600000000000000
(00.047284) can0 2D#16B81404C40900907097DD604652052C58DF30FFFFFF7F0C02D235FFFFFFFF00FEFF0670406600000000000000000000
(00.000282) can0 2D#0759E904C40900907097C4604652052C58DF30FFFFFF7F0C02D235FFFFFFFF00FEFFB0E6BC5700000000000000000000
(00.000803) can0 E3#39060B08001111180000D0FF4100050800800343CEC0AF85
(00.006286) can0 D9#391300152C08E313A055CD8D6F1088F0FFFFFFFFFFAD4F454100000000000000
(00.007452) can0 DC#3910001658F0E50EAA41FA2438352C0000000000FFFFAB6FC191000000000000
(00.007834) can0 18E19490#036806C11661D23F10C4100300140002000000140000000000EF01EF01000000001C02D80F00AC0D3E10A810000094D9053F16D70C5014001311001505150000
(00.012283) can0 DB#390F01064E850460B419390E00208A10FD0B3880831A3FEE7F15554DC116B3281D5C050300F1FFFFFFFFAE12F77D0000
(00.016843) can0 DB#390F0015C656FD20FFFF7FCFFFFF3FFFFFFFFFFFFFAEEB5F6700000000000000
(00.020414) can0 2D#2642EA04C40900907097C4604652052C58DF30FFFFFF7F0C02D235FFFFFFFF00FEFFB28E275300000000000000000000
(00.020934) can0 E3#41000508018E824EACEA701B
(00.025533) can0 E3#00800004F34EEB00
(00.026301) can0 D9#391300155220E413A0558D8D6F1088F0FFFFFFFFFFAF2A446D00000000000000
(00.027445) can0 DC#391000168935E60EB241FA2438352C0000000000FFFFAD610D5B000000000000
(00.032186) can0 21C#1102010205D802B401A100E700810058004A0041003B059D027D017B00D1007700510044003C003705610246015400BC006D004B003E00370032051E02210139
(00.032856) can0 21D#304028
(00.033095) can0 DB#390E00200F19FE0B3880831A3FEF7F15554DC116B3281D5C060300F1FFFFFFFFAF95B1FD000000000000000000000000
(00.033628) can0 21C#2100AF00690049003D0036003204DA01FB011E00A100650047003B0034003104BE01ED0117009E00620046003B00340030048701D2010A0097005E0044003900
(00.036848) can0 DB#390F0015E067FE20FFFF7FCFFFFF3FFFFFFFFFFFFFAFB435C800000000000000
(00.037614) can0 18E19490#04300004000400FA32ED0C550D22014C010803010101010100000000000000000000000000000000000000000000000000000000000000001311001505150000
(00.040317) can0 2D#E126EB04C40900907097C5604652052C58DF30FFFFFF7F0C02D235FFFFFFFF00FEFFB359E61000000000000000000000
(00.040838) can0 D4#3904060497E33184
(00.045710) can0 DC085B#4007080000000000
(00.046461) can0 D9#39130015606AE513A055CD8D6F1088F0FFFFFFFFFFB19E175B00000000000000
(00.047492) can0 DC#391000169830E70EB241FA243C352C0000000000FFFFB04FF97A000000000000
(00.003861) can0 DB#390E0020B2C5CE0B3880831A3FEB7F15554DC116B3281D5C060300F1FFFFFFFF4F1156B1000000000000000000000000
(00.008429) can0 DB#390F0015E345CE20FFFF7FCFFFFF3FFFFFFFFFFFFF4F60C8CB00000000000000
(00.009056) can0 18E19490#028400646464010004275402020000000000000005010801BE04C004C2040000FDFF00004A14CA05F404851300001A028408800C6E0FED0B1311001505150000
(00.011892) can0 2D#5EFBBB04C40900907097A8604652052C58DF30FFFFFF7F0C02D235FFFFFFFF00FEFF5492E9FC00000000000000000000
(00.012415) can0 D4#390C140CFFFFFFFFFDFFFFFFFFFFFFFF
(00.017810) can0 D9#3913010B54AE08559500FE03BAFFEF3913001513D6B515A0558D826F1098F0FFFFFFFFFF515AA9780000000000000000
(00.019050) can0 DC#39100110554241304E102156E99C002095C0FFF539100016C345B70EAA01FA2438352C0000000000FFFF50A2932B0000
(00.023870) can0 DB#390E010F6435FFFFFFFFFFFFFF4FD308BCFDFF390E002026E1CF0B3880831A3FEB7F15554DC116B3281D5C060300F1FFFFFFFF5191B7C0000000000000000000
(00.028430) can0 DB#390F00150155CF20FFFF7FCFFFFF3FFFFFFFFFFFFF51EBA69500000000000000
(00.031865) can0 2D#DBA9BC04C40900907097A9604652052C58DF30FFFFFF7F0C02D235FFFFFFFF00FEFF5675F47300000000000000000000
(00.032385) can0 E3#39060B08001111180000D0FF4100050800800343CEC055C3
(00.032690) can0 21D#300128
(00.032843) can0 21C#22000000000000000000000000000000000000000000000000000000000000000000000000000000000000000000000000000000000000000000000000000000
(00.033561) can0 21D#300128
(00.033716) can0 21C#23000000000000000000000000000000000000000000000000000000000000000000000000000000000000000000000000000000000000000000000000000000
(00.037803) can0 D9#391300154508B615A0554D826F1098F0FFFFFFFFFF5343A95900000000000000
(00.039012) can0 DC#39100016D93CB80EAA01FA2438352C0000000000FFFF5221EF5B000000000000
(00.039393) can0 18E19490#036806C81664D2830CEC080200000001000000000000000000EF01EF01000000001B02D80F00AC0D800CD107000094D9053F16D70CF00A001311001505150000
(00.043861) can0 DB#390E00204943D00B3880831A3FEB7F15554DC116B3281D5C060300F1FFFFFFFF533CFFB5000000000000000000000000
(00.048481) can0 DB#390F0015BEBED020FFFF7FCFFFFF3FFFFFFFFFFFFF53B06A6C00000000000000
(00.004834) can0 D4#39040C050E0FF4FFFF3915011444F991FDF85FF5FFFFFFFFFE0700A028E1FEFFFF000000000000000000000000000000
(00.005365) can0 E3#39042208003D867E780FFAFF
(00.006606) can0 DC#391000160583930EAA01FA2438352C0000000000FFFF0808790A000000000000
(00.006990) can0 D9#3913001594A39113A055CD8D4F1090F0FFFFFFFFFF091CDC1C00000000000000
(00.011504) can0 DB#390E00202DC9AB0B3880831A3FED7F15554DC116B3281D5C060300F1FFFFFFFF0A4F4DD4000000000000000000000000
(00.016073) can0 DB#390F00158F52AB20FFFF7FCFFFFF3FFFFFFFFFFFFF0A5B738000000000000000
(00.019528) can0 2D#71709804C4090090709793604652052C58DF30FFFFFF7F0802D235FFFFFFFF00FEFF0E857B0200000000000000000000
(00.020050) can0 D4#390C140CFFFFFFFFFDFFFFFFFFFFFFFF
(00.025403) can0 D9#3913010B54AC08559500FE03BAFFEF391300155C029213A0550D8E4F1088F0FFFFFFFFFF0B3E832D0000000000000000
(00.026559) can0 DC#39100110554241004E10E946E99C002095C0FFF5391000169AEB940EAA01FA2438352C0000000000FFFF0A74FC3B0000
(00.027075) can0 18E19490#040300020002006E37EE0C540D22014C010803010101010100000000000000000000000000000000000000000000000000000000000000001311001505150000
(00.031516) can0 DB#390E010F7835FFFFFFFFFFFFFF4FD308BCFDFF390E0020C136AC0B3880831A3FED7F15554DC116B3281D5C060300F1FFFFFFFF0C1893F2000000000000000000
(00.036074) can0 DB#390F00152120AC20FFFF7FCFFFFF3FFFFFFFFFFFFF0CCFB3A600000000000000
(00.039506) can0 2D#47689904C4090090709794604652052C58DF30FFFFFF7F0802D235FFFFFFFF00FEFF102187E700000000000000000000
(00.040028) can0 E3#39060B08001111180000D0FF4100050800800343CEC00F24
(00.045296) can0 D9#39130015CB119313A0550D8F4F1088F0FFFFFFFFFF0D9E1D8000000000000000
(00.046617) can0 DC#39100016BE43950EAA01FA2438352C0000000000FFFF0C788969000000000000
(00.001805) can0 DB#390F0015F7BA8620FFFF7FCFFFFF3FFFFFFFFFFFFFC0227E2800000000000000
(00.002325) can0 18E19490#040300020002006437ED0C540D22014C010803010101010100000000000000000000000000000000000000000000000000000000000000001311001505150000
(00.005273) can0 2D#DF9F7304C409009070977D604652052C58DF30FFFFFF7F0802D235FFFFFFFF00FEFFC45AA09B00000000000000000000
(00.005798) can0 D4#390406041A511984
(00.010556) can0 E3#0500000CF5FCFF0000000000C73559EC
(00.011129) can0 D9#39130015C3036D15A0550D804F10A0F0FFFFFFFFFFC08C06AD00000000000000
(00.012300) can0 DC#3910001689DE6F0EB201FA2438352C0000000000FFFFC0791D70000000000000
(00.017144) can0 DB#390E00208E61870B3880831A3FEB7F15554DC116B3281D5C060300F1FFFFFFFFC2274E4B000000000000000000000000
(00.021813) can0 DB#390F001515AA8720FFFF7FCFFFFF3FFFFFFFFFFFFFC2B1CE7800000000000000
(00.025300) can0 2D#82A07404C409009070977D604652052C58DF30FFFFFF7F0802D235FFFFFFFF00FEFFC693D05300000000000000000000
(00.025825) can0 D4#39FE1D085940B288C002000039040C050E0FF4FFFF000000
(00.030556) can0 E3#39042208003D877E780FFAFF3980000C007F727D5A2FB0FEC9A228FA00000000
(00.031808) can0 D9#3913001530846E15A0558D814F10A0F0FFFFFFFFFFC2B612A200000000000000
(00.032203) can0 DC#391000169984700EB201FA2438352C0000000000FFFFC297BCBF000000000000
(00.032585) can0 18E19490#0000000100000055056806D8030000EF0165012B027F000000000100000042093F0900004F4F4F0701070186015C014301370151514F6F011311001505150000
(00.037232) can0 DB#390E0020E3AA880B3880831A3FEB7F15554DC116B3281D5C060300F1FFFFFFFFC43DFAC1000000000000000000000000
(00.041801) can0 DB#390F0015AB5F8820FFFF7FCFFFFF3FFFFFFFFFFFFFC475A31700000000000000
(00.045252) can0 2D#F51F7504C409009070977E604652052C58DF30FFFFFF7F0802D235FFFFFFFF00FEFFC80134D100000000000000000000
(00.045777) can0 D4#390C140CFFFFFFFFFDFFFFFFFFFFFFFF
(00.000113) can0 DB#390E010F3C35FFFFFFFFFFFFFF4FD308BCFDFF390E00209684610D4880831A3FFF7F95564DC116B3281D5C060300F1FFFFFFFF76F5D537000000000000000000
(00.004671) can0 DB#390F0015577C6120FFFF7FCFFFFF3FFFFFFFFFFFFF7652B68400000000000000
(00.008081) can0 2D#6F984E04C409001000800020FA50050078D524FFFFFF7FE001D235FFFFFFFF00FEFF7A455DA800000000000000000000
(00.008610) can0 E3#39060B08001111180000D0FF4100050800800343CEBF7991
(00.013887) can0 D9#39130015AFD84800A057CD00B00F20F3FFFFFFFFFF776D922B00000000000000
(00.014995) can0 DC#39100016F6884A0EAA01FA2440352A0000000000FFFF7676F45A000000000000
(00.020012) can0 DB#390E00202AE9620D4880831A3FFF7F95564DC116B3281D5C060300F1FFFFFFFF78C9CEEE000000000000000000000000
(00.024671) can0 DB#390F0015714D6220FFFF7FCFFFFF3FFFFFFFFFFFFF7852A23200000000000000
(00.025055) can0 18E19490#0000000100000055056806D8030000EF0100001A027300000000010000004609430900004F4F4F0701060185015C014301370151514F13011311001505150000
(00.028116) can0 2D#C61B4F04C4090090709767604652952478DF30FFFFFF7FE001D235FFFFFFFF00FEFF7C78F85700000000000000000000
(00.028640) can0 E3#410005080149C9682A709CC9
(00.033377) can0 E3#008000049028CC00
(00.033953) can0 D9#391300154DC84900A057CD00B00F20F3FFFFFFFFFF7985A5C300000000000000
(00.035059) can0 DC#391000162D184B0EAA01FA243C352A0000000000FFFF78FFFDA7000000000000
(00.040024) can0 DB#390E0020BECD630D4880831A3FFF7F95564DC116B3281D5C060300F1FFFFFFFF7ADFFFE2000000000000000000000000
(00.044674) can0 DB#390F0015935D6320FFFF7FCFFFFF3FFFFFFFFFFFFF7A54C8A000000000000000
(00.048139) can0 2D#19B25004C4090090709768604652952478DF30FFFFFF7FE001D235FFFFFFFF00FEFF7E3ABA4E00000000000000000000
(00.048662) can0 D4#39040604054F1284
(00.003570) can0 DB#390E0020F8A13C0D4880831A3F008095564DC114B3281D5C060300F1FFFFFFFF2C8346C3000000000000000000000000
(00.005789) can0 44#04
(00.006855) can0 E3#410000080057314B41463545
(00.008080) can0 DB#390F001528CE3C20FFFF7FCFFFFF3FFFFFFFFFFFFF2C342D1600000000000000
(00.011553) can0 2D#A9EF2904C409001000800020FA500400080024FFFFFF7FE001D235FFFFFFFF00FEFF3035E95A00000000000000000000
(00.016805) can0 D4#39040C050E0FF4FFFF3915011444CD9101F85FF5FFFFFFFFFE0700A02801FEFFFF000000000000000000000000000000
(00.017337) can0 E3#39042208003D867E780FFAFF
(00.018157) can0 D9#3913001512832301A0038000B00F20F3FFFFFFFFFF2CAA788B00000000000000
(00.018540) can0 DC#39100016EA70250EB201FA24A8002A0000000000FFFF2C8EDBC7000000000000
(00.018922) can0 18E19490#0000000100000055056806D8030000EF0100001A027C00000000010000004C093F0900004F4F4F0701070186015C014201370151514F1D011311001505150000
(00.023496) can0 DB#39FE0B086100000000000000390E00206C853D0D4880831A3F008095564DC114B3281D5C060300F1FFFFFFFF2E936843
(00.026747) can0 E3#410000080142315052313138
(00.027494) can0 D9#39FE28082900000000000000
(00.028149) can0 DB#390F0015CADE3D20FFFF7FCFFFFF3FFFFFFFFFFFFF2E55265000000000000000
(00.028533) can0 DC#39FE6F089401008002000000
(00.031493) can0 2D#88F42A04C409001000800020FA500400080024FFFFFF7FE001D235FFFFFFFF00FEFF32332D3600000000000000000000
(00.032025) can0 D4#390C140CFFFFFFFFFDFFFFFFFFFFFFFF
(00.037228) can0 D9#3913010B540008558500FE03BAFFEF3913001548032400A003C000B00F20F3FFFFFFFFFF2E14F0CA0000000000000000
(00.037981) can0 DB#390E022A3E004800650AD4C1199C110047403E49E0D16CC24D85DA4D8E82F847CE43068867E9FFFFFFFF2FACE6270000
(00.038489) can0 DC#39100110554241394F103E06E89C002095C0FFF139100016A798260EB201FA24A8002A0000000000FFFF2EA86E7F0000
(00.043406) can0 DB#390E010F7C00FFFFFFFFFFFFFF4FD308BCFDFF390E0308E8B22BF8FFFFFFFF00
(00.046801) can0 E3#4100000802343937311811D239060B08001111180000D0FF4100050800800343CEBF33E3000000000000000000000000
(00.048026) can0 DB#390E0020D0E83E0D4880831A3F008095564DC114B3281D5C060300F1FFFFFFFF30B16136390F0015ECEF3E20FFFF7FCFFFFF3FFFFFFFFFFFFF302D4F93000000
(00.048684) can0 18E19490#0101001B004A01800CFF00BC02060620030000401F017F01AC0D2C07012003CC0E01FA06860CB90301010000E830D007AC0D401F0C2824501311001505150000
(00.002710) can0 2D#ECB00504C409001000800020FA500400080024FFFFFF7FE001D235FFFFFFFF00FEFFE89B2B0C00000000000000000000
(00.003243) can0 D4#3904060416220384
(00.007977) can0 E3#0500000CF5FCFF0000000000EBA04120
(00.008403) can0 D9#391300157323FF00A003C000B00F20F3FFFFFFFFFFE5A72B6B00000000000000
(00.009415) can0 DC#391000162CB6010EB201FA24A8002A0000000000FFFFE4BEBE5F000000000000
(00.009800) can0 18E19490#0101001B004C01800CFF00BC02060620030000401F01C003AC0D3307012003E00E01F706860CB50301010000E830D007AC0D401F0C200A501311001505150000
(00.014606) can0 DB#390E002038C5190D4880831A3F008095564DC114B3281D5C060300F1FFFFFFFFE6853FA6000000000000000000000000
(00.019274) can0 DB#390F001540A11920FFFF7FCFFFFF3FFFFFFFFFFFFFE6F8E3FD00000000000000
(00.022746) can0 2D#CDAB0604C409001000800020FA500400080024FFFFFF7FE001D235FFFFFFFF00FEFFEAFE68C200000000000000000000
(00.027994) can0 D4#39040C050E0FF4FFFF000000
(00.028194) can0 E3#39042208003D877E780FFAFF3980000C007F607D552FB0FEED969A4000000000
(00.029435) can0 DC#39100016615E020EB201FA24A8002A0000000000FFFFE67825E6000000000000
(00.029819) can0 D9#3913001512260000A0038000B00F20F3FFFFFFFFFFE75443F200000000000000
(00.034693) can0 DB#390E002084A81A0D4880831A3F008095564DC114B3281D5C060300F1FFFFFFFFE8A26B3E000000000000000000000000
(00.039412) can0 DB#390F001566901A20FFFF7FCFFFFF3FFFFFFFFFFFFFE8D7D33500000000000000
(00.039799) can0 18E19490#028400646464010006275502020000000000000006010801BD04000000000000010000004B14C905C504821300001C028108800C970FED0B1311001505150000
(00.042702) can0 2D#D2A20704C409001000800020FA500400080024FFFFFF7FE001D235FFFFFFFF00FEFFEC731C5B00000000000000000000
(00.043234) can0 D4#390C140CFFFFFFFFFDFFFFFFFFFFFFFF
(00.048376) can0 D9#3913010B540008558500FE03BAFFEF3913001580D90100A0034000B00F20F3FFFFFFFFFFE9936F320000000000000000
(00.049529) can0 DC#39100110554241304F100606E99C00209DC0FFF13910001645F6030EB201FA24A8002A0000000000FFFFE888177A0000
(00.002862) can0 DB#390F0015BC82F020FFFF7FCFFFFF3FFFFFFFFFFFFF945A3FDD00000000000000
(00.003250) can0 18E19490#04030002000200F037EB0C2A0022014D010803010101010100000000000000000000000000000000000000000000000000000000000000001311001505150000
(00.006264) can0 2D#62C1DD04C409001000800020FA500400080024FFFFFF7FE001D235FFFFFFFF00FEFF98602B4200000000000000000000
(00.006797) can0 D4#390406049838FB84
(00.011548) can0 E3#0500000CF5FCFF00000000009BCB6A97
(00.011915) can0 D9#39130015A0D6D7FF9F038000B00F20F3FFFFFFFFFF9415C19900000000000000
(00.012979) can0 DC#391000164F0DD90E220AFADCA800290000000000FFFF94F7001F000000000000
(00.018149) can0 DB#390E0020E7EFF10D4880831A3F008095564DC114B3281D5C060300F1FFFFFFFF967F522B000000000000000000000000
(00.022818) can0 DB#390F00155E92F120FFFF7FCFFFFF3FFFFFFFFFFFFF967BCE8500000000000000
(00.026289) can0 2D#43DADE04C409001000800020FA500400080024FFFFFF7FE001D235FFFFFFFF00FEFF9AEDE94000000000000000000000
(00.026822) can0 D4#39FE1D085940B2084002000039040C050E0FF4FFFF000000
(00.031538) can0 E3#39042208003D877E780FFAFF3980000C007F607D452FB0FE9DAE015000000000
(00.032912) can0 DC#3910001602E5DA0E220AFADCA800290000000000FFFF96CF9A25000000000000
(00.033297) can0 D9#391300157FD8D800A0034000B00F20F3FFFFFFFFFF968E7BC000000000000000
(00.033681) can0 18E19490#0000000100000055056C06DA030000000000001A027C00000000010000000000000000004F4F4F0701060186015D014301380152514F19011311001505150000
(00.038237) can0 DB#390E00205B82F20D4880831A3F008095564DC114B3281D5C060300F1FFFFFFFF984D7840000000000000000000000000
(00.042808) can0 DB#390F001578A3F220FFFF7FCFFFFF3FFFFFFFFFFFFF983C43CE00000000000000
(00.046242) can0 2D#5CD3DF04C409001000800020FA500400080024FFFFFF7FE001D235FFFFFFFF00FEFF9C9CDB2600000000000000000000
(00.046775) can0 D4#390C140CFFFFFFFFFDFFFFFFFFFFFFFF
(00.004421) can0 DB#390E010F7C00FFFFFFFFFFFFFF4FD308BCFDFF390E00204829CB0D4880831A3F008095564DC114B3281D5C060300F1FFFFFFFF4A9D65D5000000000000000000
(00.008997) can0 DC08E2#4002000000000000
(00.009287) can0 DB#390F00158916CB20FFFF7FCFFFFF3FFFFFFFFFFFFF4A59D65300000000000000
(00.012500) can0 2D#42B8B804C409001000800020FA500400080024FFFFFF7FE001D235FFFFFFFF00FEFF4ED2476500000000000000000000
(00.013030) can0 E3#39060B08001111180000D0FF4100050800800343CEBE4D36
(00.018079) can0 D9#39130015CCC1B2FF9F038000B00F20F3FFFFFFFFFF4A216BE600000000000000
(00.019063) can0 DC#3910001600FEB40E220AFADCA800290000000000FFFF4A243CF1000000000000
(00.024411) can0 DB#390E0020A4D6CC0D4880831A3F008095564DC114B3281D5C060300F1FFFFFFFF4C2FB4FE000000000000000000000000
(00.028998) can0 DC08E2#4002000000000000
(00.029288) can0 DB#390F00152764CC20FFFF7FCFFFFF3FFFFFFFFFFFFF4C2FBA3200000000000000
(00.029673) can0 18E19490#0000000100000055056C06DA030000000000001A027C00000000010000000000000000004F4F4F0701050185015C014301370152514F1D011311001505150000
(00.032497) can0 2D#5DB1B904C409001000800020FA500400080024FFFFFF7FE001D235FFFFFFFF00FEFF5011C9B800000000000000000000
(00.033029) can0 E3#41000508012F2E43C0293767
(00.037758) can0 E3#008000042A9CAE00
(00.038125) can0 D9#391300153FC5B300A0038000B00F20F3FFFFFFFFFF4C25328600000000000000
(00.039130) can0 DC#391000162456B50E220AFADCA800290000000000FFFF4CB77219000000000000
(00.044421) can0 DB#390E002030F2CD0D4880831A3F008095564DC114B3281D5C060300F1FFFFFFFF4E9EADB1000000000000000000000000
(00.049005) can0 DC08E2#4002000000000000
(00.049295) can0 DB#390F0015C574CD20FFFF7FCFFFFF3FFFFFFFFFFFFF4E70891300000000000000
(00.000709) can0 DC#39100016CCF47B0E0200FA00FCFF280000000000FFFFD80C7BF9000000000000
(00.001094) can0 D9#3913001597047900A0034000B00F20F3FFFFFFFFFFD91D277200000000000000
(00.006170) can0 DB#390E0020E2C0930D4880831A3F008095564DC114B3281D5C060300F1FFFFFFFFDAC8D99B000000000000000000000000
(00.010739) can0 DB#390F00159CF79320FFFF7FCFFFFF3FFFFFFFFFFFFFDAACB08400000000000000
(00.011124) can0 18E19490#028400646464010004275602020000000000000005010801BD04010001000000000000004B14BF05C3047F1300000000AC0C800C7A0FED0B1311001505150000
(00.014162) can0 2D#8B528004C409001000800020FA500400080024FFFFFF7FE001D235FFFFFFFF00FEFFDE1B606600000000000000000000
(00.014696) can0 D4#390C140CFFFFFFFFFDFFFFFFFFFFFFFF
(00.019836) can0 D9#3913010B540008558500FE03BAFFEF39130015B1357A00A0034000B00F20F3FFFFFFFFFFDB84BA340000000000000000
(00.020771) can0 DC#39100110554241324F102E125D9D002005F0FFF139100016539C7C0E0200FA00FCFF280000000000FFFFDA55B5AC0000
(00.026091) can0 DB#390E010F7C00FFFFFFFFFFFFFF4FD308BCFDFF390E00200E3F940D4880831A3F008095564DC114B3281D5C060300F1FFFFFFFFDC11DF53000000000000000000
(00.030737) can0 DB#390F001532859420FFFF7FCFFFFF3FFFFFFFFFFFFFDC7CFDC500000000000000
(00.034149) can0 2D#945B8104C409001000800020FA500400080024FFFFFF7FE001D235FFFFFFFF00FEFFE0D9E1D100000000000000000000
(00.034682) can0 4F#209807A00049A39C
(00.034846) can0 E3#39060B08001111180000D0FF4100050800800343CEBDDF1B
(00.039563) can0 D9#39130015837F7B00A0030000B00F20F3FFFFFFFFFFDD932B2D00000000000000
(00.040749) can0 DC#3910001677347D0E0200FA00FCFF280000000000FFFFDC28740C000000000000
(00.041134) can0 18E19490#036D06312250D206000700020000000100000000000000000000000000000000000000B70F00E40C04000600030000D8057C16D50CC409001311001505150000
(00.046090) can0 DB#390F01064D8504600000390E00209A1B950D4880831A3F008095564DC114B3281D5C060300F1FFFFFFFFDED05ACD0000
(00.000814) can0 2D#859E5B04C409001000800020FA600400080020FFFFFF7FE001D239FFFFFFFF00FEFF9383E6A600000000000000000000
(00.001350) can0 D4#39040604944BE184
(00.001512) can0 E3#3E800108C3021AC0B912E0FF
(00.006026) can0 E3#0500000CF5FCFF000000000097FB4527
(00.006371) can0 D9#391300156C0755FF9F038000B00F20F3FFFFFFFFFF9187F2AE00000000000000
(00.007099) can0 DC#391000169D77578E0200FA00FCFF280000000000FFFF90C45545000000000000
(00.012794) can0 DB#390E00206F116F0D4880831A3F008095564DC114B3281D5C060300F1FFFFFFFF9181B1FC000000000000000000000000
(00.017100) can0 18E19490#036D06372274D206000700020000000100000000000000000000000000000000000000B70F00E40C04000600030000D8057C16D50CC409001311001505150000
(00.017815) can0 DB#390F00150B996F20FFFF7FCFFFFF3FFFFFFFFFFFFF91455C1B00000000000000
(00.018237) can0 21C#22000000000000000000000000000000000000000000000000000000000000000000000000000000000000000000000000000000000000000000000000000000
(00.020852) can0 2D#D8A15C04C409001000800020FA600400080020FFFFFF7FE001D239FFFFFFFF00FEFF96C71B2700000000000000000000
(00.026023) can0 D4#39040C050E0FF4FFFF000000
(00.026222) can0 E3#39042208003D877E780FFAFF3980000C00FF657D422FB0FE99D7837700000000
(00.027161) can0 DC#39100016870E588E0200FA00FCFF280000000000FFFF925CEA8B000000000000
(00.027614) can0 D9#391300155B225600A0038000B00F20F3FFFFFFFFFF93CB7EF400000000000000
(00.032883) can0 DB#390E002000B3700D4880831A3F008095564DC114B3281D5C060300F1FFFFFFFF935682BA000000000000000000000000
(00.037452) can0 DB#390F0015B4727020FFFF7FCFFFFF3FFFFFFFFFFFFF931AF90500000000000000
(00.040802) can0 2D#C7A85D04C409001000800020FA600400080020FFFFFF7FE001D239FFFFFFFF00FEFF98600E8200000000000000000000
(00.041339) can0 D4#390C140CFFFFFFFFFDFFFFFFFFFFFFFF
(00.046320) can0 D9#3913010B540008558500FE03BAFFEF39130015C9DD5700A0034000B00F20F3FFFFFFFFFF95A9E48C0000000000000000
(00.047102) can0 DC#39100110554241004F10F6425C9D002005F0FFF539100016A3A6598E0200FA00FCFF280000000000FFFF9418E3CB0000
(00.047621) can0 21C#23000000000000000000000000000000000000000000000000000000000000000000000000000000000000000000000000000000000000000000000000000000
(00.048331) can0 18E19490#04020002000200E236EB0C2A0022014D010803010101010200000000000000000000000000000000000000000000000000000000000000001311001505150000
(00.000000) can0 F9#0D
(00.000102) can0 D4#390C140CFFFFFFFFFDFFFFFFFFFFFFFF
(00.005288) can0 D9#3913010B540008558500FE03BAFFEF391300150E5A2F00A0030000B00F20F3FFFFFFFFFF455E75BD0000000000000000
(00.005847) can0 DC#39100110554241004F10B6525D9D002005F0FFF139100016E6D3318F0200FA00FCFF280000000000FFFF45D6D7570000
(00.009787) can0 4F#207B04A00049A39A
(00.011565) can0 DB#390E010F8000FFFFFFFFFFFFFF4FD308BCFDFF390E00200AA949FFFFFF831A3F0080D5FF7FC114B3281D5C000300F0FFFFFFFF47E77DA6000000000000000000
(00.014868) can0 DC085B#4003080000000000
(00.016216) can0 DB#390F001545C74920FFFF7FCFFFFF3FFFFFFFFFFFFF471403BA00000000000000
(00.019528) can0 2D#3EEA3604C409001000800020FA600400080020FEFFFF7FE001D239FFFFFFFF00FEFF4A13CCC100000000000000000000
(00.020062) can0 E3#39060B08001111180000D0FF4100050800800343CEBD49EB3204000CDADD8E53670700F0488037C20000000000000000
(00.025313) can0 D9#3913001545433001A0034000B00F20F3FFFFFFFFFF479ED9D000000000000000
(00.025789) can0 DC#39100016AB3B328F0200FA00FCFF280000000000FFFF47360880000000000000
(00.026174) can0 18E19490#036D06322282D206000700020000000100000000000000000000000000000000000000B70F00E40C04000600030000D8057C16D50CC409001311001505150000
(00.029422) can0 E3#3E800108C3021AC0B912E2FF
(00.031557) can0 DB#390E0020B6C44AFFFFFF831A3F0080D5FF7FC114B3281D5C000300F0FFFFFFFF49DC0DE2000000000000000000000000
(00.034856) can0 DC085B#4003080000000000
(00.036216) can0 DB#390F001563F64A20FFFF7FCFFFFF3FFFFFFFFFFFFF4921669C00000000000000
(00.039545) can0 2D#21E33704C409001000800020FA600400080020FEFFFF7FE001D239FFFFFFFF00FEFF4C845C2500000000000000000000
(00.040077) can0 E3#4100050801F165C9DB1EF8C2
(00.044786) can0 E3#0080000468D89400
(00.045076) can0 D9#39130015234E3100A003C000B00F20F3FFFFFFFFFF49D4132200000000000000
(00.045802) can0 DC#391000168F93338F0200FA00FCFF280000000000FFFF49D4218B000000000000
(00.002138) can0 E3#39060B08001111180000D0FF0080000421178B00
(00.002409) can0 D9#3913010B540008558500FE03BAFFEF39130015A7C804FF9F03C0FFAF0F20F3FFFFFFFFFFEEF365550000000000000000
(00.003165) can0 DC#39100110154241304F0076060C9C002005F0FFF139100016D35D06AE220AFADCA800280000000000FFFFEE1B0B050000
(00.008912) can0 DB#390E010F8000FFFFFFFFFFFFFF4FD308BCFDFF390E00202907300D4880831A3F008095564DC114B3281D5C060300F1FFFFFFFFF0B06057000000000000000000
(00.013193) can0 18E19490#04020002000200E236EA0C2A0022014D010806010101010200000000000000000000000000000000000000000000000000000000000000001311001505150000
(00.013919) can0 DB#390F0015B00A3020FFFF7FCFFFFF3FFFFFFFFFFFFFF0DC24B200000000000000
(00.016957) can0 2D#8BC20B04C409001000800020FA6004000800A0FEFFFF7FE001D339FFFFFFFF00FEFFF4B81F3000000000000000000000
(00.017494) can0 D4#390406047D67D184
(00.022183) can0 E3#0500000CF5FCFF0000000000F70AB312
(00.022419) can0 D9#39130015696105FF9F038000B00F20F3FFFFFFFFFFF03E107800000000000000
(00.023247) can0 DC#39100016F7F507AE220AFADCA800280000000000FFFFF0C55405000000000000
(00.028902) can0 DB#390F01064D8504603C02390E0020BD23310D4880831A3F008095564DC114B3281D5C060300F1FFFFFFFFF24A6BA10000
(00.033562) can0 DB#390F0015521A3120FFFF7FCFFFFF3FFFFFFFFFFFFFF2C2CA7E00000000000000
(00.036948) can0 2D#D6FD0C04C409001000800020FA6004000800A0FEFFFF7FE001D339FFFFFFFF00FEFFF6A1CCA100000000000000000000
(00.037483) can0 E3#4100050800800343CEBCF5DE39042208003C877E780FFAFF
(00.042170) can0 D4#39040C050E0FF4FFFF000000
(00.043147) can0 DC#39100016ED8C08AE220AFADCA800280000000000FFFFF26DE6B5000000000000
(00.043531) can0 18E19490#000000A50000005001000000000000000000001A5A7C00000000000000000000000000004F4F4F0701050186015E014301370152514F20011311001505150000
(00.044246) can0 D9#391300152EAB0600A0034000B00F20F3FFFFFFFFFFF281229000000000000000
(00.046910) can0 E3#3980000C00FF6E7D552FB0FEF97244FC3E800108C3021AC0B912E2FF00000000
(00.048991) can0 DB#390E0020014E320D4880831A3F008095564DC114B3281D5C060300F1FFFFFFFFF40F01FF000000000000000000000000
(00.002538) can0 2D#0A03E104C409001000800020FA6004000800A0FEFFFF7FE001D339FFFFFFFF00FEFFA0C2E33C00000000000000000000
(00.006556) can0 D9#3913001589B3DB00A0030000B00F20F3FFFFFFFFFF9B9EE5E600000000000000
(00.007456) can0 DC#391000164803DDAE220AFADCA800280000000000FFFF9B5B834E000000000000
(00.012562) can0 D4#390C140CFFFFFFFFFDFFFFFFFFFFFFFF
(00.013265) can0 DB#390E0020C343070D4880831A3F008095564DC114B3281D5C060300F1FFFFFFFF9D46C7E5000000000000000000000000
(00.017893) can0 DB#390F00151D5A0720FFFF7FCFFFFF3FFFFFFFFFFFFF9D8F27F400000000000000
(00.022498) can0 2D#2B18E204C409001000800020FA6004000800A0FEFFFF7FE001D339FFFFFFFF00FEFFA27E710500000000000000000000
(00.026565) can0 D9#3913010B540008558500FE03BAFFEF391300158774DC00A0038000B00F20F3FFFFFFFFFF9D1D90350000000000000000
(00.027398) can0 DC#39100110154241324F0036460D9C002005F0FFF13910001605EBDEAE220AFADCA800280000000000FFFF9DAC61DF0000
(00.027918) can0 E3#39060B08001111180000D0FF00800004E2928300
(00.028189) can0 18E19490#028400646464010000007912030000000000000005010801BD04010000000000FEFF00004814C305C4048A1300000000AC0C800C0F0F450D1311001505150000
(00.033305) can0 DB#390E010F8000FFFFFFFFFFFFFF4FD308BCFDFF390E0020AE88080D4880831A3F008095564DC114B3281D5C060300F1FFFFFFFF9FA29554000000000000000000
(00.037897) can0 DB#390F0015A3AF0820FFFF7FCFFFFF3FFFFFFFFFFFFF9FB29E0800000000000000
(00.042549) can0 2D#3411E304C409001000800020FA6004000800A0FEFFFF7FE001D339FFFFFFFF00FEFFA4D2BE2E00000000000000000000
(00.043084) can0 D4#3904060419F9C984
(00.046574) can0 D9#39130015B53EDD00A003C000B00F20F3FFFFFFFFFF9EF7A4D800000000000000
(00.047412) can0 DC#391000162143DFAE220AFADCA800280000000000FFFF9EE92D29000000000000
(00.047794) can0 E3#0500000CF5FCFF0000000000A70FAF72
(00.003743) can0 18E19490#02840064646401000000B012020000000000000006010801BD04000000000000000000004A14C105C404851300000000AC0C800C410F450D1311001505150000
(00.004453) can0 DB#390F001579BDE220FFFF7FCFFFFF3FFFFFFFFFFFFF543DD2D900000000000000
(00.008875) can0 2D#9D21BD04C409001000800020FA6004000800A0FEFFFF7FE001D239FFFFFFFF00FEFF58BAE76600000000000000000000
(00.009408) can0 E3#4100050801ABD824F11D8FC0
(00.012900) can0 D9#39130015B786B700A0038000B00F20F3FFFFFFFFFF54C2689700000000000000
(00.013772) can0 DC#39100016A649B9AE220AFADCA800280000000000FFFF541DFC9F000000000000
(00.019614) can0 DB#390E0020CDCFE30D4880831A3F008095564DC114B3281D5C060300F1FFFFFFFF561E25A3000000000000000000000000
(00.024323) can0 DB#390F00159BADE320FFFF7FCFFFFF3FFFFFFFFFFFFF568C6A4C00000000000000
(00.028910) can0 2D#BC3ABE04C409001000800020FA6004000800A0FEFFFF7FE001D239FFFFFFFF00FEFF5AD72FDB00000000000000000000
(00.032880) can0 D9#39130015C83DB8FF9F03C000B00F20F3FFFFFFFFFF5626450000000000000000
(00.033692) can0 DC#39100016EBA1BAAE220AFADCA800280000000000FFFF5630DB35000000000000
(00.034074) can0 18E19490#0300008D018D010600070002000000010000000000000000000000000000000000AC0CB70F00E40C04000600030054D9057C16D50CC409001311001505150000
(00.038849) can0 D4#390C140CFFFFFFFFFDFFFFFFFFFFFFFF
(00.039548) can0 DB#390E00202130E40D4880831A3F008095564DC114B3281D5C060300F1FFFFFFFF583AA652000000000000000000000000
(00.044274) can0 DB#390F001535DFE420FFFF7FCFFFFF3FFFFFFFFFFFFF584A3A4000000000000000
(00.048904) can0 2D#A333BF04C409001000800020FA6004000800A0FEFFFF7FE001D239FFFFFFFF00FEFF5CC72DC300000000000000000000
(00.001753) can0 2D#8D988E04C409001000800020FA6004000800A0FEFFFF7FE001D239FFFFFFFF00FEFFFAF0ABF500000000000000000000
(00.002287) can0 D4#39040604D8CDB884
(00.005957) can0 D9#391300150A518800A0038000B00F20F3FFFFFFFFFFF65C631E00000000000000
(00.006497) can0 DC#39100016F5C48AAE220AFADCA800280000000000FFFFF67E95BB000000000000
(00.006880) can0 18E19490#0101001B004D01800CFF00BC02060600000000401F020000AC0D432B012003000002AE012C1200000202B503F8300000AC0D401F0C5B21501311001505150000
(00.012390) can0 DB#390E00200AEDB40D4880831A3F008095564DC114B3281D5C060300F1FFFFFFFFF8E86C10000000000000000000000000
(00.017152) can0 DB#390F001530B9B420FFFF7FCFFFFF3FFFFFFFFFFFFFF8F888B600000000000000
(00.021800) can0 2D#92918F04C409001000800020FA6004000800A0FEFFFF7FE001D239FFFFFFFF00FEFFFCFA503200000000000000000000
(00.022336) can0 E3#4100050800800343CEBBFB2A39042208003C867E780FFAFF
(00.026474) can0 DC#39100016D16C8BAE220AFADCA800280000000000FFFFF86FD365000000000000
(00.026858) can0 D9#39130015381B8900A003C000B00F20F3FFFFFFFFFFF8A59A8000000000000000
(00.027242) can0 D4#39040C050E0FF4FFFF3915011444CD9101F85FF5FFFFFFFFFE0700A02801FEFFFF000000000000000000000000000000
(00.032584) can0 DB#390E00209EC9B50D4880831A3F008095564DC114B3281D5C060300F1FFFFFFFFFA1E6A94000000000000000000000000
(00.036517) can0 18E19490#02840064646401000000DF12030000000000000005010801BD04000000000000FFFF00004714C105C504821300000000AC0C800CFF0E450D1311001505150000
(00.037228) can0 DB#390F0015D2A9B520FFFF7FCFFFFF3FFFFFFFFFFFFFFA0F766000000000000000
(00.041742) can0 2D#C7779004C409001000800020FA6004000800A0FEFFFF7FE001D239FFFFFFFF00FEFFFE372A3C00000000000000000000
(00.042277) can0 E3#410005080171FBAF6E21671A
(00.045965) can0 D9#391300150AD28AFF9F030001B00F20F3FFFFFFFFFFFA3BB5E800000000000000
(00.046348) can0 44#04
(00.046538) can0 DC#391000164E048CAE220AFADCA800280000000000FFFFFA22AE07000000000000
(00.000793) can0 DB#390F0015F7BA8620FFFF7FCFFFFF3FFFFFFFFFFFFF9B07397400000000000000
(00.005390) can0 2D#6F746104C409001000800020FA6004000800A0FEFFFF7FE001D239FFFFFFFF00FEFF9F0FFD4300000000000000000000
(00.005926) can0 D4#390406045287AF84
(00.009270) can0 D9#39130015400D5BFF9F034000B00F20F3FFFFFFFFFF9CDDE93700000000000000
(00.010028) can0 DC#39100016390B5DAE220AFADCA800280000000000FFFF9C668735000000000000
(00.010409) can0 18E19490#0102001B004D01800CFF00BC02060600000000401F020000AC0D432B012003000002AD012C1200000202B503D8300000AC0D401F0C522B501311001505150000
(00.011115) can0 E3#0500000CF5FCFF0000000000A3127E66
(00.016040) can0 DB#390F01064D8504600809390E0020B03B870D4880831A3F008095564DC114B3281D5C060300F1FFFFFFFF9D808F420000
(00.020795) can0 DB#390F001515AA8720FFFF7FCFFFFF3FFFFFFFFFFFFF9D28980100000000000000
(00.021318) can0 21C#22000000000000000000000000000000000000000000000000000000000000000000000000000000000000000000000000000000000000000000000000000000
(00.025417) can0 2D#4E6F6204C409001000800020FA6004000800A0FEFFFF7FE001D239FFFFFFFF00FEFFA2697C9D00000000000000000000
(00.025950) can0 E3#4100050800800343CEBBA02839042208003D877E780FFAFF
(00.029974) can0 D9#391300158F845C00A0038000B00F20F3FFFFFFFFFF9E2DA43400000000000000
(00.030359) can0 DC#3910001674E35EAE220AFADCA800280000000000FFFF9EB09F82000000000000
(00.030742) can0 D4#39040C050E0FF4FFFF000000
(00.035327) can0 E3#3980000C007F727D532FB0FEA550D9E3
(00.036177) can0 DB#390E0020DDF0880D4880831A3F008095564DC114B3281D5C060300F1FFFFFFFF9F299920000000000000000000000000
(00.040085) can0 18E19490#02840064646401000000B412020000000000000005010801BD04010001000000000000004814C105C504881300000000AC0C800CFF0E450D1311001505150000
(00.040835) can0 DB#390F0015AB5F8820FFFF7FCFFFFF3FFFFFFFFFFFFF9F25291200000000000000
(00.045381) can0 2D#51666304C409001000800020FA6004000800A0FEFFFF7FE001D239FFFFFFFF00FEFFA43F884800000000000000000000
(00.045915) can0 E3#41000508016DF1166DA4F8E1
(00.049274) can0 D9#391300157C805DFF9F038000B00F20F3FFFFFFFFFFA061ED4100000000000000
(00.001218) can0 D9#3913010B540008558500FE03BAFFEF39130015AE6237FF9F038000B00F20F3FFFFFFFFFF549AF3B10000000000000000
(00.001963) can0 DC#39100110154241324F002E120D9C002005F0FFF139100016D74139AE220AFADCA800280000000000FFFF54444EEF0000
(00.002482) can0 18E19490#028400646464010000008112040000000000000005010801BE04010000000000FFFF00004A14C105C404841300000000AC0C800C0F0F450D1311001505150000
(00.003192) can0 E3#39060B08001111180000D0FF00800004BC606200
(00.007601) can0 4F#28810600319D684B
(00.008198) can0 DB#390E010F7C00FFFFFFFFFFFFFF4FD308BCFDFF390E0020BEB7630D4880831A3F008095564DC114B3281D5C060300F1FFFFFFFF568DA670000000000000000000
(00.012799) can0 DB#390F0015935D6320FFFF7FCFFFFF3FFFFFFFFFFFFF56873BC900000000000000
(00.017431) can0 2D#B8F53E04C409001000800020FA6004000800A0FEFFFF7FE001D239FFFFFFFF00FEFF5A7DFDFA00000000000000000000
(00.017968) can0 D4#390406047FD6A884
(00.021225) can0 D9#3913001501833800A0038000B00F20F3FFFFFFFFFF561C111900000000000000
(00.021933) can0 DC#391000169AA93AAE220AFADCA800280000000000FFFF56C47F36000000000000
(00.028041) can0 DB#390E00205248640D4880831A3F008095564DC114B3281D5C060300F1FFFFFFFF583750CD000000000000000000000000
(00.032045) can0 18E19490#030000850185010600070002000000010000000000000000000000000000000000AC0CB70F00E40C04000600030054D9057C16D20CC409001311001505150000
(00.032806) can0 DB#390F00153D2F6420FFFF7FCFFFFF3FFFFFFFFFFFFF58DCB1FB00000000000000
(00.037407) can0 2D#A7FC3F04C409001000800020FA6004000800A0FEFFFF7FE001D239FFFFFFFF00FEFF5C56276700000000000000000000
(00.037941) can0 E3#4100050800800343CEBB5B3339042208003C867E780FFAFF
(00.041921) can0 D9#3913001543263900A0030000B00F20F3FFFFFFFFFF581B179400000000000000
(00.042304) can0 DC#39100016BE013BAE220AFADCA800280000000000FFFF588A897A000000000000
(00.042723) can0 D4#39040C050E0FF4FFFF3915011444CD9101F85FF5FFFFFFFFFE0700A02801FEFFFF000000000000000000000000000000
(00.048147) can0 DB#390E0020C66C650D4880831A3F008095564DC114B3281D5C060300F1FFFFFFFF5ADF4B4E000000000000000000000000
(00.000896) can0 DB#390F001564AC3A20FFFF7FCFFFFF3FFFFFFFFFFFFF04F4101600000000000000
(00.005493) can0 2D#A0951504C409001000800020FA6004000800A0FEFFFF7FE001D239FFFFFFFF00FEFF088C338500000000000000000000
(00.009521) can0 D9#3913010B540008558500FE03BAFFEF39130015BDC70FFF9F038000B00F20F3FFFFFFFFFF043DD8E80000000000000000
(00.010087) can0 DC#39100110154241004F00EE460C9C002005F0FFF539100016461611AE220AFADCA800280000000000FFFF048BE5190000
(00.010881) can0 E3#39060B08001111180000D0FF0080000496C95A00
(00.016211) can0 DB#390E010F7C00FFFFFFFFFFFFFF4FD308BCFDFF390E0020145E3B0D4880831A3F008095564DC114B3281D5C060300F1FFFFFFFF0534AF98000000000000000000
(00.020950) can0 DB#390F001586BC3B20FFFF7FCFFFFF3FFFFFFFFFFFFF050D4AED00000000000000
(00.025494) can0 2D#818E1604C409001000800020FA6004000800A0FEFFFF7FE001D239FFFFFFFF00FEFF098235A600000000000000000000
(00.026029) can0 D4#39040604BC53A084
(00.029527) can0 D9#3913001513381000A0038000B00F20F3FFFFFFFFFF0698630400000000000000
(00.029998) can0 DC#391000160BFE12AE220AFADCA800280000000000FFFF0667EFD1000000000000
(00.030384) can0 18E19490#0102001B004E01800CFF00BC02060600000000401F020000AC0D432B012003000002AD012B1200000202B603E8300000AC0D401F0C432C501311001505150000
(00.036143) can0 DB#390E0020F8A13C0D4880831A3F008095564DC114B3281D5C060300F1FFFFFFFF0767FF09000000000000000000000000
(00.040906) can0 DB#390F001528CE3C20FFFF7FCFFFFF3FFFFFFFFFFFFF0775E81800000000000000
(00.045455) can0 D4#39040C050E0FF4FFFF390C1608FFFFFFFFFFFFFFFF3915011444CD9101F85FF5FFFFFFFFFE0700A02801FEFFFF000000
(00.045982) can0 2D#9E871704C409001000800020FA6004000800A0FEFFFF7FE001D239FFFFFFFF00FEFF0C4BD4D300000000000000000000
(00.046514) can0 D4#390C083CFE7400800000086C35BC2183FF7BDF0170F8C401A02CE07C8FB30400009E053C400B5AD08216B4A0052D68DB0000FE7F19E000FFC9FFFFFF833EE4FF
(00.047172) can0 E3#4100050800800343CEBB0A9D39042208003D867E780FFAFF
(00.004134) can0 D4#390C140CFFFFFFFFFDFFFFFFFFFFFFFF
(00.004849) can0 DB#390E0020059C120D4880831A3F008095564DC114B3281D5C060300F1FFFFFFFFB4B855E5000000000000000000000000
(00.009573) can0 DB#390F001576171220FFFF7FCFFFFF3FFFFFFFFFFFFFB4413F0600000000000000
(00.014159) can0 2D#EFD7ED04C409001000800020FA6004000800A0FEFFFF7FE001D239FFFFFFFF00FEFFB8DFBF9400000000000000000000
(00.017882) can0 D9#3913010B540008558500FE03BAFFEF39130015B2E0E700A0038000B00F20F3FFFFFFFFFFB47F795A0000000000000000
(00.018615) can0 DC#39100110154241004F00AE420C9C002005F0FFF13910001684E6E9AE220AFADCA800280000000000FFFFB488D0AE0000
(00.019534) can0 E3#39060B08001111180000D0FF00800004554C5200
(00.024888) can0 DB#390E010F7C00FFFFFFFFFFFFFF4FD308BCFDFF390E002091B8130D4880831A3F008095564DC114B3281D5C060300F1FFFFFFFFB6B97288000000000000000000
(00.028580) can0 18E19490#04020002000200E236ED0C2A0022014D010806010101010200000000000000000000000000000000000000000000000000000000000000001311001505150000
(00.029577) can0 DB#390F001594071320FFFF7FCFFFFF3FFFFFFFFFFFFFB694917600000000000000
(00.034169) can0 2D#CECCEE04C409001000800020FA6004000800A0FEFFFF7FE001D239FFFFFFFF00FEFFBA7AB29900000000000000000000
(00.034702) can0 D4#3904060496FA9884
(00.037894) can0 D9#391300151D01E8FF9F038000B00F20F3FFFFFFFFFFB62EAB5500000000000000
(00.038685) can0 DC#39100016C90EEAAE220AFADCA800280000000000FFFFB6B2E242000000000000
(00.044818) can0 DB#390E00207D47140D4880831A3F008095564DC114B3281D5C060300F1FFFFFFFFB811D0BD000000000000000000000000
(00.049582) can0 DB#390F00153A751420FFFF7FCFFFFF3FFFFFFFFFFFFFB82CA35800000000000000
(00.000001) can0 5A5#8AA6264892312490
(00.000523) can0 E3#4100050801E9C19C5DFFF1C9
(00.003685) can0 D9#39130015DA8FC200A0038000B00F20F3FFFFFFFFFF6AF3658400000000000000
(00.004329) can0 44#04
(00.004445) can0 DC#39100016E399C4AE220AFADCA800280000000000FFFF6A488D56000000000000
(00.004826) can0 18E19490#04020002000200D836EB0C2A0022014E010806010101010200000000000000000000000000000000000000000000000000000000000000001311001505150000
(00.010676) can0 DB#390E0020884DEE0D4880831A3F008095564DC114B3281D5C060300F1FFFFFFFF6C743C3C000000000000000000000000
(00.015479) can0 DB#390F0015E179EE20FFFF7FCFFFFF3FFFFFFFFFFFFF6CCA7FE700000000000000
(00.020036) can0 2D#52C0C904C409001000800020FA6004000800A0FEFFFF7FE001D239FFFFFFFF00FEFF70FB4D7500000000000000000000
(00.023670) can0 D9#391300155964C3FF9F034000B00F20F3FFFFFFFFFF6C442C1700000000000000
(00.024371) can0 DC#39100016C731C5AE220AFADCA800280000000000FFFF6CEC4DF2000000000000
(00.029974) can0 D4#390C140CFFFFFFFFFDFFFFFFFFFFFFFF
(00.030707) can0 DB#390E00201C69EF0D4880831A3F008095564DC114B3281D5C060300F1FFFFFFFF6E14D0F6000000000000000000000000
(00.034335) can0 18E19490#000000A50000005001000000000000000000001A5A7C00000000010000000000000000004F4F4F0701060186015E014401370152514F23011311001505150000
(00.035430) can0 DB#390F00150369EF20FFFF7FCFFFFF3FFFFFFFFFFFFF6EEA116A00000000000000
(00.040001) can0 2D#73DBCA04C409001000800020FA6004000800A0FEFFFF7FE001D239FFFFFFFF00FEFF727EE6D600000000000000000000
(00.043678) can0 D9#3913010B550008558500FE03BAFFEF391300153658C400A0030000B00F20F3FFFFFFFFFF6EBFEAE80000000000000000
(00.044458) can0 DC#39100110154241304F0076060C9C002005F0FFF1391000168AD9C6AE220AFADCA800280000000000FFFF6E230C770000
(00.045393) can0 E3#39060B08001111180000D0FF0080000485A44B00
(00.001302) can0 E3#3980000C007F607D532FB0FE29AA49543E800108C3021AC0B912E0FF00000000
(00.002061) can0 DB#390E0020DC0DCA0D4880831A3F008095564DC114B3281D5C060300F1FFFFFFFF24FDAA08000000000000000000000000
(00.006780) can0 DB#390F00156B06CA20FFFF7FCFFFFF3FFFFFFFFFFFFF24DE360800000000000000
(00.011332) can0 2D#95F8A504C409001000800020FA6004000800A0FEFFFF7FE001D239FFFFFFFF00FEFF286ECF5200000000000000000000
(00.011866) can0 4F#205600A00049A392
(00.012031) can0 E3#41000508014ADDB0FAF5CABE
(00.014971) can0 D9#3913001589849F00A003C0FFAF0F20F3FFFFFFFFFF25D9074900000000000000
(00.015665) can0 DC#39100016297BA1AE220AFADCA800280000000000FFFF244DDBA0000000000000
(00.016799) can0 DC085B#4001000000000000
(00.022013) can0 DB#390E00204829CB0D4880831A3F008095564DC114B3281D5C060300F1FFFFFFFF26E33963000000000000000000000000
(00.025667) can0 18E19490#0101001B004E01800CFF00BC02060600000000401F020000AC0D432B012003000002AB012B1200000202B503E0300000AC0D401F0C2D14501311001505150000
(00.026818) can0 DB#390F00158916CB20FFFF7FCFFFFF3FFFFFFFFFFFFF26C930CB00000000000000
(00.031370) can0 2D#B4E3A604C409001000800020FA6004000800A0FEFFFF7FE001D239FFFFFFFF00FEFF2A05ED3A00000000000000000000
(00.034953) can0 D9#391300157911A0FF9F034000B00F20F3FFFFFFFFFF26075B1100000000000000
(00.035705) can0 DC#391000166493A2AE220AFADCA800280000000000FFFF26A69288000000000000
(00.041337) can0 D4#390C140CFFFFFFFFFDFFFFFFFFFFFFFF
(00.042044) can0 DB#390E0020A4D6CC0D4880831A3F008095564DC114B3281D5C060300F1FFFFFFFF284D23C5000000000000000000000000
(00.046767) can0 DB#390F00152764CC20FFFF7FCFFFFF3FFFFFFFFFFFFF28784CC400000000000000
(00.003743) can0 2D#1B897D04C409001000800020FA6004000800A0FEFFFF7FE001D239FFFFFFFF00FEFFD8EC68E700000000000000000000
(00.004277) can0 E3#41000508012E2084AD1FAEDC
(00.007326) can0 D9#39130015DAF577FF9F034000B00F20F3FFFFFFFFFFD4275B2700000000000000
(00.008012) can0 DC#39100016FFCD79AE220AFADCA800280000000000FFFFD4E19FD3000000000000
(00.008396) can0 18E19490#04020002000200EC36EB0C2A0022014E010806010101010200000000000000000000000000000000000000000000000000000000000000001311001505150000
(00.014429) can0 DB#390E0020E47BA30D4880831A3F008095564DC114B3281D5C060300F1FFFFFFFFD6896182000000000000000000000000
(00.019182) can0 DB#390F00159FD5A320FFFF7FCFFFFF3FFFFFFFFFFFFFD6ED3DC800000000000000
(00.023806) can0 2D#3A927E04C409001000800020FA6004000800A0FEFFFF7FE001D239FFFFFFFF00FEFFDAC9919C00000000000000000000
(00.027493) can0 D9#39130015640078FF9F034000B00F20F3FFFFFFFFFFD603E1B600000000000000
(00.027988) can0 DC#39100016B2257AAE220AFADCA800280000000000FFFFD6789C5D000000000000
(00.033727) can0 D4#390C140CFFFFFFFFFDFFFFFFFFFFFFFF
(00.034458) can0 DB#390E00200884A40D4880831A3F008095564DC114B3281D5C060300F1FFFFFFFFD8609233000000000000000000000000
(00.037925) can0 18E19490#000000A50000005001000000000000000000001A5A7C00000000010000000000000000004F4F4F0701050186015E014401370152514F1D011311001505150000
(00.039184) can0 DB#390F001531A7A420FFFF7FCFFFFF3FFFFFFFFFFFFFD8E5F49B00000000000000
(00.043755) can0 2D#259B7F04C409001000800020FA6004000800A0FEFFFF7FE001D239FFFFFFFF00FEFFDC85BB7F00000000000000000000
(00.047316) can0 D9#3913010B550008558500FE03BAFFEF39130015F6FF79FF9F038000B00F20F3FFFFFFFFFFD8A76B440000000000000000
(00.048063) can0 DC#39100110154241004F00FE420C9C002005F0FFF539100016968D7BAE220AFADCA800280000000000FFFFD80A552C0000
(00.049135) can0 E3#39060B08001111180000D0FF00800004DDB73C00
(00.003885) can0 2D#988C5B04C409001000800020FA6004000800A0FEFFFF7FE001D239FFFFFFFF00FEFF9492BB1E00000000000000000000
(00.007365) can0 D9#391300151CE855FF9F034000B00F20F3FFFFFFFFFF90557C3D00000000000000
(00.008089) can0 DC#39100016D55A57AE220AFADCA800280000000000FFFF903F65D1000000000000
(00.013826) can0 D4#390C140CFFFFFFFFFDFFFFFFFFFFFFFF
(00.014569) can0 DB#390E0020C8E0810D4880831A3F008095564DC114B3281D5C060300F1FFFFFFFF925C889B000000000000000000000000
(00.019293) can0 DB#390F001559C88120FFFF7FCFFFFF3FFFFFFFFFFFFF92260EDA00000000000000
(00.023855) can0 2D#C5B35C04C409001000800020FA6004000800A0FEFFFF7FE001D239FFFFFFFF00FEFF9649AA1E00000000000000000000
(00.027374) can0 D9#3913010B550008558500FE03BAFFEF39130015DF9556FD9F0380FFAF0F20F3FFFFFFFFFF92BAEE5F0000000000000000
(00.028029) can0 DC#39100110154241004F00C6120D9C002005F0FFF539100016CF2358AE220AFADCA800280000000000FFFF927B160D0000
(00.028549) can0 18E19490#028400646464010000007512030000000000000005010801BD04000001000000FFFF00004814C105C304881300000000AC0C800C1C0F450D1311001505150000
(00.029260) can0 E3#39060B08001111180000D0FF00800004AA443500
(00.034090) can0 4F#28E50D0013D39894
(00.034688) can0 DB#390E010F7C00FFFFFFFFFFFFFF4FD308BCFDFF390E0020748D820D4880831A3F008095564DC114B3281D5C060300F1FFFFFFFF941536ED000000000000000000
(00.039295) can0 DB#390F00157FF98220FFFF7FCFFFFF3FFFFFFFFFFFFF9475A3EB00000000000000
(00.043868) can0 2D#DABA5D04C409001000800020FA6004000800A0FEFFFF7FE001D239FFFFFFFF00FEFF989B76CE00000000000000000000
(00.044401) can0 D4#39040604A0E57B84
(00.047384) can0 D9#39130015089357FF9F030000B00F20F3FFFFFFFFFF941BAAE500000000000000
(00.048026) can0 DC#39100016EB8B59AE220AFADCA800280000000000FFFF94997AD1000000000000
(00.049103) can0 E3#0500000CF5FCFF00000000009BAB0C67
(00.002345) can0 DB#390F001580F85B20FFFF7FCFFFFF3FFFFFFFFFFFFF4571C60C00000000000000
(00.002867) can0 21C#22C000000001001D003B00B20236040A04A904A90000000000130031006C018D02A4034303430000000000090027004F01290218028602860000000000000000
(00.006851) can0 2D#40BD3604C409001000800020FA6004000800A0FEFFFF7FE001D239FFFFFFFF00FEFF4A5AA53600000000000000000000
(00.007385) can0 E3#4100050800800343CEB9480C39042208003D877E780FFAFF
(00.010927) can0 DC#391000161FB832AE220AFADCA800280000000000FFFF463FCC78000000000000
(00.011312) can0 D9#3913001511043000A0038000B00F20F3FFFFFFFFFF4649357600000000000000
(00.012149) can0 D4#39040C050E0FF4FFFF000000
(00.016810) can0 E3#3980000C00FF657D4F2FB0FE4D4C3BBD
(00.017582) can0 DB#390E0020D5C75C0D4880831A3F008095564DC114B3281D5C060300F1FFFFFFFF4783E424000000000000000000000000
(00.020887) can0 18E19490#028400646464010000006612040000000000000005010801BE04010001000000FEFF00004A14C105C404871300000000AC0C800C140F450D1311001505150000
(00.022284) can0 DB#390F00152E8A5C20FFFF7FCFFFFF3FFFFFFFFFFFFF477D276C00000000000000
(00.026839) can0 2D#5FB43704C409001000800020FA6004000800A0FEFFFF7FE001D239FFFFFFFF00FEFF4C134EB000000000000000000000
(00.027374) can0 E3#4100050801F1BC36B87783CE
(00.030318) can0 D9#3913001583FB3100A0034000B00F20F3FFFFFFFFFF48AEB99F00000000000000
(00.031032) can0 DC#391000163B1033AE220AFADCA800280000000000FFFF483C33E3000000000000
(00.032504) can0 21C#23000000000000000000000000000000000000000000000000000000000000000000000000000000000000000000000000000000000000000000000000000000
(00.037528) can0 DB#390E002041E35D0D4880831A3F008095564DC114B3281D5C060300F1FFFFFFFF49CBF0D4000000000000000000000000
(00.042281) can0 DB#390F0015CC9A5D20FFFF7FCFFFFF3FFFFFFFFFFFFF4963966900000000000000
(00.046870) can0 2D#FAC33804C409001000800020FA6004000800A0FEFFFF7FE001D239FFFFFFFF00FEFF4E0E8BAB00000000000000000000
(00.001995) can0 DC#3910001684CC0AAE220AFADCA800280000000000FFFFF67E4034000000000000
(00.002381) can0 18E19490#000000A50000005001000000000000000000001A5A7C00000000010000000000000000004F4F4F0701050186015E014401370152514F20011311001505150000
(00.003095) can0 D9#39130015A2140800A0030000B00F20F3FFFFFFFFFFF76B6F1300000000000000
(00.003480) can0 D4#39040C050E0FF4FFFF000000
(00.008046) can0 E3#3980000C00FF657D4D2FB0FEFD15EE023E800108C3021AC0B912E0FF00000000
(00.008898) can0 DB#390E00207995340D4880831A3F008095564DC114B3281D5C060300F1FFFFFFFFF8B850FC000000000000000000000000
(00.013497) can0 DB#390F001538493420FFFF7FCFFFFF3FFFFFFFFFFFFFF86AA15A00000000000000
(00.018048) can0 2D#965E0F04C409001000800020FA6004000800A0FEFFFF7FE001D239FFFFFFFF00FEFFFC9DF73F00000000000000000000
(00.018586) can0 4F#20E80AA00049A38F
(00.018750) can0 E3#4100050801B8D6A8B2AD8729
(00.021470) can0 D9#3913001540040900A0030000B00F20F3FFFFFFFFFFF9B7453800000000000000
(00.022027) can0 DC#39100016A0640BAE220AFADCA800280000000000FFFFF8754EAB000000000000
(00.023493) can0 DC085B#4001000000000000
(00.028743) can0 DB#390E0020EDB1350D4880831A3F008095564DC114B3281D5C060300F1FFFFFFFFFA6793E7000000000000000000000000
(00.032171) can0 18E19490#0102001B004E01800CFF00BC02060600000000401F020000AC0D432B012003000002AD012C1200000202B503E8300000AC0D401F0C0F14501311001505150000
(00.033496) can0 DB#390F0015DA593520FFFF7FCFFFFF3FFFFFFFFFFFFFFA6ACC1A00000000000000
(00.038084) can0 2D#C3B81004C409001000800020FA6004000800A0FEFFFF7FE001D239FFFFFFFF00FEFFFE23753200000000000000000000
(00.041455) can0 D9#3913001566350A00A0030000B00F20F3FFFFFFFFFFFA436B9C00000000000000
(00.042120) can0 DC#391000163F0C0CAE220AFADCA800280000000000FFFFFAFC1C5A000000000000
(00.048026) can0 D4#390C140CFFFFFFFFFDFFFFFFFFFFFFFF
(00.048773) can0 DB#390E002051DC360D4880831A3F008095564DC114B3281D5C060300F1FFFFFFFFFCC8F455000000000000000000000000
(00.004084) can0 2D#EFD7ED04C409001000800020FA6004000800A0FEFFFF7FE001D239FFFFFFFF00FEFFB8665C4F00000000000000000000
(00.007409) can0 D9#39130015A3F4E7FF9F038000B00F20F3FFFFFFFFFFB3BAEC1800000000000000
(00.007988) can0 DC#3910001684E6E9AE220AFADCA800280000000000FFFFB3843211000000000000
(00.008369) can0 18E19490#0300008D018D010600070002000000020000000000000000000000000000000000AC0CB70F00E40C04000600030054D9058316D50CC409001311001505150000
(00.014016) can0 D4#390C140CFFFFFFFFFDFFFFFFFFFFFFFF
(00.014779) can0 DB#390E002091B8130D4880831A3F008095564DC114B3281D5C060300F1FFFFFFFFB5A3B900000000000000000000000000
(00.019503) can0 DB#390F001594071320FFFF7FCFFFFF3FFFFFFFFFFFFFB556B97A00000000000000
(00.024057) can0 2D#CECCEE04C409001000800020FA6004000800A0FEFFFF7FE001D239FFFFFFFF00FEFFBA67FB1C00000000000000000000
(00.027420) can0 D9#3913010B550008558500FE03BAFFEF39130015E9F3E8FE9F03C000B00F20F3FFFFFFFFFFB5519ED40000000000000000
(00.027967) can0 DC#39100110154241304F001616119C002005F0FFF139100016C90EEAAE220AFADCA800280000000000FFFFB5A2DF1D0000
(00.029386) can0 E3#39060B08001111180000D0FF008000044F1B1F00
(00.034819) can0 DB#390E010F8000FFFFFFFFFFFFFF4FD308BCFDFF390E00207D47140D4880831A3F008095564DC114B3281D5C060300F1FFFFFFFFB78355B1000000000000000000
(00.038032) can0 18E19490#04020002000200F636ED0C2A0022014E010806010101010200000000000000000000000000000000000000000000000000000000000000001311001505150000
(00.039508) can0 DB#390F00153A751420FFFF7FCFFFFF3FFFFFFFFFFFFFB7E5364600000000000000
(00.044072) can0 2D#D1C5EF04C409001000800020FA6004000800A0FEFFFF7FE001D239FFFFFFFF00FEFFBC8F18EA00000000000000000000
(00.044605) can0 D4#390406045D5C6584
(00.047429) can0 D9#391300155FA4E9FF9F030000B00F20F3FFFFFFFFFFB6408BFF00000000000000
(00.048020) can0 DC#39100016EDA6EBAE220AFADCA800280000000000FFFFB67DE0A2000000000000
(00.049343) can0 E3#0500000CF5FCFF0000000000BF5217E7
(00.001170) can0 E3#3980000C007F417D4E2FB0FE71A3CE17
(00.001970) can0 DB#390E0020884DEE0D4880831A3F008095564DC114B3281D5C060300F1FFFFFFFF6C685568000000000000000000000000
(00.006671) can0 DB#390F0015E179EE20FFFF7FCFFFFF3FFFFFFFFFFFFF6CBABE0900000000000000
(00.011207) can0 2D#52C0C904C409001000800020FA6004000800A0FEFFFF7FE001D239FFFFFFFF00FEFF70BF469C00000000000000000000
(00.011742) can0 E3#4100050801AB203B29B9F5C2
(00.014803) can0 D9#39130015893EC3FF9F030000B00F20F3FFFFFFFFFF6C802B6200000000000000
(00.015188) can0 DC#39100016C731C5AE220AFADCA800280000000000FFFF6C043A60000000000000
(00.015571) can0 18E19490#04020002000200F636ED0C2A0022014F010806010101010200000000000000000000000000000000000000000000000000000000000000001311001505150000
(00.021917) can0 DB#390E00201C69EF0D4880831A3F008095564DC114B3281D5C060300F1FFFFFFFF6EDBE1AC000000000000000000000000
(00.026669) can0 DB#390F00150369EF20FFFF7FCFFFFF3FFFFFFFFFFFFF6E1D08F800000000000000
(00.031247) can0 2D#73DBCA04C409001000800020FA6004000800A0FEFFFF7FE001D239FFFFFFFF00FEFF7270706400000000000000000000
(00.034785) can0 D9#39130015E602C400A0034000B00F20F3FFFFFFFFFF6E16A01600000000000000
(00.035169) can0 DC#391000168AD9C6AE220AFADCA800280000000000FFFF6EBFF5F0000000000000
(00.041218) can0 D4#390C140CFFFFFFFFFDFFFFFFFFFFFFFF
(00.041945) can0 DB#390E0020070AF00D4880831A3F0080D5564DC114B3281D5C060300F1FFFFFFFF70C5BB83000000000000000000000000
(00.045080) can0 18E19490#000000A50000005001000000000000000000001A5A7C0000000001000000000000000000504F4F0701060187015E014401370152514F23011311001505150000
(00.046670) can0 DB#390F0015BC82F020FFFF7FCFFFFF3FFFFFFFFFFFFF70E647B900000000000000
(00.001870) can0 D9#39130015D44197FF9F034000B00F20F3FFFFFFFFFF14952C7B00000000000000
(00.002359) can0 DC#39100016B20F99AE220AFADCA800280000000000FFFF141B9886000000000000
(00.008593) can0 D4#390C140CFFFFFFFFFDFFFFFFFFFFFFFF
(00.009360) can0 DB#390E0020C91DC30D4880831A3F008095564DC114B3281D5C060300F1FFFFFFFF16CBEDDE000000000000000000000000
(00.012398) can0 18E19490#000000A50000005001000000000000000000001A5A7C00000000010000000000000000004F4F4F0701050186015E014401380152514F26011311001505150000
(00.014084) can0 DB#390F00159991C320FFFF7FCFFFFF3FFFFFFFFFFFFF16C97EA800000000000000
(00.018633) can0 2D#7D099E04C409001000800020FA6004000800A0FEFFFF7FE001D239FFFFFFFF00FEFF1A77BA1700000000000000000000
(00.021878) can0 D9#3913010B550008558500FE03BAFFEF391300150B4F9800A0038000B00F20F3FFFFFFFFFF1629E44E0000000000000000
(00.022426) can0 DC#39100110154241004F0096060C9C002005F0FFF539100016FFE79AAE220AFADCA800280000000000FFFF16AD748C0000
(00.023977) can0 E3#39060B08001111180000D0FF00800004E8000F00
(00.029285) can0 21C#11020107000001F405DC09380FA01388189C1C3E21E8254427100000000000000000000000000000000000000000000000000000000000000000000000000000
(00.029983) can0 21D#304028
(00.030146) can0 DB#390E010F7C00FFFFFFFFFFFFFF4FD308BCFDFF390E002025E2C40D4880831A3F008095564DC114B3281D5C060300F1FFFFFFFF174717CB000000000000000000
(00.030820) can0 21C#21000000000000000000000000000000000000000000000000000000000000000000000000000000000000000000000000000000000000000000000000000000
(00.034092) can0 DB#390F001537E3C420FFFF7FCFFFFF3FFFFFFFFFFFFF1783CFB200000000000000
(00.038642) can0 2D#62009F04C409001000800020FA6004000800A0FEFFFF7FE001D239FFFFFFFF00FEFF1B40F82700000000000000000000
(00.039179) can0 D4#39040604B4705584
(00.041888) can0 D9#39130015F84B99FF9F038000B00F20F3FFFFFFFFFF189B1F7400000000000000
(00.042347) can0 DC#39100016DB4F9BAE220AFADCA800280000000000FFFF18BCB22D000000000000
(00.042729) can0 18E19490#0102001B004E01800CFF00BC02060600000000401F020000AC0D432B012003000002AC012B1200000202B503E8300000AC0D401F0C5D2D501311001505150000
(00.043875) can0 E3#0500000CF5FCFF00000000001F5DA9E1
(00.049340) can0 DB#390F01064D8504600000390E0020B1C6C50D4880831A3F008095564DC114B3281D5C060300F1FFFFFFFF19CAFA830000
(00.001311) can0 DC#39FE6F089401008000000000
(00.001905) can0 D9#39FE28082900000000000000
(00.003036) can0 E3#410000080317F2D62C1900003A020004F4FFFFFF
(00.003310) can0 DB#390F00158C709B20FFFF7FCFFFFF3FFFFFFFFFFFFFC62C812100000000000000
(00.007678) can0 2D#C2DA7604C409001000800020FA6004000800A0FEFFFF7FE001D239FFFFFFFF00FEFFCAFB610800000000000000000000
(00.010858) can0 D9#3913010B550008558500FE03BAFFEF39130015B5C97000A0030000B00F20F3FFFFFFFFFFC75F75AE0000000000000000
(00.011379) can0 DC#39100110154241304F0056120D9C002005F0FFF139100016373472AE220AFADCA800280000000000FFFFC636813B0000
(00.013002) can0 E3#41000208021AD46DD2A0191839060B08001111180000D0FF
(00.013305) can0 DB#390E022A3E004800650AD4C1199C110047403E49E0D16CC24D85DA4D8E82F847CE43068867E9FFFFFFFFC72CF5700000
(00.017669) can0 E3#008000042B850700
(00.018481) can0 DB#390E010F7C00FFFFFFFFFFFFFF4FD308BCFDFF390E0308413C18F8FFFFFFFF00
(00.021380) can0 18E19490#04020002000200F636EB0C2A0022014F010806010101010200000000000000000000000000000000000000000000000000000000000000001311001505150000
(00.023035) can0 DB#390E00208F0B9C0D4880831A3F008095564DC114B3281D5C060300F1FFFFFFFFC83C1243390F001522029C20FFFF7FCFFFFF3FFFFFFFFFFFFFC89C5231000000
(00.027680) can0 2D#DDD37704C409001000800020FA6004000800A0FEFFFF7FE001D239FFFFFFFF00FEFFCC75A47400000000000000000000
(00.028214) can0 D4#39040604D0EE4D84
(00.028374) can0 E3#02800008A54E7F0183331883
