(00.000624) can0 2D#4FB9D804C4090090709758624652A52BD8E030FFFFFF7F4002D235FFFFFFFF00FEFF8FB4911300000000000000000000
(00.001144) can0 DC#391000162024CE0E9A010023A8352C0000000000FFFF8972AF12000000000000
(00.001527) can0 18E19490#0000000155555555056806D8030000EF0167013B028D0000830191010000F908EB08000056545211011201D0019D01780157015654513F031311001505150000
(00.002312) can0 DB#390E010FDC35FFFFFFFFFFFFFF0FD408BCFDFF390E0308664E9AF8FFFFFFFF00
(00.003193) can0 D9#391300158C51CE0DA06DCDBD0F1250F0FFFFFFFFFF8CD27ADE00000000000000
(00.005828) can0 E3#41000008023439378DD10F23
(00.006993) can0 DB#390E00204EC4EC24B881831A3F2380956C4DC116B3281D5C050300F1FFFFFFFF8C2D8D04390F00152558EC20FFFF7FCFFFFF3FFFFFFFFFFFFF8CA52847000000
(00.015918) can0 E3#41000108011B96528D8A18D6410000080355946FDB000000
(00.017107) can0 DB#390E04105CE30B4C24B4DBFF4FAE6C7DEBFFFFFF390F01064D850460BC230000
(00.017635) can0 DC085D#4002000000000000
(00.020513) can0 2D#50B0D904C4090090709758624652A52BD8E030FFFFFF7F4002D235FFFFFFFF00FEFF91BDF78500000000000000000000
(00.021032) can0 D4#390C140CFFFFFFFFFDFFFFFFFFFFFFFF
(00.021271) can0 DC#39100110554340005610E142E99C122095C0FFF539100016048CCF0E9A010023A8352C0000000000FFFF8D1914130000
(00.022220) can0 DB#390E0020DAE0ED24B881831A3F2380956C4DC116B3281D5C050300F1FFFFFFFF8E50BA5F000000000000000000000000
(00.022985) can0 D9#3913001551F1CF0DA06D4DBE0F1250F0FFFFFFFFFF8E4BB5B200000000000000
(00.027330) can0 DB#390F0015C748ED20FFFF7FCFFFFF3FFFFFFFFFFFFF8EFA4C1500000000000000
(00.030465) can0 E3#39060B08001111180000D0FF4100010802AB000002000290
(00.031127) can0 18E19490#01E9016A0D8501800CF100BC02060620030000401F01BF03AC0DF206012003580E01FB06880C000001010000EC37D007AC0D401F0C4D0A581311001505150000
(00.040531) can0 2D#71ABDA04C4090090709758624652A52BD8E030FFFFFF7F4002D235FFFFFFFF00FEFF93D0911200000000000000000000
(00.041050) can0 4F#28F20C002799836F
(00.041214) can0 DC#3910001614D6D00E9A010023A8352C0000000000FFFF8F7E7584000000000000
(00.041597) can0 E3#00800004CD832504
(00.042363) can0 DB#390E0020668DEE24B881831A3F2380956C4DC116B3281D5C050300F1FFFFFFFF90AA3B1F000000000000000000000000
(00.043179) can0 D9#39130015C169D00DA06D0DBE0F1258F0FFFFFFFFFF8F69FAFB00000000000000
(00.047069) can0 DB#390F0015E179EE20FFFF7FCFFFFF3FFFFFFFFFFFFF90065DFA00000000000000
(00.001908) can0 DB#390F00152764CC20FFFF7FCFFFFF3FFFFFFFFFFFFF4CD84BF000000000000000
(00.005288) can0 E3#4100050800800343D07A4EEA
(00.005702) can0 18E19490#04560154010F002A30EE0C710D220185010803010101010100000000000000000000000000000000000000000000000000000000000000001311001505150000
(00.015327) can0 D4#39040C050E0FF8FFFF390C1608FFFFFFFFFFFFFFFF3915011445F991E1F85FF5FFFFFFFFFE0700A12899FEFFFF000000
(00.015852) can0 2D#13E4B904C4090090709758624652A52BD8E030FFFFFF7F4002D235FFFFFFFF00FEFF515E56DA00000000000000000000
(00.016373) can0 D4#390C083CFE7403800000086C953E2483FF33185A7007C501A82CE07C8FB30400009E053C400B5AD08216B4A0052D68FBA06BFE7FB3E600FFC9FFFFFF833EE4FF
(00.017028) can0 DC#391000163846AF0E9A010023A8352C0000000000FFFF4D49523C000000000000
(00.017409) can0 DB#390E00206542CD24B881831A3F2380D56C4DC116B3281D5C060300F1FFFFFFFF4E60C16E000000000000000000000000
(00.018014) can0 D9#3913010B58BA38559500FE03BAFFEF39130015C8B0AF0DA06D4DBD0F1250F0FFFFFFFFFF4E33750F0000000000000000
(00.020612) can0 E3#39042208003D877E781FFAFF410005080128E6220AB16406
(00.022036) can0 DB#390F0015C574CD20FFFF7FCFFFFF3FFFFFFFFFFFFF4EF28EA700000000000000
(00.035428) can0 2D#32FFBA04C4090090709758624652A52BD8E030FFFFFF7F4002D235FFFFFFFF00FEFF53C1FD9300000000000000000000
(00.035949) can0 DC#39100016281CB00E9A010023A8352C0000000000FFFF4FA52FFF000000000000
(00.036336) can0 18E19490#0000000155555555056806D8030000EF0167013B028D0000850191010000EE08EC08000056545210011001D0019C017801560154555150031311001505150000
(00.037143) can0 DB#390E010FD835FFFFFFFFFFFFFF0FD408BCFDFF390E0020D92FCE24B881831A3F2380D56C4DC116B3281D5C060300F1FFFFFFFF506FE9E7000000000000000000
(00.037804) can0 D9#391300155828B00DA06D0DBD0F1258F0FFFFFFFFFF4FA9D89500000000000000
(00.040877) can0 DC085B#4003080400000000
(00.041949) can0 DB#390F0015E345CE20FFFF7FCFFFFF3FFFFFFFFFFFFF505281E700000000000000
(00.001270) can0 DB#390F0015C330AD20FFFF7FCFFFFF3FFFFFFFFFFFFF0F7A04C000000000000000
(00.014725) can0 2D#F3CC9A04C4090090709758624652A52BD8E030FFFFFF7F4002D235FFFFFFFF00FEFF1385F2C400000000000000000000
(00.015245) can0 D4#3904060400065484
(00.015407) can0 DC#391000163C5A900E9A010023A8352C0000000000FFFF0F2C8837000000000000
(00.016514) can0 DB#390E0020DAEFAE24A881831A3F2380956C4DC116B3281D5C060300F1FFFFFFFF11E93809000000000000000000000000
(00.017118) can0 D9#39130015154B900DA06D4DBE0F1258F0FFFFFFFFFF10C9E75500000000000000
(00.021277) can0 DB#390F0015E501AE20FFFF7FCFFFFF3FFFFFFFFFFFFF11451E6900000000000000
(00.024636) can0 E3#4100050800800343D07A134F
(00.025030) can0 18E19490#04560154010F002A30EA0C720D220185010803010101010100000000000000000000000000000000000000000000000000000000000000001311001505150000
(00.034738) can0 2D#ECC59B04C4090090709758624652A52BD8E030FFFFFF7F4002D235FFFFFFFF00FEFF153B1C1400000000000000000000
(00.035258) can0 DC#3910001618F2910E9A010023A8352C0000000000FFFF11BFF93B000000000000
(00.036468) can0 DB#390E00204ECBAF24A881831A3F2380956C4DC116B3281D5C060300F1FFFFFFFF1386B4FF000000000000000000000000
(00.037212) can0 D9#3913010B58BA38559500FE03BAFFEF391300152701910DA06D0DBE0F1258F0FFFFFFFFFF122EE7490000000000000000
(00.040088) can0 D4#39040C050E0FF8FFFF3915011445F991E1F85FF5FFFFFFFFFE0700A12899FEFFFF000000000000000000000000000000
(00.040619) can0 E3#39042208003D877E780FFAFF4100050801DC2DBE68D181F7
(00.041339) can0 DB#390F00150711AF20FFFF7FCFFFFF3FFFFFFFFFFFFF138755FE00000000000000
(00.002999) can0 18E19490#036806C8165AD2110E110E1E00EF00F7000000030103010000EF01EF01000000000602011000AC0D0E0E0F0E1E0094DC056216D20C841C001311001505150000
(00.007109) can0 44#04
(00.012887) can0 2D#E41C8304C4090090709758624652A52BD8E030FFFFFF7F4002D235FFFFFFFF00FEFFE5F4C3CF00000000000000000000
(00.013409) can0 DC#39100016D021790E9A010023A8352C0000000000FFFFE17F059A000000000000
(00.014599) can0 DB#390E010FDC35FFFFFFFFFFFFFF0FD408BCFDFF390E002006F59724A881831A3F2380956C4DC116B3281D5C050300F1FFFFFFFFE33D61C2000000000000000000
(00.015259) can0 D9#3913001529F1790DA06DCDBD0F1250F0FFFFFFFFFFE2E95D0300000000000000
(00.019351) can0 DB#390F001514B49720FFFF7FCFFFFF3FFFFFFFFFFFFFE36DE60800000000000000
(00.022719) can0 E3#3A020004F9FFFFFF
(00.032781) can0 2D#B9238404C4090090709758624652A52BD8E030FFFFFF7F4002D235FFFFFFFF00FEFFE78400DA00000000000000000000
(00.033304) can0 D4#390C140CFFFFFFFFFDFFFFFFFFFFFFFF
(00.033543) can0 DC#391001105543403856105946E99C112095C0FFF1391000169DC97A0E9A010023A8352C0000000000FFFFE3AF65A50000
(00.034057) can0 18E19490#04550156010F003430EB0C720D220185010803010101010100000000000000000000000000000000000000000000000000000000000000001311001505150000
(00.034776) can0 DB#390E002019DC9824A881831A3F2380556C4DC116B3281D5C060300F1FFFFFFFFE5C75DCE000000000000000000000000
(00.035296) can0 D9#39130015DF9A7A0DA06D8DBD0F1250F0FFFFFFFFFFE4EBEA8600000000000000
(00.039439) can0 DB#390F0015AA419820FFFF7FCFFFFF3FFFFFFFFFFFFFE59F16CA00000000000000
(00.042715) can0 E3#39060B08001111180000D0FF
(00.042982) can0 DC08E2#4003000000000000
(00.008060) can0 2D#DFA36704C4090090709758624652A52BD8E030FFFFFF7F4002D235FFFFFFFF00FEFFAD9EC92C00000000000000000000
(00.008581) can0 DC#3910001616E75D0E9A010023A8352C0000000000FFFFA9805C52000000000000
(00.008963) can0 E3#008000049CAA0E040500000CF5FCFF0000000000AFD24575
(00.009843) can0 DB#390E0020685A7B24B881831A3F2380D56C4DC116B3281D5C060300F1FFFFFFFFABF85999000000000000000000000000
(00.010531) can0 D9#3913001573D45D0DA06D8DBD0F1250F0FFFFFFFFFFAA01EDC500000000000000
(00.014564) can0 DB#390F001582C47B20FFFF7FCFFFFF3FFFFFFFFFFFFFAB31422400000000000000
(00.018157) can0 18E19490#0000000155555555056806D8030000EF0167013B028D0000850190010000F508F108000056545211011101D0019D01780156015655513C031311001505150000
(00.028018) can0 2D#7AD46804C4090090709758624652A52BD8E030FFFFFF7F4002D235FFFFFFFF00FEFFAF16C7A600000000000000000000
(00.028537) can0 D4#39040604FDBF4A84
(00.028698) can0 DC#391000165B0F5E0E9A010023A8352C0000000000FFFFAB166932000000000000
(00.029808) can0 DB#390E0020F0647C24B881831A3F2380956C4DC116B3281D5C060300F1FFFFFFFFAD4933D1000000000000000000000000
(00.030404) can0 D9#3913001585BF5E0DA06DCDBD0F1250F0FFFFFFFFFFACE0E8B700000000000000
(00.034573) can0 DB#390F00152CB67C20FFFF7FCFFFFF3FFFFFFFFFFFFFADF97E3200000000000000
(00.037924) can0 E3#4100050800800343D079AFF2
(00.048017) can0 2D#65DD6904C4090090709758624652A52BD8E030FFFFFF7F4002D235FFFFFFFF00FEFFB1BCB49B00000000000000000000
(00.048536) can0 DC#391000167FA75F0E9A010023A8352C0000000000FFFFADC438D1000000000000
(00.048920) can0 18E19490#01E6016A0D8501800CF100BC02060620030000401F013502AC0DF2060120035C0E01F906860C000001010000D437D007AC0D401F0C3722581311001505150000
(00.000002) can0 49969A2#B6241597A1890CB6
(00.000559) can0 D9#3913001537AE400DA06D0DBE0F1250F0FFFFFFFFFF708F486500000000000000
(00.004773) can0 DB#390F0015EAAB5E20FFFF7FCFFFFF3FFFFFFFFFFFFF716855AE00000000000000
(00.008086) can0 E3#4100050800800343D0797363
(00.018162) can0 2D#9AFC4B04C4090090709758624652A52BD8E030FFFFFF7F4002D235FFFFFFFF00FEFF75DF354800000000000000000000
(00.018683) can0 DC#391000164B55410E9A010023A8352C0000000000FFFF716425F5000000000000
(00.019066) can0 18E19488#021003AAAAAAAAAA
(00.019263) can0 18E19490#01E8016A0D8501800CF100BC02060620030000401F01BD03AC0DEF06012003500E01F906860C000001010000D437D007AC0D401F0C3118581311001505150000
(00.019963) can0 DB#390E0020876A5F24B881831A3F2380956C4DC116B3281D5C050300F1FFFFFFFF734B2E8D000000000000000000000000
(00.020683) can0 D9#3913010B58BA38559500FE03BAFFEF3A001A080501000000000000391300154ABB410DA06D0DBD0F1250F0FFFFFFFFFF72A24E5F000000000000000000000000
(00.023374) can0 D4#39040C050E0FF8FFFF3915011445F991E5F85FF5FFFFFFFFFE0700A12899FEFFFF000000000000000000000000000000
(00.023905) can0 E3#39042208003D877E780FFAFF4100050801CD442FD1741F35
(00.024779) can0 DB#390F001508BB5F20FFFF7FCFFFFF3FFFFFFFFFFFFF738651B700000000000000
(00.028320) can0 18E19480#065003001400C8AA
(00.038214) can0 2D#C7C34C04C4090090709758624652A52BD8E030FFFFFF7F4002D235FFFFFFFF00FEFF774F07A900000000000000000000
(00.038736) can0 DC#3910001606BD420E9A010023A8352C0000000000FFFF733A66E7000000000000
(00.039942) can0 DB#390E010FDC35FFFFFFFFFFFFFF0FD408BCFDFF390E002023AB6024B881831A3F2380956C4DC116B3281D5C060300F1FFFFFFFF755FD6B8000000000000000000
(00.040601) can0 D9#39130015B93C420DA06D8DBC0F1250F0FFFFFFFFFF74A21FCC00000000000000
(00.044712) can0 DB#390F0015B56C6020FFFF7FCFFFFF3FFFFFFFFFFFFF751B558E00000000000000
(00.048275) can0 18E19490#02840064646401000427560202000000000000000F011301BF04BF04BF040200FDFF00005014BF0572057E13000004027808800CD00FED0B1311001505150000
(00.000205) can0 DB#390E00207D1E4024A881831A3F2380956C4DC116B3281D5C060300F1FFFFFFFF3586ECA7000000000000000000000000
(00.002118) can0 D9#391300156ACE220DA06D0DBD0F1250F0FFFFFFFFFF33E1995D00000000000000
(00.004967) can0 DB#390F0015B7504020FFFF7FCFFFFF3FFFFFFFFFFFFF35571AEB00000000000000
(00.008317) can0 E3#4100050800800343D07937DD
(00.018399) can0 DC#391000161EDF230E9A010023A8352C0000000000FFFF35F1C039000000000000
(00.018783) can0 2D#9B9E2D04C4090090709758624652A52BD8E030FFFFFF7F4002D235FFFFFFFF00FEFF39B4AA1900000000000000000000
(00.019301) can0 18E19490#01E6016A0D8501800CF100BC02060620030000401F01BD03AC0DF206012003580E01FA06860C000001010000EC37D007AC0D401F0C2B0E581311001505150000
(00.020159) can0 DB#390E0020E93A4124A881831A3F2380956C4DC116B3281D5C060300F1FFFFFFFF37D7913A000000000000000000000000
(00.020845) can0 D9#3913010B58BA38559500FE03BAFFEF391300155884230DA06D4DBD0F1250F0FFFFFFFFFF35CC9DF50000000000000000
(00.023615) can0 D4#39040C050E0FF8FFFF3915011445F991E1F85FF5FFFFFFFFFE0700A12899FEFFFF000000000000000000000000000000
(00.024145) can0 E3#39042208003D877E780FFAFF4100050801BEE3E90057EBF8
(00.025023) can0 DB#390F001555404120FFFF7FCFFFFF3FFFFFFFFFFFFF3759066400000000000000
(00.038373) can0 DC#3910001681B7240E9A010023A8352C0000000000FFFF3743EF7B000000000000
(00.038757) can0 2D#BA852E04C4090090709758624652A52BD8E030FFFFFF7F4002D235FFFFFFFF00FEFF3BD60A6000000000000000000000
(00.040213) can0 DB#390E010FDC35FFFFFFFFFFFFFF0FD408BCFDFF390E002055574224A881831A3F2380956C4DC116B3281D5C060300F1FFFFFFFF39AB8AB4000000000000000000
(00.040870) can0 D9#391300158619240DA06D8DBD0F1250F0FFFFFFFFFF38C953C200000000000000
(00.045060) can0 DB#390F001573714220FFFF7FCFFFFF3FFFFFFFFFFFFF39D8938300000000000000
(00.048415) can0 18E19490#028400646464010006275402030000000000000010011301BF04C104C0040200FDFF00004814C30572058413000006027808800C6E0FED0B1311001505150000
(00.007233) can0 2D#4D7D1404C4090090709758624652A52BD8E030FFFFFF7F4002D235FFFFFFFF00FEFF0745828A00000000000000000000
(00.007755) can0 DC#39100016AB200A0E9A010023A8352C0000000000FFFF036A0330000000000000
(00.008961) can0 DB#390E0020449A2824B881831A3F2380956C4DC116B3281D5C050300F1FFFFFFFF0523D0B9000000000000000000000000
(00.009481) can0 D9#3913010B58BA38559500FE03BAFFEF39130015089A0A0DA06DCDBD0F1250F0FFFFFFFFFF037741150000000000000000
(00.011878) can0 E3#39042208003DC67E782FFEFF4100010804510000400400003980000C007FA68F1630B0FE090383A63E800108C3022DF0BA00E0FF4100050801BF8A1FFF7FB88B
(00.012537) can0 D4#39040C050E0FF8FFFF000000
(00.013803) can0 DB#390F0015A1932820FFFF7FCFFFFF3FFFFFFFFFFFFF05DEE7EA00000000000000
(00.021525) can0 44#04
(00.027183) can0 DC#391000168F880B0E9A010023A8352C0000000000FFFF054B740E000000000000
(00.027568) can0 2D#52741504C4090090709758624652A52BD8E030FFFFFF7F4002D235FFFFFFFF00FEFF094FB90C00000000000000000000
(00.028089) can0 18E19490#0000000155555555056806D8030000EF0167013B028D000084018F010000F908F208000056545210011001D0019D017801560154555139031311001505150000
(00.028965) can0 DB#390E010FDC35FFFFFFFFFFFFFF0FD408BCFDFF390E00208AD92924A881831A3F2380956C4DC116B3281D5C050300F1FFFFFFFF07067382000000000000000000
(00.029626) can0 D9#3913001505600B0DA06D0DBE0F1250F0FFFFFFFFFF0641B2A200000000000000
(00.033756) can0 DB#390F001543832920FFFF7FCFFFFF3FFFFFFFFFFFFF07418D8700000000000000
(00.037175) can0 DC#39FE6F08940100C003000000
(00.047147) can0 2D#736F1604C4090090709758624652A52BD8E030FFFFFF7F4002D235FFFFFFFF00FEFF0B1D9F5F00000000000000000000
(00.047669) can0 D4#390C140CFFFFFFFFFDFFFFFFFFFFFFFF
(00.047908) can0 DC#39100110554340005610A902E89C112095C0FFF13910001610E00C0E9A010023A8352C0000000000FFFF07E0CDF60000
(00.048907) can0 DB#390E002036B42A24A881831A3F2380956C4DC116B3281D5C050300F1FFFFFFFF09A26053000000000000000000000000
(00.049559) can0 D9#3913001534170C0DA06D0DBD0F1250F0FFFFFFFFFF083255BD00000000000000
(00.010647) can0 DC#391000160090F00E9A010023A8352C0000000000FFFFCFB00EDC000000000000
(00.011032) can0 2D#B098FA04C4090090709758624652A52BD8E030FFFFFF7F4002D235FFFFFFFF00FEFFD3B05D3A00000000000000000000
(00.011555) can0 D4#39040604D25F3484
(00.011715) can0 18E19490#02840064646401000527540203000000000000000F011301BF04C104C0040200FCFF00005414BF0573058413000005027808800C9F0FED0B1311001505150000
(00.012563) can0 DB#390E0020AD450E24A881831A3F2380956C4DC116B3281D5C060300F1FFFFFFFFD1BF2DBF000000000000000000000000
(00.013083) can0 D9#39130015F909F00DA06D4DBC0F1258F0FFFFFFFFFFCF09334C00000000000000
(00.017363) can0 DB#390F0015EFCD0E20FFFF7FCFFFFF3FFFFFFFFFFFFFD1DFC55300000000000000
(00.020675) can0 E3#4100050800800343D078D3B2
(00.030687) can0 DC#391000162438F10E9A010023A8352C0000000000FFFFD1086F36000000000000
(00.031068) can0 2D#AF91FB04C4090090709758624652A52BD8E030FFFFFF7F4002D235FFFFFFFF00FEFFD519218C00000000000000000000
(00.032552) can0 DB#390E0020F6D00F24A881831A3F2380956C4DC116B3281D5C050300F1FFFFFFFFD390D89B000000000000000000000000
(00.033073) can0 D9#3913010B58BA38559500FE03BAFFEF39130015BBACF10DA06DCDBC0F1258F0FFFFFFFFFFD15F02030000000000000000
(00.035990) can0 D4#39040C050E0FF8FFFF3915011445F991E1F85FF5FFFFFFFFFE0700A12899FEFFFF000000000000000000000000000000
(00.036520) can0 E3#39042208003D877E780FFAFF41000508018795A39BAC0FB4
(00.037417) can0 DB#390F00150DDD0F20FFFF7FCFFFFF3FFFFFFFFFFFFFD3EDE48200000000000000
(00.040707) can0 18E19490#036806BA165CD2110E110E1E00F000F5000000030103010000EF01EF01000000000602011000AC0D0D0E0E0E1E0094DC056216D20C841C001311001505150000
(00.004711) can0 E3#41000108011B96528D8A18D6
(00.006210) can0 DB#390E04105CE30B4C24B4DBFF3FAE6C79EBFFFFFF390F01064D850460B4190000
(00.006746) can0 DC085D#4003000000000000
(00.009400) can0 DC#391001105543403056105112E99C112095C0FFF139100016E2FED50E9A010023A8352C0000000000FFFF999E81890000
(00.009916) can0 2D#E757DF04C4090090709758624652B52BC8E030FFFFFF7F4002D235FFFFFFFF00FEFF9D1AAA1200000000000000000000
(00.010437) can0 D4#390C140CFFFFFFFFFDFFFFFFFFFFFFFF
(00.010677) can0 18E19490#04540155010E003430ED0C710D220184010803010101010100000000000000000000000000000000000000000000000000000000000000001311001505150000
(00.011395) can0 DB#390E0020465BF324A881831A3F2480556C4DC116B3281D5C050300F1FFFFFFFF9BD2B466000000000000000000000000
(00.011913) can0 D9#39130015E189D50DA06D8DBC0F1258F0FFFFFFFFFF9AD3D89300000000000000
(00.014690) can0 E3#4100000803FBDF6F3364000039060B08001111180000D0FF
(00.016243) can0 DB#390F00159AB3F320FFFF7FCFFFFF3FFFFFFFFFFFFF9B5334FF00000000000000
(00.024668) can0 E3#4100010802AB00000200029C
(00.029383) can0 DC#39100016AF16D60E9A010023A8352C0000000000FFFF9B1CDD86000000000000
(00.029765) can0 2D#7382E004C4090090709758624652B52BC8E030FFFFFF7F4002D235FFFFFFFF00FEFF9F24A64300000000000000000000
(00.030287) can0 4F#28D9020027A23A03
(00.030451) can0 E3#00800004570CF304
(00.031441) can0 DB#390E002097FEF424A881831A3F2380956C4DC116B3281D5C050300F1FFFFFFFF9D0CDE40000000000000000000000000
(00.031961) can0 D9#39130015B2BBD60DA06D8DBD0F1258F0FFFFFFFFFF9B7EF5A900000000000000
(00.036106) can0 DB#390F001534C1F420FFFF7FCFFFFF3FFFFFFFFFFFFF9D2F8E4D00000000000000
(00.039428) can0 18E19490#0000000155555555056806D8030000EF0167013B028D0000850190010000EE08E708000056545210011001D0019D017801560156555135031311001505150000
(00.044744) can0 E3#02800008517BFC018333188341000108035CE57F422EF483
(00.049447) can0 DC#391000168BBED70E9A010023A8352C0000000000FFFF9DFE97E2000000000000
(00.003574) can0 4F#205D01A00049A809
(00.007669) can0 44#04
(00.013159) can0 DC#39100016E0E5BB0E9A010023A8352C0000000000FFFF63B69C33000000000000
(00.013541) can0 2D#244DC504C4090090709758624652A52BD8E030FFFFFF7F4002D235FFFFFFFF00FEFF6922448500000000000000000000
(00.015178) can0 DB#390E010FC035FFFFFFFFFFFFFF0FD408BCFDFF390E00208CC9D924B881831A3F2380956C4DC116B3281D5C050300F1FFFFFFFF67BE3106000000000000000000
(00.015838) can0 D9#3913001521C1BB0DA06D4DBE0F1258F0FFFFFFFFFF661FF4FB00000000000000
(00.020029) can0 DB#390F00154C29D920FFFF7FCFFFFF3FFFFFFFFFFFFF67422CC400000000000000
(00.023195) can0 18E19490#02840064646401000627560203000000000000000F011301BE04C104C0040200FDFF00004A14C50572057E13000005027808800C820FED0B1311001505150000
(00.033240) can0 DC#391001105543403256102952E99C122095C0FFF5391000167F8DBC0E9A010023A8352C0000000000FFFF67D23C630000
(00.033756) can0 2D#0556C604C4090090709758624652A52BD8E030FFFFFF7F4002D235FFFFFFFF00FEFF6BD8C91F00000000000000000000
(00.034277) can0 D4#390C140CFFFFFFFFFDFFFFFFFFFFFFFF
(00.035262) can0 DB#390E00206AC3DA24A881831A3F2380956C4DC116B3281D5C050300F1FFFFFFFF69030F31000000000000000000000000
(00.035781) can0 D9#391300156059BC0DA06D8DBD0F1258F0FFFFFFFFFF68119E2500000000000000
(00.039966) can0 DB#390F00156A18DA20FFFF7FCFFFFF3FFFFFFFFFFFFF69AACA6100000000000000
(00.043322) can0 E3#39060B08001111180000D0FF
(00.000198) can0 DC#39100110554340005610F142E99C122095C0FFF5391000169DE3990E9A010023A8352C0000000000FFFF2184FF490000
(00.000713) can0 2D#252FA304C4090090709758624652A52BD8E030FFFFFF7F4002D235FFFFFFFF00FEFF25B8452900000000000000000000
(00.001232) can0 D4#390C140CFFFFFFFFFDFFFFFFFFFFFFFF
(00.001472) can0 18E19490#04550156010F003E30E80C720D220185010803010101010100000000000000000000000000000000000000000000000000000000000000001311001505150000
(00.002351) can0 DB#390F01064D8504607819390E0020E330B724B881831A3F2380D56C4DC116B3281D5C060300F1FFFFFFFF23863EA60000
(00.002858) can0 D9#3913001578D9990DA06D4DBD0F1258F0FFFFFFFFFF22772E9800000000000000
(00.007064) can0 DB#390F00151688B720FFFF7FCFFFFF3FFFFFFFFFFFFF23F224BC00000000000000
(00.010362) can0 E3#39060B08001111180000D0FF
(00.020193) can0 DC#39100016D00B9A0E9A010023A8352C0000000000FFFF238DC51A000000000000
(00.020576) can0 2D#7810A404C4090090709758624652A52BD8E030FFFFFF7F4002D235FFFFFFFF00FEFF27899A1400000000000000000000
(00.021097) can0 E3#0080000401DDE7043204000C3B508853670700F025F6E177
(00.022210) can0 21C#11020104000001F403E805DC07D009C40DAC138819641F402328251C271000000000000000000000000000000000000000000000000000000000000000000000
(00.022897) can0 D9#39130015FE5D9A0DA06DCDBD0F1258F0FFFFFFFFFF24F6B49100000000000000
(00.023273) can0 DB#390E0020FA3AB824B881831A3F2380956C4DC116B3281D5C060300F1FFFFFFFF24291D12000000000000000000000000
(00.023792) can0 21D#304028
(00.023950) can0 21C#21000000000000000000000000000000000000000000000000000000000000000000000000000000000000000000000000000000000000000000000000000000
(00.027072) can0 DB#390F0015A87DB820FFFF7FCFFFFF3FFFFFFFFFFFFF24168C4500000000000000
(00.030235) can0 18E19490#0000000155555555056806D8030000EF0167013B028D000085018F010000F908E808000056545211011101D0019C017801560156555132031311001505150000
(00.040297) can0 DC#39100016F4A39B0E9A010023A8352C0000000000FFFF25C5A95D000000000000
(00.040679) can0 2D#6719A504C4090090709758624652A52BD8E030FFFFFF7F4002D235FFFFFFFF00FEFF299F1AD500000000000000000000
(00.041198) can0 D4#3904060458152384
(00.042348) can0 DB#390E00206E1EB924B881831A3F2380956C4DC116B3281D5C060300F1FFFFFFFF26078C13000000000000000000000000
(00.042867) can0 D9#3913001523FD9B0DA06D4DBE0F1258F0FFFFFFFFFF26BEA22900000000000000
(00.047076) can0 DB#390F00154A6DB920FFFF7FCFFFFF3FFFFFFFFFFFFF2666A1D000000000000000
(00.047610) can0 21C#22000000000000000000000000000000000000000000000000000000000000000000000000000000000000000000000000000000000000000000000000000000
(00.000340) can0 D4#39040C050E0FF8FFFF3915011445F991E1F85FF5FFFFFFFFFE0700A12899FEFFFF000000000000000000000000000000
(00.000870) can0 E3#39042208003D877E780FFAFF41000508012776E463D65DA6
(00.001791) can0 DB#390F001514B49720FFFF7FCFFFFF3FFFFFFFFFFFFFE2D4FD7000000000000000
(00.004937) can0 18E19490#036806C1165ED20F0E0F0E1E00F300F2000000020102010000EF01EF01000000000402011000AC0D0E0E0F0E1E0094DA055B16D50C841C001311001505150000
(00.014868) can0 DC#391000169DC97A0E9A010023A8352C0000000000FFFFE2D58B4C000000000000
(00.015250) can0 2D#B9238404C4090090709758624652A52BD8E030FFFFFF7F4002D235FFFFFFFF00FEFFE71CA24A00000000000000000000
(00.016950) can0 DB#390E010FDC35FFFFFFFFFFFFFF0FD408BCFDFF390E0020A48F9824A881831A3F2380956C4DC116B3281D5C060300F1FFFFFFFFE53231A4000000000000000000
(00.017611) can0 D9#3913001580067A0DA06D0DBD0F1258F0FFFFFFFFFFE4E48D7D00000000000000
(00.021739) can0 DB#390F0015AA419820FFFF7FCFFFFF3FFFFFFFFFFFFFE5E0D47900000000000000
(00.034813) can0 DC#39100110554340005610C112E99C122095C0FFF539100016B9617B0E9A010023A8352C0000000000FFFFE598F4620000
(00.035328) can0 2D#A62A8504C4090090709758624652A52BD8E030FFFFFF7F4002D235FFFFFFFF00FEFFE9F8C18100000000000000000000
(00.035850) can0 D4#390C140CFFFFFFFFFDFFFFFFFFFFFFFF
(00.036090) can0 18E19490#04540155010E003E30ED0C710D220185010803010101010100000000000000000000000000000000000000000000000000000000000000001311001505150000
(00.037017) can0 DB#390F01064D8504603C19390E002030AB9924A881831A3F2380956C4DC116B3281D5C060300F1FFFFFFFFE7A8C02C0000
(00.037525) can0 D9#3913001567FA7B0DA06DCDBC0F1258F0FFFFFFFFFFE612509400000000000000
(00.041735) can0 DB#390F001548519920FFFF7FCFFFFF3FFFFFFFFFFFFFE73A088500000000000000
(00.045026) can0 E3#39060B08001111180000D0FF
(00.007954) can0 DC#391000165B0F5E0E9A010023A8352C0000000000FFFFAB959142000000000000
(00.008420) can0 2D#7AD46804C4090090709758624652A52BD8E030FFFFFF7F4002D235FFFFFFFF00FEFFAF5305EF00000000000000000000
(00.008940) can0 E3#00800004DABEDB04
(00.010313) can0 DB#390E0020AA037C24A881831A3F2380956C4DC116B3281D5C060300F1FFFFFFFFAD39C84E000000000000000000000000
(00.010833) can0 D9#39130015DFCF5E0DA06D8DBC0F1258F0FFFFFFFFFFACFC7FC200000000000000
(00.015014) can0 DB#390F00152CB67C20FFFF7FCFFFFF3FFFFFFFFFFFFFADD8228900000000000000
(00.018090) can0 18E19490#0000000155555555056806D8030000EF0167013B028D000082018C010000F008E908000056545210011001D0019C017701560156565150031311001505150000
(00.028021) can0 DC#391000167FA75F0E9A010023A8352C0000000000FFFFADDC84B1000000000000
(00.028405) can0 2D#65DD6904C4090090709758624652A52BD8E030FFFFFF7F4002D235FFFFFFFF00FEFFB1933B3A00000000000000000000
(00.028925) can0 D4#3904060440F31784
(00.030293) can0 DB#390E00204CC57D24A881831A3F2380556C4DC116B3281D5C050300F1FFFFFFFFAF5A41F2000000000000000000000000
(00.031183) can0 D9#39130015E8695F0DA06D0DBD0F1258F0FFFFFFFFFFAE40B69000000000000000
(00.035022) can0 DB#390F0015CEA67D20FFFF7FCFFFFF3FFFFFFFFFFFFFAF5C53AF00000000000000
(00.038320) can0 E3#4100050800800343D077B1F5
(00.047981) can0 DC#391000167BBB600E9A010023A8352C0000000000FFFFAFC4929C000000000000
(00.048364) can0 18E19490#01E6016A0D8501800CF100BC02060620030000401F01BD03AC0DEB06012003480E01FD067E0C000001010000DC37D007AC0D401F0C0419581311001505150000
(00.049066) can0 2D#B1176A04C4090090709758624652B52BC8E030FFFFFF7F4002D235FFFFFFFF00FEFFB3505EA400000000000000000000
(00.000358) can0 DB#390F0015714D6220FFFF7FCFFFFF3FFFFFFFFFFFFF7853E9BC00000000000000
(00.003583) can0 E3#39060B08001111180000D0FF
(00.013208) can0 DC#3910001699D5450E9A010023A8352C0000000000FFFF789BEEEA000000000000
(00.013591) can0 18E19490#036806C8165CD2100E100E1E00F500EE000000020102010000EF01EF01000000000402011000AC0D0D0E0D0E1E0094DB056016D40C841C001311001505150000
(00.014286) can0 2D#E6D84F04C4090090709758624652A52BD8E030FFFFFF7F4002D235FFFFFFFF00FEFF7D0BE28D00000000000000000000
(00.014806) can0 E3#008000045C87D6040500000CF5FCFF00000000007FEEAC8E
(00.015670) can0 DB#390E002045A86324A881831A3F2480956C4DC116B3281D5C060300F1FFFFFFFF7A11E80F000000000000000000000000
(00.016188) can0 D9#39130015A2D4450DA06D0DBE0F1258F0FFFFFFFFFF79715E3700000000000000
(00.020310) can0 DB#390F0015935D6320FFFF7FCFFFFF3FFFFFFFFFFFFF7A87037B00000000000000
(00.029037) can0 18E02988#0319020DAAAAAAAA
(00.031178) can0 18E02980#035902FFFFFFFFFF
(00.033218) can0 DC#39100016D43D460E9A010023A8352C0000000000FFFF7A952A70000000000000
(00.033679) can0 2D#B33E5004C4090090709758624652A52BD8E030FFFFFF7F4002D235FFFFFFFF00FEFF7FEF6B2200000000000000000000
(00.034201) can0 D4#39040604054F1284
(00.035588) can0 DB#390E0020940D6424A881831A3F2380556C4DC116B3281D5C060300F1FFFFFFFF7C8FF00D000000000000000000000000
(00.036563) can0 D9#39130015DB79460DA06D8DBE0F1250F0FFFFFFFFFF7B22938200000000000000
(00.040317) can0 DB#390F00153D2F6420FFFF7FCFFFFF3FFFFFFFFFFFFF7C75587D00000000000000
(00.043337) can0 18E19490#04570154010E003E30EB0C720D220185010803010101010100000000000000000000000000000000000000000000000000000000000000001311001505150000
(00.044057) can0 E3#4100050800800343D0777F20
(00.008163) can0 DC#3910001604A62C0E9A010023A8352C0000000000FFFF470F75A2000000000000
(00.008634) can0 2D#B25C3604C4090090709758624652A52BD8E030FFFFFF7F4002D235FFFFFFFF00FEFF4BC60DDB00000000000000000000
(00.009153) can0 E3#0080000471D6D104
(00.010573) can0 DB#390E00201BD24A24A881831A3F2380956C4DC116B3281D5C050300F1FFFFFFFF497C8DBB000000000000000000000000
(00.011092) can0 D9#3913001556072C0DA06D0DBE0F1258F0FFFFFFFFFF48FA548600000000000000
(00.015277) can0 DB#390F001563F64A20FFFF7FCFFFFF3FFFFFFFFFFFFF49C857D400000000000000
(00.028099) can0 DC#39100016200E2D0E9A010023A8352C0000000000FFFF49549B5A000000000000
(00.028481) can0 18E19490#02840064646401000627570203000000000000000F011301BF04C004C0040200FFFF00005114BF0573058113000004027808800C6A0FED0B1311001505150000
(00.029187) can0 2D#AD553704C4090090709758624652A52BD8E030FFFFFF7F4002D235FFFFFFFF00FEFF4D0EF55600000000000000000000
(00.029706) can0 D4#390406044C800D84
(00.030617) can0 DB#390E00208FF64B24A881831A3F2380956C4DC116B3281D5C050300F1FFFFFFFF4B0C317B000000000000000000000000
(00.032155) can0 D9#391300152EFE2D0DA06DCDBC0F1258F0FFFFFFFFFF4A877A8D00000000000000
(00.035284) can0 DB#390F001581E64B20FFFF7FCFFFFF3FFFFFFFFFFFFF4B27277900000000000000
(00.038549) can0 E3#4100050800800343D0774D26
(00.048130) can0 DC#391000166DE62E0E9A010023A8352C0000000000FFFF4B0FDF04000000000000
(00.048645) can0 2D#08223804C4090090709758624652A52BD8E030FFFFFF7F4002D235FFFFFFFF00FEFF4F8163C600000000000000000000
(00.000535) can0 DB#390E04105CE30B4C24B4DBFF3FAE6C79EBFFFFFF390F01064D85046098120000
(00.003337) can0 DC#391001105543403056101116E99C112095C0FFF53910001634480D0E9A010023A8352C0000000000FFFF09E4D45A0000
(00.003898) can0 2D#99B71704C4090090709758624652B52BC8E030FFFFFF7F4002D235FFFFFFFF00FEFF0D43974900000000000000000000
(00.004416) can0 D4#390C140CFFFFFFFFFDFFFFFFFFFFFFFF
(00.005875) can0 DB#390E00201FC32B24A881831A3F2380556C4DC116B3281D5C050300F1FFFFFFFF0B9D61C5000000000000000000000000
(00.006394) can0 D9#39130015292E0D0DA06D0DBD0F1258F0FFFFFFFFFF0AED33C600000000000000
(00.009094) can0 E3#41000008031EE4432E7F000039060B08001111180000D0FF
(00.010782) can0 DB#390F001587A22B20FFFF7FCFFFFF3FFFFFFFFFFFFF0B7316D400000000000000
(00.013560) can0 18E19490#01E4016A0D8301800CF100BC02060620030000401F010E03AC0DEF06012003500E01FC06860C000001010000EC37D007AC0D401F0C580B581311001505150000
(00.019049) can0 E3#4100010802AB00000200020C
(00.023392) can0 DC#3910001679A00E0E9A010023A8352C0000000000FFFF0BDF97F6000000000000
(00.023901) can0 2D#3CC01804C4090090709758624652B52BC8E030FFFFFF7F4002D235FFFFFFFF00FEFF0F5AF58300000000000000000000
(00.024421) can0 4F#28900A00279F799B
(00.024585) can0 E3#008000047DA5CB04
(00.025803) can0 D9#39130015DAA90E0DA06D8DBC0F1258F0FFFFFFFFFF0BFD0BA700000000000000
(00.026181) can0 DB#390E0020F33C2C24A881831A3F2380556C4DC116B3281D5C050300F1FFFFFFFF0D23BBC3000000000000000000000000
(00.030569) can0 DB#390F001529D02C20FFFF7FCFFFFF3FFFFFFFFFFFFF0DC1608700000000000000
(00.039111) can0 E3#028000083C74F8018333188341000108030DB9FFEEC86D3D
(00.043333) can0 DC#391000165D080F0E9A010023A8352C0000000000FFFF0D1E3238000000000000
(00.043716) can0 18E19490#02840064646401000427530203000000000000000F011301BE04C104C0040100FDFF00004D14DE0572058513000006027808800C860FED0B1311001505150000
(00.044418) can0 2D#23C91904C4090090709758624652B52BC8E030FFFFFF7F4002D235FFFFFFFF00FEFF1128380700000000000000000000
(00.044939) can0 D4#39040604E7E80784
(00.045776) can0 D9#39130015E8E30F0DA06DCDBC0F1258F0FFFFFFFFFF0DE979A100000000000000
(00.046152) can0 DB#390E002067182D24A881831A3F2380556C4DC116B3281D5C050300F1FFFFFFFF0F989F0B000000000000000000000000
(00.003843) can0 DC#3910001669D0F20E9A010023A8352C0000000000FFFFD11ADA16000000000000
(00.004415) can0 2D#077FFC04C4090090709758624652B52BC8E030FFFFFF7F4002D235FFFFFFFF00FEFFD750BB5A00000000000000000000
(00.004938) can0 D4#39FE1D085940B2084A02000039040C050E0FF8FFFF000000
(00.006326) can0 DB#390E002024211024A881831A3F2380556C4DC116B3281D5C050300F1FFFFFFFFD4D8285F000000000000000000000000
(00.006847) can0 D9#3913010B58BA38559500FE03BAFFEF391300159871F20DA06D0DBD0F1258F0FFFFFFFFFFD337815B0000000000000000
(00.009618) can0 E3#39042208003D867E780FFAFF3980000C007FB28F1630B0FED9983394410005080194F0F093BB79440000000000000000
(00.011080) can0 DB#390F0015B2361020FFFF7FCFFFFF3FFFFFFFFFFFFFD4B6179E00000000000000
(00.013944) can0 18E19490#036806BD1637D20F0E0F0E1E00FA00ED000000020102010000EF01EF01000000000402011000AC0D0F0E0E0E1E0094DC055916CC0C841C001311001505150000
(00.014644) can0 4F#202509A00049A805
(00.018723) can0 44#04
(00.023883) can0 DC#391000164D78F30E9A010023A8352C0000000000FFFFD3FFEBAA000000000000
(00.024478) can0 2D#1876FD04C4090090709758624652B52BC8E030FFFFFF7F4002D235FFFFFFFF00FEFFD9011DBB00000000000000000000
(00.026221) can0 D9#39130015AFD7F30DA06D8DBC0F1258F0FFFFFFFFFFD642624D00000000000000
(00.026599) can0 DB#390E010FDC35FFFFFFFFFFFFFF0FD408BCFDFF390E00207FB41124A881831A3F2380556C4DC116B3281D5C060300F1FFFFFFFFD7643C27000000000000000000
(00.031049) can0 DB#390F001550261120FFFF7FCFFFFF3FFFFFFFFFFFFFD7E2C89D00000000000000
(00.043818) can0 DC#39100110554340005610E946E99C112095C0FFF539100016D210F40E9A010023A8352C0000000000FFFFD7FC45710000
(00.044335) can0 18E19490#04540155010E003E30EB0C710D220185010803010101010100000000000000000000000000000000000000000000000000000000000000001311001505150000
(00.045054) can0 2D#396DFE04C4090090709758624652B52BC8E030FFFFFF7F4002D235FFFFFFFF00FEFFDB59FCC600000000000000000000
(00.045576) can0 D4#390C140CFFFFFFFFFDFFFFFFFFFFFFFF
(00.046252) can0 D9#39130015D413F40DA06D0DBD0F1258F0FFFFFFFFFFD8E02DE300000000000000
(00.046630) can0 DB#390E0020C3D91224A881831A3F2380556C4DC116B3281D5C060300F1FFFFFFFFD9DF2531000000000000000000000000
(00.007340) can0 DC#3910001691C7D80E9A010023A8352C0000000000FFFF9DC4BB83000000000000
(00.008010) can0 2D#4D90E204C4090090709758624652B52BC8E030FFFFFF7F4002D235FFFFFFFF00FEFFA3DF3B6400000000000000000000
(00.008531) can0 D4#39040604B569FC84
(00.009915) can0 DB#390E00207006F624A881831A3F2380956C4DC116B3281D5C060300F1FFFFFFFFA08C39C9000000000000000000000000
(00.010928) can0 D9#39130015EE5ED80DA06D8DBD0F1258F0FFFFFFFFFF9F0EBC0C00000000000000
(00.013222) can0 E3#410000080057314B414635454100050800800343D076A362
(00.014671) can0 DB#390F0015F0E0F620FFFF7FCFFFFF3FFFFFFFFFFFFFA0FB439300000000000000
(00.027290) can0 DC#39100016B56FD90E9A010023A8352C0000000000FFFF9FB8037F000000000000
(00.027675) can0 18E19490#01E4016A0D8401800CF100BC02060620030000401F016101AC0DEB06012003480E01FC06840C000001010000E437D007AC0D401F0C4E05581311001505150000
(00.028375) can0 2D#A748E304C4090090709758624652A52BD8E030FFFFFF7F4002D235FFFFFFFF00FEFFA5FFF82300000000000000000000
(00.029869) can0 D9#3913010B58BA38559500FE03BAFFEF391300150C4ED90DA06D8DBD0F1258F0FFFFFFFFFFA16EBA9D0000000000000000
(00.030378) can0 DB#39FE0B086100000001000000390E00202B93F724A881831A3F2380956C4DC116B3281D5C050300F1FFFFFFFFA21C881B
(00.033211) can0 D4#39040C050E0FF8FFFF3915011445F991E5F85FF5FFFFFFFFFE0700A12899FEFFFF000000000000000000000000000000
(00.033742) can0 E3#39042208003D877E780FFAFF41000008014231505231313841000508012ACE8E387F6069000000000000000000000000
(00.034726) can0 DB#390F001512F0F720FFFF7FCFFFFF3FFFFFFFFFFFFFA2F0E87800000000000000
(00.038197) can0 4F#204108A00049A804
(00.043184) can0 E3#4100010800080528F24B2614
(00.044399) can0 DB#390E022A3E004600650A0C421DD4010047403E49E0D16CC24D85E50D9182F847CE43068867E9FFFFFFFFA49E0FD70000
(00.047285) can0 DC#39100016F887DA0E9A010023A8352C0000000000FFFFA13D44F5000000000000
(00.048065) can0 2D#FA77E404C4090090709758624652A52BD8E030FFFFFF7F4002D235FFFFFFFF00FEFFA776D64700000000000000000000
(00.001531) can0 DB#390F0015AE39D820FFFF7FCFFFFF3FFFFFFFFFFFFF64694C3400000000000000
(00.004778) can0 E3#4100050800800343D076665E
(00.014173) can0 DC#39100016E0E5BB0E9A010023A8352C0000000000FFFF65050B7F000000000000
(00.014558) can0 18E19490#01E7016A0D8501800CF100BC02060620030000401F01BE03AC0DEB06012003480E01FB06840C000001010000DC37D007AC0D401F0C482D571311001505150000
(00.015258) can0 2D#244DC504C4090090709758624652A52BD8E030FFFFFF7F4002D235FFFFFFFF00FEFF690921F800000000000000000000
(00.015778) can0 D4#39040C050E0FF8FFFF390C1608FFFFFFFFFFFFFFFF3915011445F991E1F85FF5FFFFFFFFFE0700A12895FEFFFF000000
(00.016326) can0 D4#390C083CFE7403800000086C753E3D83FF33185A7007C501A82CE07C8FB30400009E053C400B5AD08216B4A0052D68FBA06BFE7FB3E600FFC9FFFFFF833EE4FF
(00.016981) can0 D9#3913010B58BA38559500FE03BAFFEF391300150EB2BB0DA06D0DBE0F1250F0FFFFFFFFFF6610DF320000000000000000
(00.017493) can0 DB#390E0020A44CD924A881831A3F2380556C4DC116B3281D5C060300F1FFFFFFFF66959BED000000000000000000000000
(00.020067) can0 E3#39042208003D877E781FFAFF4100050801F49D79F31CC888
(00.021572) can0 DB#390F00154C29D920FFFF7FCFFFFF3FFFFFFFFFFFFF660530AE00000000000000
(00.034161) can0 DC#391000167F8DBC0E9A010023A8352C0000000000FFFF678C31FD000000000000
(00.034931) can0 2D#F087C604C4090090709758624652B52BC8E030FFFFFF7F4002D235FFFFFFFF00FEFF6BF8FEF500000000000000000000
(00.036680) can0 D9#3913001510B6BC0DA06D4DBD0F1258F0FFFFFFFFFF67AC713A00000000000000
(00.037056) can0 DB#390E010FD835FFFFFFFFFFFFFF0FD408BCFDFF390E00201821DA24A881831A3F2380556C4DC116B3281D5C060300F1FFFFFFFF68C8625C000000000000000000
(00.040361) can0 DC085B#4003080400000000
(00.041521) can0 DB#390F00156A18DA20FFFF7FCFFFFF3FFFFFFFFFFFFF68F01E7100000000000000
(00.044306) can0 18E19490#02840064646401000727540203000000000000000F011301BF04C004C1040200FDFF00004D14C30573058413000005027808800C590FED0B1311001505150000
(00.005242) can0 44#04
(00.007470) can0 21C#23009F0062004400390033002F04FE01F00114009E0060004300390033003004FE01F00114009E00600043003900330030000000000000000000000000000000
(00.010099) can0 DC#391000166FD7A30E9A010023A8352C0000000000FFFF350C9B06000000000000
(00.010482) can0 18E19490#0000000155555555056806D8030000EF0167013B028D0000850191010000F308E708000056545110011001D0019D017801560155555150031311001505150000
(00.011175) can0 2D#6A80AD04C4090090709758624652B52BC8E030FFFFFF7F4002D235FFFFFFFF00FEFF3906D31300000000000000000000
(00.012702) can0 D9#391300157AEBA30DA06DCDBC0F1258F0FFFFFFFFFF35B35C9000000000000000
(00.013077) can0 DB#390E010FDC35FFFFFFFFFFFFFF0FD408BCFDFF390E002055F3C124A881831A3F2380956C4DC116B3281D5C050300F1FFFFFFFF36838096000000000000000000
(00.017630) can0 DB#390F00155DB0C120FFFF7FCFFFFF3FFFFFFFFFFFFF36E9484100000000000000
(00.020140) can0 DC08E2#4002000000000000
(00.030109) can0 DC#391001105543403056106906E89C122095C0FFF139100016F0BFA40E9A010023A8352C0000000000FFFF367D37240000
(00.030937) can0 2D#BE4AAE04C4090090709758624652A52BD8E030FFFFFF7F4002D235FFFFFFFF00FEFF3BCDE40F00000000000000000000
(00.031457) can0 D4#390C140CFFFFFFFFFDFFFFFFFFFFFFFF
(00.032713) can0 D9#39130015D499A40DA06DCDBC0F1258F0FFFFFFFFFF372463FF00000000000000
(00.033091) can0 DB#390E002054CDC224A881831A3F2380556C4DC116B3281D5C050300F1FFFFFFFF3861C94B000000000000000000000000
(00.037576) can0 DB#390F00157B81C220FFFF7FCFFFFF3FFFFFFFFFFFFF38EAC1C700000000000000
(00.037969) can0 21C#2400000000000000
(00.040324) can0 18E19490#01E6016A0D8301800CF100BC02060620030000401F01BE03AC0DEB06012003480E01FB06830C000001010000C437D007AC0D401F0C4301581311001505150000
(00.041026) can0 E3#39060B08001111180000D0FF
(00.003389) can0 DC#39100016A911870E9A010023A8352C0000000000FFFFFDD33579000000000000
(00.004152) can0 2D#DF4E9104C4090090709758624652B52BC8E030FFFFFF7F4002D235FFFFFFFF00FEFF017939C500000000000000000000
(00.004672) can0 E3#0080000417F9B0040500000CF5FCFF000000000003D95108
(00.005935) can0 D9#3913001555CD870DA06D8DBD0F1258F0FFFFFFFFFFFE517F5400000000000000
(00.006312) can0 DB#390E0020E7B6A524A881831A3F2380956C4DC116B3281D5C060300F1FFFFFFFFFE91AF47000000000000000000000000
(00.010893) can0 DB#390F0015D3B7A520FFFF7FCFFFFF3FFFFFFFFFFFFFFE88685F00000000000000
(00.023328) can0 DC#39100016B368880E9A010023A8352C0000000000FFFFFF1C4715000000000000
(00.023712) can0 18E19490#02840064646401000627540201000000000000000F011201BF04C104C0040200FDFF00005014C60573058113000004027808800C930FED0B1311001505150000
(00.024415) can0 2D#0B849204C4090090709758624652A52BD8E030FFFFFF7F4002D235FFFFFFFF00FEFF03430D7E00000000000000000000
(00.024937) can0 D4#390406041272EC84
(00.026121) can0 DB#390E00205BDBA624A881831A3F2380956C4DC116B3281D5C060300F1FFFFFFFF00C56272000000000000000000000000
(00.026880) can0 D9#391300154B8D880DA06D0DBD0F1258F0FFFFFFFFFF00503C2500000000000000
(00.030848) can0 DB#390F0015F586A620FFFF7FCFFFFF3FFFFFFFFFFFFF006C303700000000000000
(00.034097) can0 E3#4100050800800343D07602A1
(00.043359) can0 DC#3910001697C0890E9A010023A8352C0000000000FFFF01E60B7B000000000000
(00.044131) can0 D4#39040C050E0FF8FFFF390C1608FFFFFFFFFFFFFFFF3915011445F991E1F85FF5FFFFFFFFFE0700A12899FEFFFF000000
(00.044656) can0 2D#148D9304C4090090709758624652A52BD8E030FFFFFF7F4002D235FFFFFFFF00FEFF05F17B7800000000000000000000
(00.045177) can0 D4#390C083CFE7403800000086C75BE3C83FF33185A7007C501A82CE07C8FB30400009E053C400B5AD08216B4A0052D68FBA06BFE7FB3E600FFC9FFFFFF833EE4FF
(00.046103) can0 D9#3913010B58BA38559500FE03BAFFEF39130015D972890DA06DCDBD0F1258F0FFFFFFFFFF023A6FF30000000000000000
(00.046614) can0 DB#390E002072ACA724A881831A3F2380556C4DC116B3281D5C060300F1FFFFFFFF02E262B0000000000000000000000000
(00.049384) can0 E3#39042208003D877E781FFAFF4100050801726E5F7CC7D94D
(00.012377) can0 DC#3910001697EA6A0E9A010023A8352C0000000000FFFFC3C5B751000000000000
(00.012760) can0 18E19490#02840064646401000827540203000000000000000F011301BE04C004C0040200FFFF00004B14C30574058213000004027808800C930FED0B1311001505150000
(00.013464) can0 2D#FBF87404C4090090709758624652B52BC8E030FFFFFF7F4002D235FFFFFFFF00FEFFC76C1F1400000000000000000000
(00.013989) can0 D4#39040604B91AE684
(00.015262) can0 DB#390E00201BB58824A881831A3F2380556C4DC116B3281D5C060300F1FFFFFFFFC5921E87000000000000000000000000
(00.015985) can0 D9#3913001524416A0DA06D4DBC0F1258F0FFFFFFFFFFC445D67900000000000000
(00.019992) can0 DB#390F0015AB5F8820FFFF7FCFFFFF3FFFFFFFFFFFFFC5AD397100000000000000
(00.023229) can0 E3#4100050800800343D075C7E9
(00.032410) can0 DC#39100016B3426B0E9A010023A8352C0000000000FFFFC5795AC9000000000000
(00.033321) can0 2D#E4F17504C4090090709758624652B52BC8E030FFFFFF7F4002D235FFFFFFFF00FEFFC9FF71FA00000000000000000000
(00.034929) can0 D9#3913010B58BA38559500FE03BAFFEF391300159C216B0DA06D0DBD0F1250F0FFFFFFFFFFC6A024B50000000000000000
(00.035440) can0 DB#390E00208F918924A881831A3F2380556C4DC116B3281D5C060300F1FFFFFFFFC723AC0B000000000000000000000000
(00.038526) can0 D4#39040C050E0FF8FFFF3915011445F991E1F85FF5FFFFFFFFFE0700A12899FEFFFF000000000000000000000000000000
(00.039056) can0 E3#39042208003D877E780FFAFF4100050801634EE65E7D3491
(00.040062) can0 DB#390F0015494F8920FFFF7FCFFFFF3FFFFFFFFFFFFFC7C1FABF00000000000000
(00.042515) can0 18E19490#036706BE1664D2100E100E1E00F500F1000000020102010000EF01EF01000000000402011000AC0D0E0E0F0E1E0094D9055B16D50C841C001311001505150000
(00.004698) can0 DC#391000164176510E9A010023A8352C0000000000FFFF91C45621000000000000
(00.005576) can0 2D#9FBC5B04C4090090709758624652B52BC8E030FFFFFF7F4002D235FFFFFFFF00FEFF95E7CBD600000000000000000000
(00.006097) can0 D4#39040604944BE184
(00.007532) can0 DB#390E002066E56F24A881831A3F2380556C4DC116B3281D5C050300F1FFFFFFFF934F1953000000000000000000000000
(00.008630) can0 D9#39130015EB10510DA06D8DBD0F1250F0FFFFFFFFFF9244E8C200000000000000
(00.012263) can0 DB#390F00150B996F20FFFF7FCFFFFF3FFFFFFFFFFFFF93F5518400000000000000
(00.015487) can0 E3#4100050800800343D0759546
(00.024668) can0 DC#391000160C9E520E9A010023A8352C0000000000FFFF93367AD6000000000000
(00.025052) can0 18E19490#01E5016A0D8401800CED00BC02060620030000401F01BF03AC0DEF06012003540E01FA06840C000001010000DC37D007AC0D401F0C3323581311001505150000
(00.025752) can0 2D#C2835C04C4090090709758624652B52BC8E030FFFFFF7F4002D235FFFFFFFF00FEFF9747B92300000000000000000000
(00.027521) can0 DB#390E0020B4147024A881831A3F2380956C4DC116B3281D5C050300F1FFFFFFFF95D1687E000000000000000000000000
(00.028041) can0 D9#3913010B58BA38559500FE03BAFFEF39130015B822520DA06D8DBC0F1250F0FFFFFFFFFF94A09A160000000000000000
(00.030795) can0 D4#39040C050E0FF8FFFF000000
(00.030995) can0 E3#39042208003D867E780FFAFF3980000C007FA08F1630B0FE9919D3CE4100050801D7E7949A0D0BDB0000000000000000
(00.032288) can0 DB#390F0015B4727020FFFF7FCFFFFF3FFFFFFFFFFFFF954542DF00000000000000
(00.039923) can0 44#04
(00.044624) can0 DC#391000162836530E9A010023A8352C0000000000FFFF957C86AC000000000000
(00.045641) can0 2D#285B5D04C4090090709758624652A52BD8E030FFFFFF7F4002D235FFFFFFFF00FEFF99CFF5F600000000000000000000
(00.047534) can0 DB#390E010FDC35FFFFFFFFFFFFFF0FD408BCFDFF390E002020307124A881831A3F2380956C4DC116B3281D5C050300F1FFFFFFFF9749E22C000000000000000000
(00.048193) can0 D9#391300155A32530DA06D8DBC0F1250F0FFFFFFFFFF96A0728C00000000000000
(00.002152) can0 E3#4100050800800343D0755991
(00.011357) can0 DC#391000168B94340E9A010023A8352C0000000000FFFF57B67A2A000000000000
(00.011740) can0 18E19490#01E7016A0D8401800CF100BC02060620030000401F012001AC0DEF06012003540E01FB06840C000001010000D437D007AC0D401F0C2D19581311001505150000
(00.012440) can0 2D#BFC53E04C4090090709758624652B52BC8E030FFFFFF7F4002D235FFFFFFFF00FEFF5BCE4ED300000000000000000000
(00.013928) can0 D9#3913010B58BA38559500FE03BAFFEF3913001527B2340DA06D0DBD0F1250F0FFFFFFFFFF580CA7910000000000000000
(00.014440) can0 DB#390E0020EA6D5224A881831A3F2380556C4DC116B3281D5C060300F1FFFFFFFF5938ECD9000000000000000000000000
(00.017449) can0 D4#39040C050E0FF8FFFF000000
(00.017649) can0 E3#39042208003D867E780FFAFF3980000C007FA08F1630B0FE5D920203410005080177BECCED35A0C00000000000000000
(00.018953) can0 DB#390F0015726F5220FFFF7FCFFFFF3FFFFFFFFFFFFF59B5ABF900000000000000
(00.026572) can0 44#04
(00.031341) can0 DC#39100016AF3C350E9A010023A8352C0000000000FFFF59E960FD000000000000
(00.032372) can0 2D#A0CC3F04C4090090709758624652B52BC8E030FFFFFF7F4002D235FFFFFFFF00FEFF5D74F35C00000000000000000000
(00.033803) can0 D9#391300156517350DA06D8DBD0F1250F0FFFFFFFFFF5AA0C7C900000000000000
(00.034197) can0 DB#390E010FDC35FFFFFFFFFFFFFF0FD408BCFDFF390E00207E495324A881831A3F2380556C4DC116B3281D5C060300F1FFFFFFFF5BF1AF13000000000000000000
(00.038917) can0 DB#390F0015907F5320FFFF7FCFFFFF3FFFFFFFFFFFFF5BF0FEDA00000000000000
(00.041331) can0 18E19490#02840064646401000527530202000000000000000E011301BB04C104CF040100FDFF00004A14C80572058213000004027808800C8A0FED0B1311001505150000
(00.011626) can0 DC#391001105543400056109106E89C122095C0FFF5391000163E6B1D0E9A010023A8352C0000000000FFFF297B817E0000
(00.012642) can0 2D#A8152704C4090090709758624652B52BC8E030FFFFFF7F4002D235FFFFFFFF00FEFF2D28A58500000000000000000000
(00.013162) can0 D4#390C140CFFFFFFFFFDFFFFFFFFFFFFFF
(00.014197) can0 D9#391300152DDC1D0DA06DCDBC0F1258F0FFFFFFFFFF2A3D37EC00000000000000
(00.014748) can0 DB#390F01064D850460341D390E00201DAA3B24A881831A3F2380556C4DC116B3281D5C050300F1FFFFFFFF2BB3E3610000
(00.019269) can0 DB#390F001586BC3B20FFFF7FCFFFFF3FFFFFFFFFFFFF2B0C2B2D00000000000000
(00.021759) can0 18E19490#01E6016A0D8301800CF100BC02060620030000401F01D800AC0DF206012003580E01FB06840C000001010000D437D007AC0D401F0C2820581311001505150000
(00.022570) can0 E3#39060B08001111180000D0FF
(00.031687) can0 DC#3910001673831E0E9A010023A8352C0000000000FFFF2BA2680D000000000000
(00.032635) can0 2D#0D622804C4090090709758624652B52BC8E030FFFFFF7F4002D235FFFFFFFF00FEFF2F3B060B00000000000000000000
(00.033157) can0 E3#0080000446D09B04
(00.034177) can0 D9#391300150E011E0DA06D0DBD0F1258F0FFFFFFFFFF2CA6215D00000000000000
(00.034769) can0 DB#390E0020F1553C24A881831A3F2380556C4DC116B3281D5C050300F1FFFFFFFF2DE674D7000000000000000000000000
(00.039325) can0 DB#390F001528CE3C20FFFF7FCFFFFF3FFFFFFFFFFFFF2D84DF3500000000000000
(00.001070) can0 E3#4100050800800343D074F553
(00.010164) can0 DC#391000162E31020E9A010023A8352C0000000000FFFFF32183B2000000000000
(00.011147) can0 2D#B0750C04C4090090709758624652B52BC8E030FFFFFF7F4002D235FFFFFFFF00FEFFF7957A4400000000000000000000
(00.012792) can0 D9#3913010B58BA38559500FE03BAFFEF39130015E734020DA06DCDBD0F1258F0FFFFFFFFFFF43FB1D40000000000000000
(00.013306) can0 DB#390E0020229A2024A881831A3F2380556C4DC116B3281D5C050300F1FFFFFFFFF50F0FFB000000000000000000000000
(00.016374) can0 D4#39040C050E0FF8FFFF000000
(00.016574) can0 E3#39042208003D867E780FFAFF3980000C00FF818F1630B0FEF9716AE041000508017A0B7B3B596B790000000000000000
(00.017865) can0 DB#390F0015B1142020FFFF7FCFFFFF3FFFFFFFFFFFFFF5C7CA8100000000000000
(00.020181) can0 18E19490#036806BB1633D2100E110E1E00F100F5000000020102010000EF01EF01000000000402011000AC0D0D0E0E0E1E0094D9056F16D70C841C001311001505150000
(00.025472) can0 44#04
(00.030214) can0 DC#391000160A99030E9A010023A8352C0000000000FFFFF5C16C5E000000000000
(00.031239) can0 2D#AF7C0D04C4090090709758624652B52BC8E030FFFFFF7F4002D235FFFFFFFF00FEFFF96A5CE100000000000000000000
(00.032666) can0 D9#39130015A591030DA06D4DBD0F1258F0FFFFFFFFFFF6CBB1DB00000000000000
(00.033174) can0 DB#390E010FC435FFFFFFFFFFFFFF0FD408BCFDFF390E0020790F2124A881831A3F2380556C4DC116B3281D5C060300F1FFFFFFFFF7D83F67000000000000000000
(00.037853) can0 DB#390F001553042120FFFF7FCFFFFF3FFFFFFFFFFFFFF708A27B00000000000000
(00.008794) can0 DC#3910001695DBE70E9A010023A8352C0000000000FFFFBC5475A3000000000000
(00.009905) can0 2D#9C1AF104C4090090709758624652B52BC8E030FFFFFF7F4002D235FFFFFFFF00FEFFC145471E00000000000000000000
(00.010427) can0 E3#0080000459CE90040500000CF5FCFF0000000000C36471DE
(00.011493) can0 D9#3913001583D3E70DA06DCDBD0F1258F0FFFFFFFFFFBD2FF3BE00000000000000
(00.012057) can0 DB#390E0020E2FE0524A881831A3F2380556C4DC116B3281D5C050300F1FFFFFFFFBEDA48E5000000000000000000000000
(00.016565) can0 DB#390F0015D97B0520FFFF7FCFFFFF3FFFFFFFFFFFFFBE1614F900000000000000
(00.018852) can0 18E19490#0000000155555555056806D8030000EF0167013B028D0000840190010000F308E70800005654520F010F01CF019C017801560156555139031311001505150000
(00.028855) can0 DC#391000168FA2E80E9A010023A8352C0000000000FFFFBE90993B000000000000
(00.029941) can0 2D#BD01F204C4090090709758624652B52BC8E030FFFFFF7F4002D235FFFFFFFF00FEFFC34DA12100000000000000000000
(00.030463) can0 D4#390406045C45CC84
(00.031996) can0 DB#390E00205E930624A881831A3F2380556C4DC116B3281D5C050300F1FFFFFFFFC0AD80D0000000000000000000000000
(00.032518) can0 D9#39130015ED7CE80DA06D8DBD0F1258F0FFFFFFFFFFBF43A55600000000000000
(00.036573) can0 DB#390F0015FF4A0620FFFF7FCFFFFF3FFFFFFFFFFFFFC034EFCC00000000000000
(00.039872) can0 E3#4100050800800343D074C381
(00.048822) can0 DC#39100016AB0AE90E9A010023A8352C0000000000FFFFC0DD5D55000000000000
(00.049205) can0 18E19490#01E7016A0D8401800CF100BC02060620030000401F01BE03AC0DEB06012003480E010107860C000001010000D437D007AC0D401F0C1E1A581311001505150000
(00.003020) can0 DB#390F00158B2AEB20FFFF7FCFFFFF3FFFFFFFFFFFFF8B1263C700000000000000
(00.006310) can0 E3#39060B08001111180000D0FF
(00.015261) can0 DC#391000162024CE0E9A010023A8352C0000000000FFFF8B9CEF76000000000000
(00.015644) can0 18E19490#036806C91658D20F0E100E1E00EF00F7000000030103010000EF01EF01000000000602011000AC0D0F0E0F0E1E0094D9055916D40C841C001311001505150000
(00.016349) can0 2D#BA68D804C4090090709758624652B52BC8E030FFFFFF7F4002D235FFFFFFFF00FEFF8FBB209700000000000000000000
(00.016870) can0 E3#00800004E1CB8B04
(00.018048) can0 D9#39130015067BCE0DA06DCDBC0F1258F0FFFFFFFFFF8CAC41CE00000000000000
(00.018504) can0 DB#390E00206641EC24A881831A3F2380556C4DC116B3281D5C060300F1FFFFFFFF8D0DBCF1000000000000000000000000
(00.023022) can0 DB#390F00152558EC20FFFF7FCFFFFF3FFFFFFFFFFFFF8DCF9AAB00000000000000
(00.035262) can0 DC#39100016048CCF0E9A010023A8352C0000000000FFFF8D91E134000000000000
(00.036382) can0 2D#A561D904C4090090709758624652B52BC8E030FFFFFF7F4002D235FFFFFFFF00FEFF912C4C9B00000000000000000000
(00.036901) can0 D4#39040604435BC784
(00.038446) can0 DB#390E002086A4ED24A881831A3F2380156C4DC116B3281D5C060300F1FFFFFFFF8FAC2E39000000000000000000000000
(00.038965) can0 D9#3913001544DECF0DA06D4DBC0F1258F0FFFFFFFFFF8EA47B0400000000000000
(00.043031) can0 DB#390F0015C748ED20FFFF7FCFFFFF3FFFFFFFFFFFFF8FA5BD6000000000000000
(00.045304) can0 18E19490#04550153010E003E30EB0C710D220185010803010101010100000000000000000000000000000000000000000000000000000000000000001311001505150000
(00.046310) can0 E3#4100050800800343D07491F1
(00.000280) can0 D4#39040C050E0FF8FFFF000000
(00.001686) can0 DB#390F0015BEBED020FFFF7FCFFFFF3FFFFFFFFFFFFF55478FAA00000000000000
(00.004974) can0 E3#410005080153970B8BD4DD4E
(00.009361) can0 44#04
(00.013817) can0 DC#3910001665F4B30E9A010023A8352C0000000000FFFF555940E0000000000000
(00.014201) can0 18E19490#0000000155555555056806D8030000EF0167013B028D000081018D010000F008E80800005654520F010F01D0019B017701560156555157031311001505150000
(00.015110) can0 2D#9A11BD04C4090090709758624652B52BC8E030FFFFFF7F4002D235FFFFFFFF00FEFF59D2C1AD00000000000000000000
(00.016509) can0 D9#391300158067B30DA06C0DBE0F1258F0FFFFFFFFFF5589FBAF00000000000000
(00.017090) can0 DB#390E010FDC35FFFFFFFFFFFFFF0FD408BCFDFF390E00202578D124A881831A3F2380556C4DC116B3281D5C060300F1FFFFFFFF56A2B685000000000000000000
(00.021755) can0 DB#390F00155CAED120FFFF7FCFFFFF3FFFFFFFFFFFFF56C4010100000000000000
(00.023788) can0 DC#39FE6F089401008003000000
(00.033804) can0 DC#39100110554340005610E946E99C112095C0FFF539100016FA9CB40E9A010023A8352C0000000000FFFF562415F80000
(00.035004) can0 2D#BB0ABE04C4090090709758624652B52BC8E030FFFFFF7F4002D235FFFFFFFF00FEFF5BED809E00000000000000000000
(00.035527) can0 D4#390C140CFFFFFFFFFDFFFFFFFFFFFFFF
(00.036520) can0 D9#39130015614AB40DA06C4DBD0F1258F0FFFFFFFFFF57C6983000000000000000
(00.037141) can0 DB#390E00209915D224A881831A3F2380556C4DC116B3281D5C060300F1FFFFFFFF58068A63000000000000000000000000
(00.041677) can0 DB#390F00157A9FD220FFFF7FCFFFFF3FFFFFFFFFFFFF584EBB4900000000000000
(00.043941) can0 18E19490#01E8016A0D8301800CF100BC02060620030000401F01BE03AC0DEF06012003500E01FA06870C000001010000DC37D007AC0D401F0C1316581311001505150000
(00.044953) can0 E3#39060B08001111180000D0FF
(00.000871) can0 DB#390F0015D2A9B520FFFF7FCFFFFF3FFFFFFFFFFFFF1FB0887D00000000000000
(00.012941) can0 DC#39100016B94B980E9A010023A8352C0000000000FFFF1FC85615000000000000
(00.013324) can0 18E19490#02840064646401000627550204000000000000000E011201BE04C004C9040200FEFF00004B14CC0573058513000006027808800C760FED0B1311001505150000
(00.014219) can0 2D#CFF7A204C4090090709758624652B52BC8E030FFFFFF7F4002D235FFFFFFFF00FEFF2353A90300000000000000000000
(00.014739) can0 D4#390406042907BC84
(00.016300) can0 DB#390E00202B50B624A881831A3F2380556C4DC116B3281D5C050300F1FFFFFFFF2131127C000000000000000000000000
(00.017214) can0 D9#391300152E04980DA06CCDBC0F1258F0FFFFFFFFFF1FBF956C00000000000000
(00.020878) can0 DB#390F0015F498B620FFFF7FCFFFFF3FFFFFFFFFFFFF2149273500000000000000
(00.021397) can0 DC085D#4002000000000000
(00.024149) can0 E3#4100050800800343D07423BA
(00.032982) can0 DC#391000169DE3990E9A010023A8352C0000000000FFFF21138BEC000000000000
(00.034237) can0 2D#D0FEA304C4090090709758624652B52BC8E030FFFFFF7F4002D235FFFFFFFF00FEFF25D02D8600000000000000000000
(00.035938) can0 D9#3913010B58BA38559500FE03BAFFEF39130015A883990DA06D0DBD0F1258F0FFFFFFFFFF210B5FFF0000000000000000
(00.036450) can0 DB#390E0020BF74B724A881831A3F2380556C4DC116B3281D5C050300F1FFFFFFFF238609E6000000000000000000000000
(00.039449) can0 D4#39040C050E0FF8FFFF3915011445F991E1F85FF5FFFFFFFFFE0700A12899FEFFFF000000000000000000000000000000
(00.039980) can0 E3#39042208003D877E780FFAFF41000508015309F0D06191E1
(00.040948) can0 DB#390F00151688B720FFFF7FCFFFFF3FFFFFFFFFFFFF23557DE500000000000000
(00.043003) can0 18E19490#036706C6165ED2100E100E1E00EF00F8000000020102010000EF01EF01000000000402011000AC0D0E0E0E0E1E0094D9057116D10C841C001311001505150000
(00.002925) can0 E3#02800008E66AF001833318834100010803E5482E5D12EE00
(00.006421) can0 DC#391000166BE17F0E9A010023A8352C0000000000FFFFED7AB7E4000000000000
(00.007709) can0 2D#D7978904C4090090709758624652B52BC8E030FFFFFF7F4002D235FFFFFFFF00FEFFF16A94C200000000000000000000
(00.008229) can0 D4#390406043619B784
(00.009006) can0 D9#39130015FE2D7F0DA06C0DBC0F1258F0FFFFFFFFFFED00F16600000000000000
(00.009824) can0 DB#390E002012DB9D24A881831A3F2380556C4DC116B3281D5C050300F1FFFFFFFFEFFF75B0000000000000000000000000
(00.014358) can0 DB#390F0015C0129D20FFFF7FCFFFFF3FFFFFFFFFFFFFEF78698800000000000000
(00.017622) can0 E3#4100050800800343D073F11C410001080434000040040000
(00.019048) can0 D9#39FE28082900000000000000
(00.026386) can0 DC#391000163679800E9A010023A8352C0000000000FFFFEFE39009000000000000
(00.026771) can0 18E19490#01E7016A0D8401800CF100BC02060620030000401F017A03AC0DF206012003580E01F906830C000001010000DC37D007AC0D401F0C0910581311001505150000
(00.027711) can0 2D#F68C8A04C4090090709758624652B52BC8E030FFFFFF7F4002D235FFFFFFFF00FEFFF34932E500000000000000000000
(00.028231) can0 E3#3E800108C3022CF0BA00E0FF39042208003DC67E782FFEFF3980000C007FA68F1630B0FEF57337B10000000000000000
(00.029236) can0 D9#3913010B58BA38559500FE03BAFFEF391300158EBC800DA06D8DBC0F1258F0FFFFFFFFFFEF08B32D0000000000000000
(00.029832) can0 DB#390E0020AEB69E24A881831A3F2380556C4DC116B3281D5C050300F1FFFFFFFFF1144142000000000000000000000000
(00.032925) can0 D4#39040C050E0FF8FFFF000000
(00.034356) can0 DB#390F0015E6239E20FFFF7FCFFFFF3FFFFFFFFFFFFFF169D76000000000000000
(00.037630) can0 E3#41000508017A0D97F34E1FC9
(00.042043) can0 44#04
(00.046381) can0 DC#3910001612D1810E9A010023A8352C0000000000FFFFF10D08B9000000000000
(00.047865) can0 2D#E9858B04C4090090709758624652B52BC8E030FFFFFF7F4002D235FFFFFFFF00FEFFF5F7EB0800000000000000000000
(00.049035) can0 D9#3913001519AF810DA06D8DBD0F1258F0FFFFFFFFFFF19ABAE100000000000000
(00.000039) can0 DC#391001105543403056106106E99C122095C0FFF139100016178A5F0E9A210023A8352C0000000000FFFFAC99F9E00000
(00.000558) can0 18E19490#04550156010E003430EB0C710D220184010803010101010100000000000000000000000000000000000000000000000000000000000000001311001505150000
(00.001482) can0 2D#900C6904C4090090709758624652B52BC8E030FFFFFF7F4002D235FFFFFFFF00FEFFB142A24900000000000000000000
(00.002001) can0 D4#390C140CFFFFFFFFFDFFFFFFFFFFFFFF
(00.002745) can0 D9#3913001529A75F0DA06C8DBD0F1258F0FFFFFFFFFFAD1EC96900000000000000
(00.003553) can0 DB#390F01064D8504607422390E00204CC57D24A881831A3F2380556C4DC116B3281D5C050300F1FFFFFFFFAEF66B5B0000
(00.008109) can0 DB#390F0015CEA67D20FFFF7FCFFFFF3FFFFFFFFFFFFFAE71DB7D00000000000000
(00.011368) can0 E3#39060B08001111180000D0FF
(00.016654) can0 E3#00800004F6F67504
(00.020058) can0 DC#391000167BBB600E9A010023A8352C0000000000FFFFAD561821000000000000
(00.021433) can0 2D#B1176A04C4090090709758624652B52BC8E030FFFFFF7F4002D235FFFFFFFF00FEFFB31B4DA000000000000000000000
(00.022867) can0 D9#3913001534C5600DA06C0DBD0F1258F0FFFFFFFFFFAF249D6E00000000000000
(00.023571) can0 DB#390E00203F197E24A881831A3F2380556C4DC116B3281D5C060300F1FFFFFFFFB0749EAC000000000000000000000000
(00.028111) can0 DB#390F0015E8977E20FFFF7FCFFFFF3FFFFFFFFFFFFFB056304400000000000000
(00.030087) can0 18E19490#0000000155555555056806D8030000EF0167013B028D000082018F010000F908F20800005654520F010F01CF019C01770156015655513F031311001505150000
(00.040106) can0 DC#391000165F13610E9A010023A8352C0000000000FFFFAF145865000000000000
(00.041462) can0 2D#AE1E6B04C4090090709758624652B52BC8E030FFFFFF7F4002D235FFFFFFFF00FEFFB546550300000000000000000000
(00.041981) can0 D4#39040604AF3EB184
(00.042904) can0 D9#39130015D339610DA06CCDBC0F1258F0FFFFFFFFFFB1AE2FB300000000000000
(00.043562) can0 DB#390E0020648C7F24A881831A3F2380556C4DC116B3281D5C050300F1FFFFFFFFB28B146F000000000000000000000000
(00.048170) can0 DB#390F00150A877F20FFFF7FCFFFFF3FFFFFFFFFFFFFB247AC8500000000000000
(00.007522) can0 DC#391000166E90420E9A210023A8352C0000000000FFFF73C20080000000000000
(00.008946) can0 2D#32124C04C4090090709758624652B52BC8E030FFFFFF7F4002D235FFFFFFFF00FEFF779A669400000000000000000000
(00.009466) can0 E3#00800004FA856F043204000C26C77C53670700F075BE68A4
(00.010206) can0 D9#391300156DDD420DA06C0DBE0F1258F0FFFFFFFFFF7437CD3700000000000000
(00.010957) can0 21C#1102010E000001F405DC09380FA01388189C1C3E21E8254427100000000000000000000000000000000000000000000000000000000000000000000000000000
(00.011656) can0 21D#304028
(00.011870) can0 DB#390E0020C49F6024A881831A3F2380556C4DC116B3281D5C060300F1FFFFFFFF7488DE11000000000000000000000000
(00.012401) can0 21C#21000000000000000000000000000000000000000000000000000000000000000000000000000000000000000000000000000000000000000000000000000000
(00.015627) can0 DB#390F0015B56C6020FFFF7FCFFFFF3FFFFFFFFFFFFF74FDE9A900000000000000
(00.017589) can0 18E19490#0000000155555555056806D8030000EF0167013B028D0000840191010000F708F008000055545210010F01CE019C017701570156555149031311001505150000
(00.027608) can0 DC#391000162215430E9A010023A8352C0000000000FFFF75424D80000000000000
(00.028974) can0 2D#2D1B4D04C4090090709758624652B52BC8E030FFFFFF7F4002D235FFFFFFFF00FEFF79C190D900000000000000000000
(00.029493) can0 D4#39040604A34DAB84
(00.030189) can0 D9#391300155F97430DA06C4DBE0F1258F0FFFFFFFFFF761260DA00000000000000
(00.031037) can0 DB#390E002050BB6124A881831A3F2380556C4DC116B3281D5C060300F1FFFFFFFF7606F4D2000000000000000000000000
(00.035629) can0 DB#390F0015577C6120FFFF7FCFFFFF3FFFFFFFFFFFFF76F46F1D00000000000000
(00.036155) can0 21C#22000000000000000000000000000000000000000000000000000000000000000000000000000000000000000000000000000000000000000000000000000000
(00.038887) can0 E3#4100050800800343D07378F8
(00.047585) can0 DC#39100016BD7D440E9A010023A8352C0000000000FFFF77344A8E000000000000
(00.047968) can0 18E19490#01E9016A0D8301800CF100BC02060620030000401F011302AC0DEF06012003500E01FB06860C000001010000D437D007AC0D401F0C622E581311001505150000
(00.048973) can0 2D#0C004E04C4090090709758624652B52BC8E030FFFFFF7F4002D235FFFFFFFF00FEFF7B56D43800000000000000000000
(00.003027) can0 DB#390F001573714220FFFF7FCFFFFF3FFFFFFFFFFFFF390289B100000000000000
(00.004928) can0 18E19490#0000000155555555056706D7030000EF0167013B028D0000850191010000F908EC0800005654510F011001D0019C01770156015655512B031311001505150000
(00.014930) can0 DC#39100016A51F250E9A010023A8352C0000000000FFFF392CF818000000000000
(00.016362) can0 2D#505D2F04C4090090709758624652B52BC8E030FFFFFF7F4002D235FFFFFFFF00FEFF3DA1891200000000000000000000
(00.016882) can0 D4#39040604F9EFA584
(00.017553) can0 D9#391300154B7A250DA06DCDBD0F1258F0FFFFFFFFFF3A25A04400000000000000
(00.018433) can0 DB#390E00207C204324A881831A3F2380556C4DC116B3281D5C060300F1FFFFFFFF3B7B64F1000000000000000000000000
(00.023035) can0 DB#390F001591614320FFFF7FCFFFFF3FFFFFFFFFFFFF3B304F1800000000000000
(00.026288) can0 E3#4100050800800343D0733D25
(00.034853) can0 DC#39100016E8F7260E9A010023A8352C0000000000FFFF3B9665E7000000000000
(00.035236) can0 18E19490#01E6016A0D8301800CED00BC02060620030000401F01BD03AC0DF206012003580E01FA06840C000001010000DC37D007AC0D401F0C5C24581311001505150000
(00.036371) can0 2D#05BB3004C4090090709758624652B52BC8E030FFFFFF7F4002D235FFFFFFFF00FEFF3F88832700000000000000000000
(00.037686) can0 D9#3913010B58BA38559500FE03BAFFEF39130015DC6A260DA06C8DBD0F1258F0FFFFFFFFFF3CBD5B320000000000000000
(00.038440) can0 DB#390E002090DF4424A881831A3F2380556C4DC116B3281D5C060300F1FFFFFFFF3D38DD50000000000000000000000000
(00.041597) can0 D4#39040C050E0FF8FFFF000000
(00.041797) can0 E3#39042208003D867E780FFAFF3980000C00FFAF8F1630B0FE41A3747241000508019A8ECC5B8404850000000000000000
(00.043061) can0 DB#390F00153F134420FFFF7FCFFFFF3FFFFFFFFFFFFF3D8A093400000000000000
(00.006224) can0 DC#39100016C260080E9A010023A8352C0000000000FFFFFF01384D000000000000
(00.006609) can0 18E19490#01E6016A0D8301800CF100BC02060620030000401F01BD03AC0DF206012003580E01FA06840C000001010000DC37D007AC0D401F0C561A581311001505150000
(00.007800) can0 2D#FA9A1204C4090090709758624652B52BC8E030FFFFFF7F4002D235FFFFFFFF00FEFF03EBCD0A00000000000000000000
(00.009084) can0 D9#3913010B58BA38559500FE03BAFFEF39130015F25C080DA06C4DBD0F1258F0FFFFFFFFFF00903A620000000000000000
(00.009861) can0 DB#390E00202E802624A881831A3F2380156C4DC116B3281D5C050300F1FFFFFFFF018157FA000000000000000000000000
(00.013021) can0 D4#39040C050E0FF8FFFF000000
(00.013221) can0 E3#39042208003D867E780FFAFF3980000C00FFAF8F1630B0FE05355BD8410005080103306A38661E850000000000000000
(00.014496) can0 DB#390F0015FD762620FFFF7FCFFFFF3FFFFFFFFFFFFF010FB89F00000000000000
(00.022119) can0 44#04
(00.026219) can0 DC#39100016E6C8090E9A010023A8352C0000000000FFFF01265E50000000000000
(00.027861) can0 2D#E5931304C4090090709758624652B52BC8E030FFFFFF7F4002D235FFFFFFFF00FEFF059D20CF00000000000000000000
(00.028959) can0 D9#39130015C016090DA06C0DBD0F1258F0FFFFFFFFFF02A6A2A600000000000000
(00.029934) can0 DB#390E010FDC35FFFFFFFFFFFFFF0FD408BCFDFF390E002075152724A881831A3F2380156C4DC116B3281D5C060300F1FFFFFFFF038992EA000000000000000000
(00.034457) can0 DB#390F00151F662720FFFF7FCFFFFF3FFFFFFFFFFFFF03ECA1BD00000000000000
(00.036242) can0 18E19490#02840064646401000327570203000000000000000E011201BE04C104C7040200FCFF00004E14CA0573058213000004027808800C930FED0B1311001505150000
(00.046271) can0 DC#39100110554340005610D906E99C112095C0FFF539100016AB200A0E9A010023A8352C0000000000FFFF034B5E920000
(00.047829) can0 2D#B8AC1404C4090090709758624652B52BC8E030FFFFFF7F4002D235FFFFFFFF00FEFF0772698700000000000000000000
(00.048349) can0 D4#390C140CFFFFFFFFFDFFFFFFFFFFFFFF
(00.048960) can0 D9#3913001596C80A0DA06CCDBD0F1258F0FFFFFFFFFF04B3113100000000000000
(00.001207) can0 D9#39FE28082900000000000000
(00.008437) can0 DC#39100016E6E2EA0E9A010023A8352C0000000000FFFFC33FD969000000000000
(00.008820) can0 18E19490#01E6016A0D8301800CF100BC02060620030000401F01BF03AC0DF206012003580E01FA06800C000001010000D437D007AC0D401F0C5011581311001505150000
(00.010082) can0 2D#FF37F404C4090090709758624652B52BC8E030FFFFFF7F4002D235FFFFFFFF00FEFFC7CC711600000000000000000000
(00.010606) can0 E3#3E800108C3022CF0BA00E0FF39042208003DC67E782FFEFF3980000C00FFAF8F1630B0FEC903BE210000000000000000
(00.011391) can0 D9#3913010B58BA38559500FE03BAFFEF39130015987CEA0DA06CCDBD0F1258F0FFFFFFFFFFC35D3A0F0000000000000000
(00.012156) can0 DB#390E0020A77C0824A881831A3F2380556C4DC116B3281D5C050300F1FFFFFFFFC5860608000000000000000000000000
(00.015291) can0 D4#39040C050E0FF8FFFF000000
(00.016796) can0 DB#390F0015A3AF0820FFFF7FCFFFFF3FFFFFFFFFFFFFC5CC0F1500000000000000
(00.020037) can0 E3#41000508013F770CCC53F9A0
(00.024393) can0 44#04
(00.028471) can0 DC#39100016C24AEB0E9A010023A8352C0000000000FFFFC5B95CC9000000000000
(00.030225) can0 2D#E03EF504C4090090709758624652B52BC8E030FFFFFF7F4002D235FFFFFFFF00FEFFC96A4A7900000000000000000000
(00.031366) can0 D9#39130015CB4DEB0DA06D8DBD0F1258F0FFFFFFFFFFC52CD7BF00000000000000
(00.032209) can0 DB#390E010FD035FFFFFFFFFFFFFF0FD408BCFDFF390E002033580924A881831A3F2380556C4DC116B3281D5C050300F1FFFFFFFFC64FA7F6000000000000000000
(00.036735) can0 DB#390F001541BF0920FFFF7FCFFFFF3FFFFFFFFFFFFFC64F1FD100000000000000
(00.038476) can0 DC#39FE6F089401008003000000
(00.038674) can0 18E19490#02840064646401000527580203000000000000000E011201BE04C104C7040200FEFF00004A14CA0573057D13000004027808800C9B0FED0B1311001505150000
(00.048520) can0 DC#39100110554340005610A902E89C112095C0FFF1391000165D22EC0E9A010023A8352C0000000000FFFFC6343C1C0000
(00.000708) can0 E3#39060B08001111180000D0FF
(00.008995) can0 DC#39100016048CCF0E9A010023A8352C0000000000FFFF8D06412F000000000000
(00.009379) can0 18E19490#036806BD165DD2100E0F0E1E00F400F6000000020102010000EF01EF01000000000402011000AC0D0D0E0E0E1E0094D9057116D70C841C001311001505150000
(00.010712) can0 2D#A561D904C4090090709758624652B52BC8E030FFFFFF7F4002D235FFFFFFFF00FEFF914A478600000000000000000000
(00.011232) can0 4F#28B8030009DA2269
(00.011395) can0 E3#008000043EF858040500000CF5FCFF00000000009357C5C7
(00.011910) can0 D9#39130015DE37CF0DA06D8DBE0F1258F0FFFFFFFFFF8DADDF6B00000000000000
(00.012838) can0 DB#390E0020F265ED24A881831A3F2380556C4DC116B3281D5C060300F1FFFFFFFF8F96AE93000000000000000000000000
(00.017437) can0 DB#390F0015C748ED20FFFF7FCFFFFF3FFFFFFFFFFFFF8FEF292900000000000000
(00.028989) can0 DC#391000167CFBD00E9A210023A8352C0000000000FFFF8F766100000000000000
(00.030735) can0 2D#847ADA04C4090090709758624652B52BC8E030FFFFFF7F4002D235FFFFFFFF00FEFF93D865B500000000000000000000
(00.031253) can0 D4#39040604A4B59484
(00.031998) can0 D9#39130015C169D00DA06D0DBE0F1258F0FFFFFFFFFF8F1EC53300000000000000
(00.032824) can0 DB#390E002081B9EE24A881831A3F2380556C4DC116B3281D5C050300F1FFFFFFFF912CEC2D000000000000000000000000
(00.037427) can0 DB#390F0015E179EE20FFFF7FCFFFFF3FFFFFFFFFFFFF91774FE600000000000000
(00.037947) can0 DC085D#4002000000000000
(00.039117) can0 18E19490#04540156010F002A30EE0C710D220183010803010101010100000000000000000000000000000000000000000000000000000000000000001311001505150000
(00.040651) can0 E3#4100050800800343D0729384
(00.049085) can0 DC#39100016307ED10E9A010023A8352C0000000000FFFF913B3852000000000000
(00.000206) can0 DB#390F00158916CB20FFFF7FCFFFFF3FFFFFFFFFFFFF4AE0425300000000000000
(00.000729) can0 21C#22000000000000000000000000000000000000000000000000000000000000000000000000000000000000000000000000000000000000000000000000000000
(00.003440) can0 E3#4100050800800343D0724CAE
(00.011721) can0 DC#391000161CEEAE0E9A010023A8352C0000000000FFFF4B87E2A5000000000000
(00.012104) can0 18E19490#01E7016A0D8301800CF100BC02060620030000401F01B701AC0DF206012003580E01FA06860C000001010000E437D007AC0D401F0C442F581311001505150000
(00.013523) can0 2D#F93CB804C4090090709758624652B52BC8E030FFFFFF7F4002D235FFFFFFFF00FEFF4F01A08900000000000000000000
(00.014683) can0 D9#3913010B58BA38559500FE03BAFFEF391300156144AE0DA06CCDBC0F1258F0FFFFFFFFFF4CD8FFF90000000000000000
(00.015598) can0 DB#390E00206293CC24A881831A3F2380556C4DC116B3281D5C060300F1FFFFFFFF4C759265000000000000000000000000
(00.018743) can0 D4#39040C050E0FF8FFFF000000
(00.018944) can0 E3#39042208003D867E780FFAFF3980000C00FF808F1630B0FE5196418F4100050801E2B684AB3C411F0000000000000000
(00.020234) can0 DB#390F00152764CC20FFFF7FCFFFFF3FFFFFFFFFFFFF4C9D5CE000000000000000
(00.027831) can0 44#04
(00.030077) can0 21C#23000000000000000000000000000000000000000000000000000000000000000000000000000000000000000000000000000000000000000000000000000000
(00.031701) can0 DC#391000163846AF0E9A010023A8352C0000000000FFFF4DF585F2000000000000
(00.033576) can0 2D#E635B904C4090090709758624652B52BC8E030FFFFFF7F4002D235FFFFFFFF00FEFF5186687900000000000000000000
(00.034557) can0 D9#391300153275AF0DA06D8DBC0F1258F0FFFFFFFFFF4DA06F5F00000000000000
(00.035602) can0 DB#390E010FDC35FFFFFFFFFFFFFF0FD408BCFDFF390E0020F6B7CD24A881831A3F2380556C4DC116B3281D5C060300F1FFFFFFFF4EC35861000000000000000000
(00.040195) can0 DB#390F0015C574CD20FFFF7FCFFFFF3FFFFFFFFFFFFF4E7551D300000000000000
(00.041721) can0 DC08E2#4002000000000000
(00.042012) can0 18E19490#02840064646401000527540203000000000000000E011201BF04C104C6040200FFFF00004E14D80575057E13000005027808800C5D0FED0B1311001505150000
(00.001443) can0 E3#39060B08001111180000D0FF
(00.009716) can0 DC#3910001671B2930E9A010023A8352C0000000000FFFF15D0498E000000000000
(00.010098) can0 18E19490#036806BB163BD2110E100E1E00F700F0000000020102010000EF01EF01000000000402011000AC0D0C0E0D0E1E0094D8055916D40C841C001311001505150000
(00.011487) can0 2D#5B229D04C4090090709758624652B52BC8E030FFFFFF7F4002D235FFFFFFFF00FEFF1965CA3A00000000000000000000
(00.012007) can0 E3#0080000468294C040500000CF5FCFF00000000001B4F9C70
(00.012531) can0 D9#391300155356930DA06D4DBD0F1250F0FFFFFFFFFF166D367100000000000000
(00.013623) can0 DB#390E0020081EB124A881831A3F2380556C4DC116B3281D5C060300F1FFFFFFFF161B51D8000000000000000000000000
(00.018208) can0 DB#390F00155AEAB120FFFF7FCFFFFF3FFFFFFFFFFFFF16A854CD00000000000000
(00.029686) can0 DC#39100016EEDA940E9A010023A8352C0000000000FFFF176CEDC6000000000000
(00.031546) can0 2D#7A399E04C4090090709758624652B52BC8E030FFFFFF7F4002D235FFFFFFFF00FEFF1BFCA0F000000000000000000000
(00.032068) can0 D4#3904060431E18884
(00.032508) can0 D9#391300158DCB940DA06D8DBD0F1250F0FFFFFFFFFF18D7B0E200000000000000
(00.033611) can0 DB#390E0020C0B2B224A881831A3F2380156C4DC116B3281D5C060300F1FFFFFFFF18AE60FC000000000000000000000000
(00.038214) can0 DB#390F00157CDBB220FFFF7FCFFFFF3FFFFFFFFFFFFF1831534600000000000000
(00.039838) can0 18E19490#04560152010F003430EB0C710D220184010803010101010100000000000000000000000000000000000000000000000000000000000000001311001505150000
(00.041451) can0 E3#4100050800800343D0721A8D
(00.001315) can0 DC#39100016CA58760E9A010023A8352C0000000000FFFFDB78137D000000000000
(00.003333) can0 2D#30D68004C4090090709758624652B52BC8E030FFFFFF7F4002D235FFFFFFFF00FEFFDFFFD17100000000000000000000
(00.003856) can0 D4#390406049A898284
(00.004231) can0 D9#39130015579D760DA06D4DBE0F1258F0FFFFFFFFFFDC8BFAA300000000000000
(00.005343) can0 DB#390E0020C87A9424A881831A3F2380556C4DC116B3281D5C060300F1FFFFFFFFDD3729D4000000000000000000000000
(00.009949) can0 DB#390F001532859420FFFF7FCFFFFF3FFFFFFFFFFFFFDD48AFC900000000000000
(00.011439) can0 18E19490#04550154010F002A30EA0C700D220184010803010101010100000000000000000000000000000000000000000000000000000000000000001311001505150000
(00.013180) can0 E3#4100050800800343D071DF47
(00.021410) can0 DC#39100016EEF0770E9A010023A8352C0000000000FFFFDD06D000000000000000
(00.023265) can0 2D#2FDF8104C4090090709758624652B52BC8E030FFFFFF7F4002D235FFFFFFFF00FEFFE1E98B1300000000000000000000
(00.024331) can0 D9#3913010B59BA38559500FE03BAFFEF391300152A88770DA06D4DBD0F1258F0FFFFFFFFFFDEDD36F20000000000000000
(00.025341) can0 DB#390E002093EF9524A881831A3F2380556C4DC116B3281D5C050300F1FFFFFFFFDF8E87ED000000000000000000000000
(00.028495) can0 D4#39040C050E0FF8FFFF3915011445F991E5F85FF5FFFFFFFFFE0700A12895FEFFFF000000000000000000000000000000
(00.029025) can0 E3#39042208003D877E780FFAFF41000508017F93E2C7370017
(00.029970) can0 DB#390F0015D0959520FFFF7FCFFFFF3FFFFFFFFFFFFFDF6C4DC600000000000000
(00.041313) can0 DC#39100016F489780E9A010023A8352C0000000000FFFFDF01696B000000000000
(00.041697) can0 18E19490#0000000155555555056706D7030000EF0167013B028D0000860192010000F608E60800005554520F010F01CE019B017701560156555143031311001505150000
(00.043307) can0 2D#0EC48204C4090090709758624652B52BC8E030FFFFFF7F4002D235FFFFFFFF00FEFFE35102DF00000000000000000000
(00.044312) can0 D9#39130015CBE1780DA06DCDBD0F1250F0FFFFFFFFFFE0F6A69500000000000000
(00.045345) can0 DB#390E010FD835FFFFFFFFFFFFFF0FD408BCFDFF390E00202F829624A881831A3F2380556C4DC116B3281D5C050300F1FFFFFFFFE172F980000000000000000000
(00.002468) can0 DC#39100016E0CF580E9A010023A8352C0000000000FFFF9ECB0943000000000000
(00.004427) can0 2D#495F6204C4090090709758624652B52BC8E030FFFFFF7F4002D235FFFFFFFF00FEFFA3CFFECB00000000000000000000
(00.004948) can0 D4#390406048DB47C84
(00.005343) can0 D9#39130015B932580DA06D0DBD0F1250F0FFFFFFFFFF9FFB782D00000000000000
(00.006623) can0 DB#390E0020CAEC7624A881831A3F2380156C4DC116B3281D5C060300F1FFFFFFFFA0347E6F000000000000000000000000
(00.011053) can0 DB#390F0015F8107620FFFF7FCFFFFF3FFFFFFFFFFFFFA0FA18CB00000000000000
(00.012591) can0 18E19490#045401570110002A30EA0C710D220184010803010101010100000000000000000000000000000000000000000000000000000000000000001311001505150000
(00.014349) can0 E3#4100050800800343D071A32E
(00.022562) can0 DC#39100016C467590E9A010023A8352C0000000000FFFFA045D9EF000000000000
(00.024450) can0 2D#56566304C4090090709758624652B52BC8E030FFFFFF7F4002D235FFFFFFFF00FEFFA5E3DC7100000000000000000000
(00.025476) can0 D9#3913010B59BA38559500FE03BAFFEF39130015C427590DA06D0DBE0F1250F0FFFFFFFFFFA1DCBDC50000000000000000
(00.026532) can0 DB#390E00205EC87724A881831A3F2380156C4DC116B3281D5C060300F1FFFFFFFFA235AD34000000000000000000000000
(00.029670) can0 D4#39040C050E0FF8FFFF3915011445F991E1F85FF5FFFFFFFFFE0700A12899FEFFFF000000000000000000000000000000
(00.030200) can0 E3#39042208003D877E780FFAFF4100050801953787BF030BE8
(00.031162) can0 DB#390F00151A007720FFFF7FCFFFFF3FFFFFFFFFFFFFA271701F00000000000000
(00.042474) can0 DC#39100016898F5A0E9A010023A8352C0000000000FFFFA2DBE9AB000000000000
(00.042857) can0 18E19490#0000000155555555056706D7030000EF0167013B028D0000850190010000F308E70800005554520F010F01CF019C01760156015655513F031311001505150000
(00.044493) can0 2D#0B696404C4090090709758624652B52BC8E030FFFFFF7F4002D235FFFFFFFF00FEFFA7080BE400000000000000000000
(00.045517) can0 D9#391300150DFC5A0DA06DCDBD0F1250F0FFFFFFFFFFA41AE38E00000000000000
(00.046537) can0 DB#390E010FD035FFFFFFFFFFFFFF0FD408BCFDFF390E002033037824A881831A3F2380156C4DC116B3281D5C060300F1FFFFFFFFA5C4AC4D000000000000000000
(00.000252) can0 E3#39060B08001111180000D0FF
(00.008383) can0 DC#3910001667C53E0E9A010023A8352C0000000000FFFF6B71A94E000000000000
(00.010319) can0 2D#4E364804C4090090709758624652B52BC8E030FFFFFF7F4002D235FFFFFFFF00FEFF6FC6D3E900000000000000000000
(00.010840) can0 E3#00800004303A3B04
(00.011247) can0 D9#39130015DC673E0DA06D4DBD0F1258F0FFFFFFFFFF6C62235B00000000000000
(00.012563) can0 DB#390E0020DC335C24A881831A3F2380556C4DC116B3281D5C050300F1FFFFFFFF6D021047000000000000000000000000
(00.016972) can0 DB#390F00152E8A5C20FFFF7FCFFFFF3FFFFFFFFFFFFF6DD6098E00000000000000
(00.028306) can0 DC#39100016436D3F0E9A010023A8352C0000000000FFFF6DF3D2D4000000000000
(00.028689) can0 18E19490#02840064646401000727550203000000000000000D011201BF04C104C5040200FEFF00004E14CC0573057F13000006027808800C820FED0B1311001505150000
(00.030345) can0 2D#513F4904C4090090709758624652B52BC8E030FFFFFF7F4002D235FFFFFFFF00FEFF71102F8800000000000000000000
(00.030868) can0 D4#3904060492AA7784
(00.031219) can0 D9#391300154E983F0DA06D8DBD0F1258F0FFFFFFFFFF6EB50E6900000000000000
(00.032549) can0 DB#390E002087A65D24A881831A3F2380556C4DC116B3281D5C060300F1FFFFFFFF6F97ED0F000000000000000000000000
(00.036978) can0 DB#390F0015CC9A5D20FFFF7FCFFFFF3FFFFFFFFFFFFF6F088A0700000000000000
(00.040274) can0 E3#4100050800800343D0717166
(00.048345) can0 DC#391000166FFD400E9A010023A8352C0000000000FFFF6F5A4391000000000000
(00.000005) can0 141#95103063
(00.003098) can0 D4#39040C050E0FF8FFFF3915011445F991E1F85FF5FFFFFFFFFE0700A12895FEFFFF000000000000000000000000000000
(00.003628) can0 E3#39042208003D877E780FFAFF410000080142315052313138410005080128F90CD671B055410002080007E706170F142E
(00.004536) can0 DB#390F001586BC3B20FFFF7FCFFFFF3FFFFFFFFFFFFF2AA15DF400000000000000
(00.007972) can0 4F#204C0CA00049A7F6
(00.012907) can0 E3#4100010800080528F24B2614
(00.014134) can0 DB#390E022A3E004600650A0C421DD4010047403E49E0D16CC24D85E50D9182F847CE43068867E9FFFFFFFF2C010FE60000
(00.015613) can0 DC#3910001673831E0E9A010023A8352C0000000000FFFF29852A65000000000000
(00.015997) can0 18E19490#0000000155555555056806D8030000EF0167013B028D0000840190010000F108EF0800005554520F010F01CE019B01780156015655514D031311001505150000
(00.017787) can0 2D#0D622804C4090090709758624652B52BC8E030FFFFFF7F4002D235FFFFFFFF00FEFF2FA05FE600000000000000000000
(00.018562) can0 D9#39130015DBB71E0DA06D8DBC0F1258F0FFFFFFFFFF2B22AAD300000000000000
(00.019918) can0 DB#390E010FC035FFFFFFFFFFFFFF0FD408BCFDFF390E0308086D82F8FFFFFFFF00
(00.022991) can0 E3#41000008023439372DD85BB0
(00.024263) can0 DB#390E002085943C24A881831A3F2380156C4DC116B3281D5C050300F1FFFFFFFF2DABE290390F001528CE3C20FFFF7FCFFFFF3FFFFFFFFFFFFF2D375008000000
(00.032931) can0 E3#410002080101B9A313EA303041000108011B96528D8A18D6
(00.034215) can0 DB#390E04105CE30B4C24B4DBFF3FAE6C79EBFFFFFF390F01064D85046078190000
(00.035640) can0 DC#391001105543403056106106E99C122095C0FFF539100016572B1F0E9A010023A8352C0000000000FFFF2DAB1E5B0000
(00.037739) can0 2D#126B2904C4090090709758624652B52BC8E030FFFFFF7F4002D235FFFFFFFF00FEFF3117F0A500000000000000000000
(00.038259) can0 D4#390C140CFFFFFFFFFDFFFFFFFFFFFFFF
(00.038746) can0 D9#39130015E9FD1F0DA06DCDBC0F1258F0FFFFFFFFFF2D4EBE1A00000000000000
(00.039912) can0 DB#390E0020DE013D24A881831A3F2380156C4DC116B3281D5C060300F1FFFFFFFF2F214810000000000000000000000000
(00.042886) can0 E3#410000080369809B96C3000039060B08001111180000D0FF
(00.044527) can0 DB#390F0015CADE3D20FFFF7FCFFFFF3FFFFFFFFFFFFF2FB1CE4A00000000000000
(00.045854) can0 18E19490#01E5016A0D8301800CF100BC02060620030000401F01BF03AC0DF206012003580E01FC06870C000001010000DC37D007AC0D401F0C270D581311001505150000
(00.001137) can0 18E19490#01E7016A0D8301800CF100BC02060620030000401F01BF03AC0DEF06012003500E01FA06840C000001010000DC37D007AC0D401F0C2103581311001505150000
(00.002921) can0 E3#39060B08001111180000D0FF
(00.008145) can0 E3#0080000466EB2F04
(00.011001) can0 DC#391000162E31020E9A010023A8352C0000000000FFFFF1C6C3AB000000000000
(00.012971) can0 2D#B0750C04C4090090709758624652B52BC8E030FFFFFF7F4002D235FFFFFFFF00FEFFF711951700000000000000000000
(00.013937) can0 D9#39130015376E020DA06D8DBD0F1258F0FFFFFFFFFFF37D492100000000000000
(00.015217) can0 DB#390E002064312023A881831A3F2380156C4DC116B3281D5C050300F1FFFFFFFFF4E2FF20000000000000000000000000
(00.019643) can0 DB#390F0015B1142020FFFF7FCFFFFF3FFFFFFFFFFFFFF4E0344300000000000000
(00.030914) can0 DC#391000160A99030E9A010023A8352C0000000000FFFFF33271C9000000000000
(00.031298) can0 18E19490#02840064646401000427550203000000000000000C011201BE04C104C4040100FEFF00004D14CD0573058213000004027808800C860FED0B1311001505150000
(00.032994) can0 2D#AF7C0D04C4090090709758624652B52BC8E030FFFFFF7F4002D235FFFFFFFF00FEFFF91F15D000000000000000000000
(00.033517) can0 D4#3904060407FE6B84
(00.035097) can0 DB#390E00200DCE2124A881831A3F2380156C4DC116B3281D5C060300F1FFFFFFFFF6EE72C4000000000000000000000000
(00.035617) can0 D9#3913001575CB030DA06D0DBD0F1258F0FFFFFFFFFFF5BA105D00000000000000
(00.039791) can0 DB#390F001553042120FFFF7FCFFFFF3FFFFFFFFFFFFFF6DF2A1300000000000000
(00.042912) can0 E3#4100050800800343D070F908
(00.000457) can0 2D#C9FCEE04C4090090709758624652B52BC8E030FFFFFF7F4002D235FFFFFFFF00FEFFBB38A19600000000000000000000
(00.000978) can0 E3#00800004FFCC29043204000CC48F7553670700F0B978B1F8
(00.001397) can0 D9#39130015D0E1E40DA06DCDBC0F1258F0FFFFFFFFFFB8E493A300000000000000
(00.002617) can0 21C#1102010B77047C187E0C800083E887D08BB88FA09388000000000000000000000000000000000000000000000000000000000000000000000000000000000000
(00.003321) can0 21D#304028
(00.003525) can0 DB#390E00207AC00224A881831A3F2380156C4DC116B3281D5C050300F1FFFFFFFFB825F451000000000000000000000000
(00.004059) can0 21C#21000000000000000000000000000000000000000000000000000000000000000000000000000000000000000000000000000000000000000000000000000000
(00.007107) can0 DB#390F001577090220FFFF7FCFFFFF3FFFFFFFFFFFFFB802C88E00000000000000
(00.018243) can0 DC#39100016FC9BE50E9A010023A8352C0000000000FFFFB97A9AC0000000000000
(00.018627) can0 18E19490#02840064646401000627540202000000000000000E011201BE04C104C4040200FEFF00004E14D00573058213000004027808800C6E0FED0B1311001505150000
(00.020444) can0 2D#D6F5EF04C4090090709758624652B52BC8E030FFFFFF7F4002D235FFFFFFFF00FEFFBDD39C3500000000000000000000
(00.020962) can0 D4#390406045D5C6584
(00.022558) can0 DB#390E0020EEE40324A881831A3F2380156C4DC116B3281D5C050300F1FFFFFFFFBA49D7A3000000000000000000000000
(00.023077) can0 D9#3913001547F2E50DA06DCDBD0F1258F0FFFFFFFFFFBAD2065B00000000000000
(00.027201) can0 DB#390F001595190320FFFF7FCFFFFF3FFFFFFFFFFFFFBA25527900000000000000
(00.027723) can0 21C#22000000000000000000000000000000000000000000000000000000000000000000000000000000000000000000000000000000000000000000000000000000
(00.030352) can0 E3#4100050800800343D070BC74
(00.038279) can0 DC#39100016B173E60E9A010023A8352C0000000000FFFFBBD26E92000000000000
(00.040444) can0 2D#8313F004C4090090709758624652B52BC8E030FFFFFF7F4002D235FFFFFFFF00FEFFBF0DCD4B00000000000000000000
(00.040965) can0 E3#3980000C007FA08F1630B0FEC1AECC4E39042208003D867E780FFAFF00000000
(00.041355) can0 D9#3913010B58BA38559500FE03BAFFEF3913001514C0E60DA06DCDBC0F1258F0FFFFFFFFFFBC70E3660000000000000000
(00.042603) can0 DB#390E002076DA0424A881831A3F2380556C4DC116B3281D5C050300F1FFFFFFFFBCF32F80000000000000000000000000
(00.045681) can0 D4#39040C050E0FF8FFFF000000
(00.047195) can0 DB#390F00153B6B0420FFFF7FCFFFFF3FFFFFFFFFFFFFBCA582BE00000000000000
(00.048387) can0 18E19490#036806B4165DD2100E100E1E00EF00F6000000030103010000EF01EF01000000000602011000AC0D0D0E0D0E1E0094D8056416DC0C841C001311001505150000
(00.001118) can0 2D#4220D004C4090090709758624652B52BC8E030FFFFFF7F4002D235FFFFFFFF00FEFF7F70724E00000000000000000000
(00.001640) can0 E3#0080000454A42304
(00.002084) can0 D9#391300151310C60DA06D0DBD0F1258F0FFFFFFFFFF7CD81DDA00000000000000
(00.003405) can0 DB#390E002093B4E424A881831A3F2380156C4DC116B3281D5C060300F1FFFFFFFF7D3D9343000000000000000000000000
(00.007815) can0 DB#390F001535DFE420FFFF7FCFFFFF3FFFFFFFFFFFFF7D6B444900000000000000
(00.018909) can0 DC#39100016819DC70E9A010023A8352C0000000000FFFF7DDD3EAF000000000000
(00.019293) can0 18E19490#02840064646401000827540204000000000000000D011201BF04C104C3040100FFFF00004B14D60574058213000006027808800C860FED0B1311001505150000
(00.021161) can0 2D#5D29D104C4090090709758624652B52BC8E030FFFFFF7F4002D235FFFFFFFF00FEFF8127970200000000000000000000
(00.021682) can0 D4#390406041F185F84
(00.023238) can0 D9#39130015215AC70DA06D4DBD0F1258F0FFFFFFFFFF7E5EFFA200000000000000
(00.023615) can0 DB#390E0020C821E524A881831A3F2380156C4DC116B3281D5C050300F1FFFFFFFF7FDD235D000000000000000000000000
(00.027911) can0 DB#390F0015D7CFE520FFFF7FCFFFFF3FFFFFFFFFFFFF7F030E2C00000000000000
(00.031079) can0 E3#4100050800800343D070816A
(00.038949) can0 DC#391000169BE4C80E9A010023A8352C0000000000FFFF7F92409F000000000000
(00.041160) can0 2D#7C32D204C4090090709758624652B52BC8E030FFFFFF7F4002D235FFFFFFFF00FEFF83A30A0D00000000000000000000
(00.042018) can0 D9#3913010B58BA38559500FE03BAFFEF391300159A43C80DA06D8DBC0F1258F0FFFFFFFFFF807490EB0000000000000000
(00.043388) can0 DB#390E00208997E623A881831A3F2380156C4DC116B3281D5C060300F1FFFFFFFF8133081E000000000000000000000000
(00.046385) can0 D4#39040C050E0FF8FFFF000000
(00.046586) can0 E3#39042208003D867E780FFAFF3980000C007FA08F1630B0FE850CE8934100050801D0882B17F302260000000000000000
(00.047846) can0 DB#390F0015F1FEE620FFFF7FCFFFFF3FFFFFFFFFFFFF812C342800000000000000
(00.049070) can0 18E19490#036806BF165BD20F0E0E0E1E00F700EE000000020102010000EF01EF01000000000502011000AC0D0E0E0E0E1E0094D5056216D80C841C001311001505150000
(00.000270) can0 DB#390F001511D2C720FFFF7FCFFFFF3FFFFFFFFFFFFF43CA316100000000000000
(00.003426) can0 E3#4100050800800343D07045D0
(00.011219) can0 DC#39100016CE6EAA0E9A010023A8352C0000000000FFFF43273673000000000000
(00.013509) can0 2D#7D50B404C4090090709758624652B52BC8E030FFFFFF7F4002D235FFFFFFFF00FEFF471D160200000000000000000000
(00.014332) can0 D9#3913010B58BA38559500FE03BAFFEF39130015887CAA0DA06DCDBC0F1258F0FFFFFFFFFF442B92F40000000000000000
(00.015745) can0 DB#390E0020FDB0C824A881831A3F2380556C4DC116B3281D5C050300F1FFFFFFFF4564DC60000000000000000000000000
(00.018732) can0 D4#39040C050E0FF8FFFF000000
(00.018932) can0 E3#39042208003D867E780FFAFF3980000C007FA08F1630B0FE4961A9BC4100050801C9FF31C90B4E260000000000000000
(00.020206) can0 DB#390F0015AF27C820FFFF7FCFFFFF3FFFFFFFFFFFFF453359D500000000000000
(00.021334) can0 18E19490#036806C01664D20F0E0F0E1E00F000F6000000020102010000EF01EF01000000000502011000AC0D0D0E0E0E1E0094D9056B16DB0C841C001311001505150000
(00.027839) can0 44#04
(00.031256) can0 DC#39100016EAC6AB0E9A010023A8352C0000000000FFFF4598CD98000000000000
(00.033578) can0 2D#6259B504C4090090709758624652B52BC8E030FFFFFF7F4002D235FFFFFFFF00FEFF4991ACAE00000000000000000000
(00.034247) can0 D9#391300152164AB0DA06DCDBB0F1258F0FFFFFFFFFF464BF97700000000000000
(00.035716) can0 DB#390E010FCC35FFFFFFFFFFFFFF0FD408BCFDFF390E00201D55C924A881831A3F2380156C4DC116B3281D5C050300F1FFFFFFFF4736DF2A000000000000000000
(00.040170) can0 DB#390F00154D37C920FFFF7FCFFFFF3FFFFFFFFFFFFF4746631400000000000000
(00.002837) can0 E3#39060B08001111180000D0FF
(00.010604) can0 DC#391000162C008F0E9A010023A8352C0000000000FFFF0CD91936000000000000
(00.012880) can0 2D#27069904C4090090709758624652B52BC8E030FFFFFF7F4002D235FFFFFFFF00FEFF11ECC8F000000000000000000000
(00.013400) can0 E3#00800004A2961804
(00.013794) can0 D9#3913001540A68F0DA06D4DBC0F1258F0FFFFFFFFFF0DAA023E00000000000000
(00.015179) can0 DB#390E002060A1AD24A881831A3F2380156C4DC116B3281D5C050300F1FFFFFFFF0EAB6007000000000000000000000000
(00.018191) can0 E3#0500000CF5FCFF000000000013B2F518
(00.019585) can0 DB#390F0015C330AD20FFFF7FCFFFFF3FFFFFFFFFFFFF0E55710A00000000000000
(00.020641) can0 18E19490#0000000155555555056806D8030000EF0167013B028D000083018F010000F808EC0800005554520E010F01CE019B01770156015655515D031311001505150000
(00.030666) can0 DC#391000163C5A900E9A010023A8352C0000000000FFFF0EACD358000000000000
(00.032914) can0 2D#061D9A04C4090090709758624652B52BC8E030FFFFFF7F4002D235FFFFFFFF00FEFF136FDE8E00000000000000000000
(00.033435) can0 D4#3904060400065484
(00.034913) can0 D9#391300155A14900DA06D0DBD0F1258F0FFFFFFFFFF0F072B5400000000000000
(00.035292) can0 DB#390E0020A80DAE24A881831A3F2380556C4DC116B3281D5C050300F1FFFFFFFF102C287E000000000000000000000000
(00.039680) can0 DB#390F0015E501AE20FFFF7FCFFFFF3FFFFFFFFFFFFF10E642EE00000000000000
(00.042829) can0 E3#4100050800800343D07013DF
(00.010245) can0 DC#39100016A318740E9A010023A8352C0000000000FFFFD77CB06B000000000000
(00.012643) can0 2D#3DA27E04C4090090709758624652B52BC8E030FFFFFF7F4002D235FFFFFFFF00FEFFDB101FCB00000000000000000000
(00.013398) can0 D9#391300150CB9740DA06D4DBD0F1258F0FFFFFFFFFFD85BF9A900000000000000
(00.014812) can0 DB#390E010FDC35FFFFFFFFFFFFFF0FD408BCFDFF390E00200BD19224A881831A3F2380156C4DC116B3281D5C050300F1FFFFFFFFD9F05889000000000000000000
(00.019265) can0 DB#390F00157EE79220FFFF7FCFFFFF3FFFFFFFFFFFFFD97EA2D600000000000000
(00.020288) can0 18E19490#02840064646401000627550202000000000000000E011201BF04C104C3040300FBFF00004E14CE0571058113000005027808800C8E0FED0B1311001505150000
(00.030347) can0 DC#391001105543403056105112E99C122095C0FFF13910001687B0750E9A010023A8352C0000000000FFFFD998AAB20000
(00.032548) can0 2D#22AB7F04C4090090709758624652B52BC8E030FFFFFF7F4002D235FFFFFFFF00FEFFDD08829200000000000000000000
(00.033070) can0 D4#390C140CFFFFFFFFFDFFFFFFFFFFFFFF
(00.033421) can0 D9#39130015EEA9750DA06D4DBD0F1258F0FFFFFFFFFFDA514DB900000000000000
(00.034810) can0 DB#390F01064D850460341D390E0020622E9323A881831A3F2380156C4DC116B3281D5C060300F1FFFFFFFFDB99A0310000
(00.039265) can0 DB#390F00159CF79320FFFF7FCFFFFF3FFFFFFFFFFFFFDB4474D400000000000000
(00.042512) can0 E3#39060B08001111180000D0FF
(00.000665) can0 DB#390E010FD835FFFFFFFFFFFFFF0FD408BCFDFF390E030832317EF8FFFFFFFF00
(00.003715) can0 E3#41000008023439379DF3F34C
(00.005048) can0 DB#390E0020E2A57424A881831A3F2380156C4DC116B3281D5C060300F1FFFFFFFF9D79424E390F00153C317420FFFF7FCFFFFF3FFFFFFFFFFFFF9D9815ED000000
(00.006088) can0 18E19490#02840064646401000727550203000000000000000D011301BF04C004C3040200FDFF00005014CD056E058213000006027808800C550FED0B1311001505150000
(00.014975) can0 DB#390E04105CE30B4C24B4DBFF3FAE6C79EBFFFFFF390F01064D850460341D0000
(00.016072) can0 DC#391001105543403056102156E99C112095C0FFF539100016FAB6570E9A010023A8352C0000000000FFFF9D0F724A0000
(00.018413) can0 2D#68446104C4090090709758624652B52BC8E030FFFFFF7F4002D235FFFFFFFF00FEFFA12BEF6100000000000000000000
(00.018933) can0 D4#390C140CFFFFFFFFFDFFFFFFFFFFFFFF
(00.019172) can0 D9#391300158801570DA06DCDBD0F1258F0FFFFFFFFFF9D29479800000000000000
(00.020828) can0 DB#390E002076817524A881831A3F2380156C4DC116B3281D5C060300F1FFFFFFFF9F5495F3000000000000000000000000
(00.023651) can0 E3#4100000803813676EEC1000039060B08001111180000D0FF
(00.025167) can0 DB#390F0015DE217520FFFF7FCFFFFF3FFFFFFFFFFFFF9F03C41B00000000000000
(00.035997) can0 DC#39100016E0CF580E9A010023A8352C0000000000FFFF9F3ACA75000000000000
(00.036381) can0 18E19490#036806B9165DD20F0E0F0E1E00F300F3000000030103010000EF01EF01000000000602011000AC0D0F0E100E1E0094DB054C16D70C841C001311001505150000
(00.038398) can0 2D#495F6204C4090090709758624652B52BC8E030FFFFFF7F4002D235FFFFFFFF00FEFFA327087E00000000000000000000
(00.038920) can0 4F#286E040027AC5B17
(00.039083) can0 E3#0080000440310D04
(00.039268) can0 D9#3913001536F4580DA06DCDBD0F1258F0FFFFFFFFFF9EBAB45500000000000000
(00.040680) can0 DB#390E0020F8867623A881831A3F2380156C4DC116B3281D5C060300F1FFFFFFFFA135F867000000000000000000000000
(00.045124) can0 DB#390F0015F8107620FFFF7FCFFFFF3FFFFFFFFFFFFFA16CA77000000000000000
(00.001817) can0 DC#39100016AF3C350E9A010023A8352C0000000000FFFF5940F337000000000000
(00.004255) can0 2D#A0CC3F04C4090090709758624652B52BC8E030FFFFFF7F4002D235FFFFFFFF00FEFF5DE2423600000000000000000000
(00.004777) can0 E3#008000045F2F0604
(00.005033) can0 D9#3913001575D4350DA06D4DBE0F1258F0FFFFFFFFFF5A396D9E00000000000000
(00.006543) can0 DB#390E0020C5395324A881831A3F2380156C4DC116B3281D5C050300F1FFFFFFFF5AE6A6B8000000000000000000000000
(00.009537) can0 E3#0500000CF5FCFF00000000005F01B394
(00.010989) can0 DB#390F0015907F5320FFFF7FCFFFFF3FFFFFFFFFFFFF5AE4FB1300000000000000
(00.011867) can0 18E19490#0000000155555555056806D8030000EF0167013B028D000083018E010000EE08E70800005554520F010F01CE019B017701560156555253031311001505150000
(00.021877) can0 DC#39100016E2D4360E9A010023A8352C0000000000FFFF5B7EA1D9000000000000
(00.024292) can0 2D#B67E4004C4090090709758624652B52BC8E030FFFFFF7F4002D235FFFFFFFF00FEFF5F63066200000000000000000000
(00.024816) can0 D4#390406043E3A4284
(00.026194) can0 D9#39130015230A360DA06D8DBE0F1258F0FFFFFFFFFF5C39203900000000000000
(00.026572) can0 DB#390E002029C65424A881831A3F2380156C4DC116B3281D5C050300F1FFFFFFFF5CC658FA000000000000000000000000
(00.031086) can0 DB#390F00153E0D5420FFFF7FCFFFFF3FFFFFFFFFFFFF5CBED46800000000000000
(00.034213) can0 E3#4100050800800343D06F5E2F
(00.041856) can0 DC#39100016C67C370E9A010023A8352C0000000000FFFF5D18A9E8000000000000
(00.042240) can0 18E19490#01E5016A0D8201800CF100BC02060620030000401F01BE03AC0DEB06012003480E01FA06830C000001010000DC37D007AC0D401F0C5E30581311001505150000
(00.044237) can0 D4#39040C050E0FF8FFFF390C1608FFFFFFFFFFFFFFFF3915011445F991E5F85FF5FFFFFFFFFE0700A12895FEFFFF000000
(00.044762) can0 2D#A9774104C4090090709758624652B52BC8E030FFFFFF7F4002D235FFFFFFFF00FEFF610C8E8700000000000000000000
(00.045281) can0 D4#390C083CFE7403800000086C753E3483FF33185A7007C501A82CE07C8FB30400009E053C400B5AD08216B4A0052D68FBA06BFE7FB3E600FFC9FFFFFF833EE4FF
(00.045937) can0 D9#3913010B58BA38559500FE03BAFFEF39130015FEAA370DA06D0DBD0F1258F0FFFFFFFFFF5E7AA6590000000000000000
(00.046555) can0 DB#390E0020BDE25524A881831A3F2380156C4DC116B3281D5C050300F1FFFFFFFF5EB63F3A000000000000000000000000
(00.049514) can0 E3#39042208003D877E781FFAFF4100050801847B45D7CCB824
(00.002945) can0 DB#390F0015FC683620FFFF7FCFFFFF3FFFFFFFFFFFFF20B637BC00000000000000
(00.006064) can0 E3#4100050800800343D06F23F3
(00.013695) can0 DC#39100016ECEB190E9A010023A8352C0000000000FFFF20210D0A000000000000
(00.014077) can0 18E19490#01E2016A0D8301800CF100BC02060620030000401F012F01AC0DEB06012003480E01FA06860C000001010000DC37D007AC0D401F0C5826581311001505150000
(00.016152) can0 2D#D4312304C4090090709758624652B52BC8E030FFFFFF7F4002D235FFFFFFFF00FEFF254F4F1B00000000000000000000
(00.016782) can0 D9#3913010B58BA38559500FE03BAFFEF391300155E0D190DA06C0DBE0F1258F0FFFFFFFFFF218A803E0000000000000000
(00.018383) can0 DB#390E0020B8CD3724A881831A3F2380156C4DC116B3281D5C050300F1FFFFFFFF22B42389000000000000000000000000
(00.021371) can0 D4#39040C050E0FF8FFFF3915011445F991E1F85FF5FFFFFFFFFE0700A12895FEFFFF000000000000000000000000000000
(00.021901) can0 E3#39042208003D877E780FFAFF4100050801F6E49D99FCCBEE
(00.022875) can0 DB#390F00151E783720FFFF7FCFFFFF3FFFFFFFFFFFFF224BA1E400000000000000
(00.033629) can0 DC#39100016A1031A0E9A010023A8352C0000000000FFFF2230C9E6000000000000
(00.036198) can0 2D#890E2404C4090090709758624652B52BC8E030FFFFFF7F4002D235FFFFFFFF00FEFF27F0AFCF00000000000000000000
(00.036718) can0 D9#39130015E2D51A0DA06CCDBC0F1258F0FFFFFFFFFF2326400E00000000000000
(00.038392) can0 DB#390E010FD835FFFFFFFFFFFFFF0FD408BCFDFF390E0020D5063824A881831A3F2380156C4DC116B3281D5C050300F1FFFFFFFF25946473000000000000000000
(00.042846) can0 DB#390F0015A08D3820FFFF7FCFFFFF3FFFFFFFFFFFFF25E0B2D000000000000000
(00.043671) can0 18E19490#02840064646401000427550203000000000000000E011301C104C004B3040100FDFF00004E14CE0573058513000006027808800C6E0FED0B1311001505150000
(00.003028) can0 DB#390F0015A2B11820FFFF7FCFFFFF3FFFFFFFFFFFFFE4F3DD6400000000000000
(00.006125) can0 E3#4100050800800343D06EE74A
(00.013644) can0 DC#39100016C869FB0E9A010023A8352C0000000000FFFFE4557C9C000000000000
(00.014027) can0 18E19490#01E2016A0D8301800CF100BC02060620030000401F011101AC0DEB06012003480E01FD06860C000001010000DC37D007AC0D401F0C521C581311001505150000
(00.016224) can0 2D#57340504C4090090709758624652B52BC8E030FFFFFF7F4002D235FFFFFFFF00FEFFE9D31DA400000000000000000000
(00.016989) can0 D9#3913010B58BA38559500FE03BAFFEF391300159498FB0DA06C0DBE0F1258F0FFFFFFFFFFE5B5D8080000000000000000
(00.018486) can0 DB#390E002045F01924A881831A3F2380156C4DC116B3281D5C050300F1FFFFFFFFE6F1E730000000000000000000000000
(00.021435) can0 D4#39040C050E0FF8FFFF3915011445F991E5F85FF5FFFFFFFFFE0700A12895FEFFFF000000000000000000000000000000
(00.021966) can0 E3#39042208003D877E780FFAFF4100050801C7B052BE6983E6
(00.022959) can0 DB#390F001540A11920FFFF7FCFFFFF3FFFFFFFFFFFFFE63F788400000000000000
(00.033604) can0 DC#391000165701FC0E9A010023A8352C0000000000FFFFE6DD88B5000000000000
(00.036308) can0 2D#762F0604C4090090709758624652B52BC8E030FFFFFF7F4002D235FFFFFFFF00FEFFEBC9E49300000000000000000000
(00.036829) can0 D9#39130015055AFC0DA06C8DBD0F1258F0FFFFFFFFFFE7C7E69400000000000000
(00.038476) can0 DB#390E010FDC35FFFFFFFFFFFFFF0FD408BCFDFF390E0020F99D1A24A881831A3F2380156C4DC116B3281D5C050300F1FFFFFFFFE9069F74000000000000000000
(00.042928) can0 DB#390F001566901A20FFFF7FCFFFFF3FFFFFFFFFFFFFE95E769100000000000000
(00.043682) can0 18E19490#02840064646401000627570202000000000000000E011301C104C004B6040200FDFF00004E14DD0572057E13000006027808800C410FED0B1311001505150000
(00.009935) can0 DC#391000164347DC0E9A010023A8352C0000000000FFFFA7EACE00000000000000
(00.012520) can0 2D#31B4E604C4090090709758624652B52BC8E030FFFFFF7F4002D235FFFFFFFF00FEFFABADA9BD00000000000000000000
(00.013038) can0 D4#3904060423953084
(00.014303) can0 D9#39130015661DDC0DA06D8DBD0F1258F0FFFFFFFFFFA7309BEE00000000000000
(00.014738) can0 DB#390E0020A783FA24A881831A3F2380156C4DC116B3281D5C050300F1FFFFFFFFA90A7871000000000000000000000000
(00.019340) can0 DB#390F00156824FA20FFFF7FCFFFFF3FFFFFFFFFFFFFA99F104C00000000000000
(00.019859) can0 DC085D#4002000000000000
(00.022447) can0 E3#4100050800800343D06EAB50
(00.029919) can0 DC#3910001667EFDD0E9A010023A8352C0000000000FFFFA955E903000000000000
(00.030303) can0 18E19490#01E5016A0D8301800CF100BC02060620030000401F01BD03AC0DEB06012003480E01F906840C000001010000DC37D007AC0D401F0C4C12571311001505150000
(00.032523) can0 2D#2EBDE704C4090090709758624652B52BC8E030FFFFFF7F4002D235FFFFFFFF00FEFFAD4D39F000000000000000000000
(00.033266) can0 D9#3913010B58BA38559500FE03BAFFEF391300159599DD0DA06C4DBD0F1258F0FFFFFFFFFFA9681A970000000000000000
(00.034778) can0 DB#390E0020FC16FB24A881831A3F2380156C4DC116B3281D5C060300F1FFFFFFFFAB316A3D000000000000000000000000
(00.037737) can0 D4#39040C050E0FF8FFFF3915011445F991E1F85FF5FFFFFFFFFE0700A12895FEFFFF000000000000000000000000000000
(00.038267) can0 E3#39042208003D877E780FFAFF4100050801EF00F4C65FD8C2
(00.039321) can0 DB#390F00158A34FB20FFFF7FCFFFFF3FFFFFFFFFFFFFAB0976EC00000000000000
(00.003807) can0 DB#390F00158808DB20FFFF7FCFFFFF3FFFFFFFFFFFFF6AB9537C00000000000000
(00.004499) can0 18E19490#0000000155555555056706D7030000EF0167013B028D000082018D010000F008E50800005554520D011001CE019B017601560154555150031311001505150000
(00.014475) can0 DC#3910001616CDBE0E9A010023A8352C0000000000FFFF6903BBCB000000000000
(00.017089) can0 2D#4AF9C804C4090090709758624652B52BC8E030FFFFFF7F4002D235FFFFFFFF00FEFF6F599D0100000000000000000000
(00.017610) can0 D4#390406042FE62A84
(00.018836) can0 D9#39130015EA70BE0DA06CCDBD0F1250F0FFFFFFFFFF6B0E8DBF00000000000000
(00.019301) can0 DB#390E0020143BDC24A881831A3F2380156C4DC116B3281D5C060300F1FFFFFFFF6C79194E000000000000000000000000
(00.022311) can0 E3#410000080057314B414635454100050800800343D06E6FB7
(00.023932) can0 DB#390F0015267ADC20FFFF7FCFFFFF3FFFFFFFFFFFFF6C5B615900000000000000
(00.034445) can0 DC#391000163265BF0E9A010023A8352C0000000000FFFF6B1F2FDC000000000000
(00.034829) can0 18E19490#01E4016A0D8201800CF100BC02060620030000401F01BD03AC0DE806012003440E01FB06870C000001010000E437D007AC0D401F0C4608571311001505150000
(00.037096) can0 2D#55F0C904C4090090709758624652B52BC8E030FFFFFF7F4002D235FFFFFFFF00FEFF718CA8EF00000000000000000000
(00.037617) can0 D9#3913010B58BA38559500FE03BAFFEF39130015E78ABF0DA06C0DBE0F1250F0FFFFFFFFFF6D5709190000000000000000
(00.039348) can0 DB#39FE0B086100000001000000390E00204FAEDD24A881831A3F2380156C4DC116B3281D5C050300F1FFFFFFFF6E4823A1
