(00.000426) can0 18E19490#0000000155555555056C06DA030000000000001A0280000000000100000000000000000054525009010801B1018201610143015453501D011311001505150000
(00.008474) can0 2D#58CD3504C4090090709758E26F5205000800A0FEFFFF7F0C02D235FFFFFFFF00FEFF4886C52F00000000000000000000
(00.010300) can0 DC#3910001609872F8E220AFADC5835280000000000FFFF447B24A4000000000000
(00.013622) can0 D4#39040C050E0FF4FFFF3915011444BD91D9F85FF5FFFFFFFFFE0780A02801FEFFFF000000000000000000000000000000
(00.014154) can0 E3#39042208003D877E780FFAFF410000080142315052313138
(00.015250) can0 DB#39FE0B086100000001000000390E002019194913A880831A3FF47F955C4DC116B3281D5C060300F1FFFFFFFF45FC081C
(00.017027) can0 D9#39130015F1952E0CA05D4DBF6F1050F0FFFFFFFFFF4597297200000000000000
(00.019659) can0 DB#390F001545C74920FFFF7FCFFFFF3FFFFFFFFFFFFF4515C10400000000000000
(00.028508) can0 2D#79D63604C4090090709758E26F5205000800A0FEFFFF7F0C02D235FFFFFFFF00FEFF4A80477900000000000000000000
(00.029525) can0 DB#390E022A3E004800650AE8011BB0010047403E49E0D16CC24D85DE4D8F82F847CE43068867E9FFFFFFFF4641DCB00000
(00.030276) can0 DC#3910001619DD308E220AFADC5835280000000000FFFF461AE224000000000000
(00.030656) can0 18E19490#010100560D7001800CED00BC02060600000000401F010000AC0D482B012003000001AE01880C00000202B4030B33D007AC0D401F0C2A19541311001505150000
(00.034919) can0 DB#390E010F9035FFFFFFFFFFFFFF8FD308BCFDFF390E030815DEA1F8FFFFFFFF00
(00.038055) can0 D9#3913001513852F0CA05D4DBF6F1050F0FFFFFFFFFF47ECBBAF00000000000000
(00.038432) can0 E3#410000080234393749CC1AF5
(00.039588) can0 DB#390E0020A5744A13A880831A3FF47F955C4DC116B3281D5C060300F1FFFFFFFF47F65024390F001563F64A20FFFF7FCFFFFF3FFFFFFFFFFFFF479E9876000000
(00.047222) can0 D9#39FE28082900000000000000
(00.048409) can0 2D#66DF3704C4090090709758E26F5205000800A0FEFFFF7F0C02D235FFFFFFFF00FEFF4C464D6B00000000000000000000
(00.048933) can0 D4#390C140CFFFFFFFFFDFFFFFFFFFFFFFF
(00.049556) can0 DB#390E04105CE30B4C24B4DBFF3FAE6C79EBFFFFFF390F01064D850460F81C0000
(00.000529) can0 DC085B#4003080000000000
(00.001715) can0 DB#390E010F9035FFFFFFFFFFFFFF8FD308BCFDFF390E0020E67C1314A880831A3FF77FD55C4DC116B3281D5C060300F1FFFFFFFFD96B78F6000000000000000000
(00.003701) can0 D9#39130015957DF809A05D8DD04F1038F0FFFFFFFFFFD9D75CE400000000000000
(00.006458) can0 DB#390F001594071320FFFF7FCFFFFF3FFFFFFFFFFFFFD9223C9200000000000000
(00.006854) can0 21C#23000000000000000000000000000000000000000000000000000000000000000000000000000000000000000000000000000000000000000000000000000000
(00.015188) can0 2D#8CAD0004C409009070975822705205000800A0FEFFFF7F0802D235FFFFFFFF00FEFFDEDE064B00000000000000000000
(00.015716) can0 D4#390C140CFFFFFFFFFDFFFFFFFFFFFFFF
(00.016907) can0 DC#39100016AC08FA8E220AFADC5835280000000000FFFFDAA660D6000000000000
(00.017290) can0 18E19490#0000000155555555056D06DB030000000000001A027F000001000100000000000000000054525009010801B2018201620143015453502D011311001505150000
(00.021709) can0 DB#390E00200A831414A880831A3FF77FD55C4DC116B3281D5C060300F1FFFFFFFFDBF672A7000000000000000000000000
(00.023786) can0 D9#3913010B58AC78559500FE03BAFFEF39130015776DF909A05D8DD04F1038F0FFFFFFFFFFDB21E7E60000000000000000
(00.025223) can0 E3#39060B08001111180000D0FF
(00.026490) can0 DB#390F00153A751420FFFF7FCFFFFF3FFFFFFFFFFFFFDBBEA1E300000000000000
(00.035202) can0 2D#93A40104C409009070975822705205000800A0FEFFFF7F0802D235FFFFFFFF00FEFFE04F7AD600000000000000000000
(00.036388) can0 21C#2400000000000000
(00.036946) can0 DC#3910011055423F005310C6125D9D002005F0FFF53910001688A0FB8E220AFADC5835280000000000FFFFDC46D5280000
(00.040439) can0 E3#00800004A48656004100050800800343CF50E0B30500000CF5FCFF0000000000E31C6057000000000000000000000000
(00.041789) can0 DB#390E00209EA71514A880831A3FF77FD55C4DC116B3281D5C060300F1FFFFFFFFDD2B7461000000000000000000000000
(00.043726) can0 D9#391300158106FA09A05DCDD04F1038F0FFFFFFFFFFDD18AC7E00000000000000
(00.046509) can0 DB#390F0015D8651520FFFF7FCFFFFF3FFFFFFFFFFFFFDDE379C000000000000000
(00.047160) can0 18E19490#010100560D7001800CED00BC02060600000000401F010000AC0D482B012003000001AD01870C00000202B303B932D007AC0D401F0C2015541311001505150000
(00.002173) can0 DB#390F0015D7CFE520FFFF7FCFFFFF3FFFFFFFFFFFFF7DE970AE00000000000000
(00.002794) can0 18E19490#040300020003007E36ED0C5C0D220171010803010101010200000000000000000000000000000000000000000000000000000000000000001311001505150000
(00.010988) can0 2D#ADF5D204C4090090709758E26F5205000800A0FEFFFF7F0802D235FFFFFFFF00FEFF82D9DD2500000000000000000000
(00.011986) can0 DB#390E022A3E004800650AE8011BB0010047403E49E0D16CC24D85DE4D8F82F847CE43068867E9FFFFFFFF7ED6B11E0000
(00.012652) can0 DC#3910001609ADCC8E220AFADC5835280000000000FFFF7E0D5FA8000000000000
(00.017431) can0 DB#390E010F8835FFFFFFFFFFFFFF8FD308BCFDFF390E0308D8069FF8FFFFFFFF00
(00.020413) can0 D9#391300151537CB09A05DCDD14F1038F0FFFFFFFFFF7F09205200000000000000
(00.020897) can0 E3#4100000802343937812FAABC
(00.022099) can0 DB#390E00207EBDE614A880831A3FF77FD55C4DC116B3281D5C060300F1FFFFFFFF7FDB233F390F0015F1FEE620FFFF7FCFFFFF3FFFFFFFFFFFFF7F173217000000
(00.029569) can0 D9#39FE28082900000000000000
(00.030893) can0 2D#DB8FD304C409009070975822705205000800A0FEFFFF7F0802D235FFFFFFFF00FEFF8447585A00000000000000000000
(00.031419) can0 D4#390C140CFFFFFFFFFDFFFFFFFFFFFFFF
(00.032066) can0 DB#390E04105CE30B4C24B4DBFF3FAE6C79EBFFFFFF390F01064D850460341D0000
(00.032577) can0 DC#391000162D05CD8E220AFADC5835280000000000FFFF80D3D2A4000000000000
(00.032959) can0 18E19490#0000000155555555056D06DB030000000000001A027F000000000100000000000000000054525009010901B3018201630143015453502D011311001505150000
(00.037422) can0 DB#390E00202528E714A880831A3FF77FD55C4DC116B3281D5C050300F1FFFFFFFF81ADDB69000000000000000000000000
(00.039443) can0 D9#3913010B58AC78559500FE03BAFFEF391300156B1FCC09A05D8DD14F1038F0FFFFFFFFFF819521DC0000000000000000
(00.040915) can0 E3#39060B08001111180000D0FF410000080381631A82240000
(00.042218) can0 DB#390F001513EEE720FFFF7FCFFFFF3FFFFFFFFFFFFF8161108500000000000000
(00.042734) can0 DC#39FE6F089401008001000000
(00.008125) can0 2D#D234AD04C409009070975822705205000800A0FEFFFF7F0802D235FFFFFFFF00FEFF38C1147900000000000000000000
(00.008650) can0 D4#39040604ED7A8B84
(00.009799) can0 DC#39100016FD9EA78E220AFADC5835280000000000FFFF34F31D1B000000000000
(00.014635) can0 DB#390E00209690C114A880831A3FF77FD55C4DC116B3281D5C060300F1FFFFFFFF3573F22A000000000000000000000000
(00.016571) can0 D9#3913001569A7A609A05DCDD14F1038F0FFFFFFFFFF35C6F3F200000000000000
(00.018056) can0 E3#41000508016110EC10D0E1C6
(00.018306) can0 4F#2871040037B11470
(00.019463) can0 DB#390F00155DB0C120FFFF7FCFFFFF3FFFFFFFFFFFFF356076B500000000000000
(00.019849) can0 18E19490#0000000155555555056C06DA030000000000001A027F000000000100000000000000000054525008010801B30183016201440154535020011311001505150000
(00.028136) can0 2D#F32FAE04C409009070975822705205000800A0FEFFFF7F0802D235FFFFFFFF00FEFF3A927E5600000000000000000000
(00.029859) can0 DC#39100016E7E7A88E220AFADC5835280000000000FFFF36279F27000000000000
(00.033309) can0 D4#39040C050E0FF4FFFF000000
(00.033509) can0 E3#39042208003D867E780FFAFF3980000C007FEF81EB2FB0FE3D037C8200000000
(00.034687) can0 DB#390E00202AFDC214A880831A3FF77FD55C4DC116B3281D5C060300F1FFFFFFFF37F5EFAE000000000000000000000000
(00.036672) can0 D9#391300152B02A709A05D4DD14F1038F0FFFFFFFFFF37E9AD3F00000000000000
(00.039383) can0 DB#390F00157B81C220FFFF7FCFFFFF3FFFFFFFFFFFFF370F00B100000000000000
(00.042429) can0 44#04
(00.048197) can0 2D#EC26AF04C409009070975822705205000800A0FEFFFF7F0802D235FFFFFFFF00FEFF3CC1084E00000000000000000000
(00.002293) can0 DB#390E0020239C9414B880831A3FF77FD55C4DC116B3281D5C060300F1FFFFFFFFDAB2CBE2000000000000000000000000
(00.004237) can0 D9#39130015FFD77908A05D4DD44F1038F0FFFFFFFFFFDB6BDABF00000000000000
(00.005727) can0 E3#4100050801A95EEE97E66671
(00.007068) can0 DB#390F001532859420FFFF7FCFFFFF3FFFFFFFFFFFFFDA0149A100000000000000
(00.007454) can0 18E19490#0000000155555555056C06DA030000000000001A027F000000000100000000000000000054535008010801B30183016301430154535019011311001505150000
(00.015731) can0 D4#39040C050E0FF4FFFF390C1608FFFFFFFFFFFFFFFF3915011444BD91D9F85FF5FFFFFFFFFE0780A02801FEFFFF000000
(00.016257) can0 2D#FE188104C4090090709758E26F5205000800A0FEFFFF7F0802D235FFFFFFFF00FEFFE072505100000000000000000000
(00.016784) can0 D4#390C083CFE7400800000086CF5BC2B83FF7BDF01F0F0C401A02CE07C8FB30400009E053C400B5AD08216B4A0052D68E5206BFE7FA9E600FFC9FFFFFF833EE4FF
(00.017441) can0 DC#39100016F9A87B8E220AFADC5835280000000000FFFFDB034EA9000000000000
(00.020956) can0 E3#39042208003D877E780FFAFF
(00.022437) can0 DB#390E0020B7B89514B880831A3FF77FD55C4DC116B3281D5C060300F1FFFFFFFFDDBBE37C000000000000000000000000
(00.024246) can0 D9#3913001579537A08A05DCDD44F1038F0FFFFFFFFFFDDB144ED00000000000000
(00.027042) can0 DB#390F0015D0959520FFFF7FCFFFFF3FFFFFFFFFFFFFDD372E1500000000000000
(00.035837) can0 2D#DF038204C4090090709758E26F5205000800A0FEFFFF7F0802D235FFFFFFFF00FEFFE22CE8D800000000000000000000
(00.037329) can0 DC#3910001666C07C8E220AFADC5835280000000000FFFFDE50D261000000000000
(00.037711) can0 18E19490#010100560D7101800CED00BC02060600000000401F010000AC0D482B012003000001AD018A0C00000202B303C132D007AC0D401F0C0610541311001505150000
(00.042304) can0 DB#390E010F9435FFFFFFFFFFFFFF8FD308BCFDFF390E00200BD59614B880831A3FF77FD55C4DC116B3281D5C060300F1FFFFFFFFDFF5EA5C000000000000000000
(00.045242) can0 D9#391300153E1A7B08A05D8DD54F1038F0FFFFFFFFFFDFFC9EE500000000000000
(00.047043) can0 DB#390F0015F6A49620FFFF7FCFFFFF3FFFFFFFFFFFFFDFF2691400000000000000
(00.001187) can0 E3#39042208003D867E780FFAFF3980000C007F32822230B0FE8901E9F300000000
(00.002551) can0 DB#390E0020CF446814A880831A3FF47FD55C4DC116B3281D5C060300F1FFFFFFFF83705390000000000000000000000000
(00.004414) can0 D9#391300153E0A4D0CA05D8DBC6F1050F0FFFFFFFFFF83A50C5500000000000000
(00.007287) can0 DB#390F0015A5EB6820FFFF7FCFFFFF3FFFFFFFFFFFFF838AB40400000000000000
(00.010283) can0 44#04
(00.016065) can0 2D#72EA5504C409009070975822705205000800A0FEFFFF7F0C02D235FFFFFFFF00FEFF881B70D100000000000000000000
(00.017482) can0 DC#39100016354D4F8E220AFADC5835280000000000FFFF841B0E60000000000000
(00.017866) can0 18E19490#010100560D7101800CED00BC02060600000000401F010000AC0D482B012003000001AE01870C00000202B4031333D007AC0D401F0C621A541311001505150000
(00.022547) can0 DB#390E010F9C35FFFFFFFFFFFFFF8FD308BCFDFF390E00205B606914A880831A3FF47FD55C4DC116B3281D5C060300F1FFFFFFFF855ED3CC000000000000000000
(00.025417) can0 D9#391300151DD74E0CA05D4DBD6F1050F0FFFFFFFFFF856B1B5300000000000000
(00.025958) can0 E3#3A020004F4FFFFFF
(00.027293) can0 DB#390F001547FB6920FFFF7FCFFFFF3FFFFFFFFFFFFF856EABE100000000000000
(00.035964) can0 2D#53F15604C409009070975822705205000800A0FEFFFF7F0C02D235FFFFFFFF00FEFF8AAB2ECB00000000000000000000
(00.036489) can0 D4#390C140CFFFFFFFFFDFFFFFFFFFFFFFF
(00.037466) can0 DC#391000162517508E220AFADC5835280000000000FFFF86E22B80000000000000
(00.042538) can0 DB#390E0020E70D6A14A880831A3FF47FD55C4DC116B3281D5C060300F1FFFFFFFF8786BC40000000000000000000000000
(00.044395) can0 D9#3913010B58AE78559500FE03BAFFEF39130015B0984F0CA05D0DBE6F1050F0FFFFFFFFFF87053EB30000000000000000
(00.045952) can0 E3#39060B08001111180000D0FF
(00.047319) can0 DB#390F001561CA6A20FFFF7FCFFFFF3FFFFFFFFFFFFF87DDB4FC00000000000000
(00.047707) can0 18E19490#028400646464010004275402020000000000000008010B01BD04010000000000030000004A14C305FA04841300000000A80C800C660FED0B1311001505150000
(00.000711) can0 2D#79D22704C4090090709758E26F5205000800A0FEFFFF7F0802D235FFFFFFFF00FEFF2C8BEB0C00000000000000000000
(00.002131) can0 DC#391000163756218E220AFADC5835280000000000FFFF281E6294000000000000
(00.005886) can0 D4#39040C050E0FF4FFFF3915011444BD91D9F85FF5FFFFFFFFFE0780A02801FEFFFF000000000000000000000000000000
(00.006417) can0 E3#39042208003D877E781FFAFF
(00.007299) can0 DB#390E0020438B3B14B880831A3FF67F155D4DC116B3281D5C060300F1FFFFFFFF292DA598000000000000000000000000
(00.009082) can0 D9#39130015EB122009A05DCDCF4F1038F0FFFFFFFFFF29E3F0C000000000000000
(00.012002) can0 DB#390F001586BC3B20FFFF7FCFFFFF3FFFFFFFFFFFFF296C0B4700000000000000
(00.020771) can0 2D#DCA52804C4090090709758E26F5205000800A0FEFFFF7F0802D235FFFFFFFF00FEFF2EF867D700000000000000000000
(00.022064) can0 DC#39100016290E228E1A0AFADC5835280000000000FFFF2A961FDF000000000000
(00.022447) can0 18E19490#010100560D7101800CED00BC02060600000000401F010000AC0D482B012003000001AD01860C00000202B303A932D007AC0D401F0C5924541311001505150000
(00.027263) can0 DB#390E010F9035FFFFFFFFFFFFFF8FD308BCFDFF390E0020D5023C14B880831A3FF77FD55C4DC116B3281D5C060300F1FFFFFFFF2B6D4EAD000000000000000000
(00.029029) can0 D9#39130015BA262109A05DCDD04F1038F0FFFFFFFFFF2B5647EE00000000000000
(00.032052) can0 DB#390F001528CE3C20FFFF7FCFFFFF3FFFFFFFFFFFFF2B1E903000000000000000
(00.040664) can0 2D#C3AC2904C4090090709758E26F5205000800A0FEFFFF7F0802D235FFFFFFFF00FEFF3094B2E600000000000000000000
(00.041187) can0 D4#390C140CFFFFFFFFFDFFFFFFFFFFFFFF
(00.042042) can0 DC#391000165E16238E220AFADC5835280000000000FFFF2C91D451000000000000
(00.047260) can0 DB#390F01064D8504609819390E0020CD853D14B880831A3FF77F155D4DC116B3281D5C060300F1FFFFFFFF2D0AFAD20000
(00.049063) can0 D9#3913010B58AC78559500FE03BAFFEF39130015ECF82209A05D0DD04F1038F0FFFFFFFFFF2D6CB9AE0000000000000000
(00.001024) can0 E3#39060B08001111180000D0FF
(00.001332) can0 4F#20D70DA00049A50F
(00.002421) can0 18E19490#028400646464010007275602040000000000000008010B01BD04010001000000010000004B14C105F3047F1300000000A70C800C6E0FED0B1311001505150000
(00.003129) can0 DB#390F0015B2361020FFFF7FCFFFFF3FFFFFFFFFFFFFD30628E400000000000000
(00.011076) can0 2D#C9B1FD04C4090090709758E26F5205000800A0FEFFFF7F0802D235FFFFFFFF00FEFFD8B09ADF00000000000000000000
(00.011603) can0 E3#0500000CF5FCFF0000000000DB952394
(00.012445) can0 DC#3910011055423F30531026525D9D002005F0FFF1391000168C81F78E1A0AFADC5835280000000000FFFFD44403210000
(00.016300) can0 E3#00800004200E22004100050800800343CF4ED89B
(00.017705) can0 DB#390E0020EE241114B880831A3FF67F155D4DC116B3281D5C060300F1FFFFFFFFD57CF493000000000000000000000000
(00.019296) can0 D9#391300150A53F609A05D4DCF4F1038F0FFFFFFFFFFD59726DD00000000000000
(00.022420) can0 DB#390F001550261120FFFF7FCFFFFF3FFFFFFFFFFFFFD5DC673300000000000000
(00.031102) can0 2D#E8AAFE04C4090090709758E26F5205000800A0FEFFFF7F0802D235FFFFFFFF00FEFFDABD952500000000000000000000
(00.031626) can0 D4#39040604DB656884
(00.032351) can0 DC#3910001696F8F88E1A0AFADC5835280000000000FFFFD6391B7C000000000000
(00.032736) can0 18E19490#036C063F227BD22A002D0009000000010000000000000000000000000000000000A70CE50F001C0C29002C000A0054D9055016D50CC409001311001505150000
(00.037668) can0 DB#390E0020A49C1214B880831A3FF77F155D4DC116B3281D5C060300F1FFFFFFFFD7CC1435000000000000000000000000
(00.039412) can0 D9#3913001598ACF709A05D8DCF4F1038F0FFFFFFFFFFD7EDF78900000000000000
(00.041043) can0 E3#4100050801BCB635F3E55EB4
(00.042494) can0 DB#390F001576171220FFFF7FCFFFFF3FFFFFFFFFFFFFD799CBC500000000000000
(00.000753) can0 DB#390F001513EEE720FFFF7FCFFFFF3FFFFFFFFFFFFF81EFE72300000000000000
(00.009391) can0 2D#EFC3D404C4090090709758E26F5205000800A0FEFFFF7F0802D235FFFFFFFF00FEFF8631321800000000000000000000
(00.009915) can0 D4#390C140CFFFFFFFFFDFFFFFFFFFFFFFF
(00.010604) can0 DC#3910001606F0CE8E1A0AFADC5C35280000000000FFFF8244D953000000000000
(00.010986) can0 18E19490#0000000155555555056C06DA030000000000001A027F000000000100000000000000000054535009010801B40184016301430154545009011311001505150000
(00.016004) can0 DB#390E0020A743E814B880831A3FF67F155D4DC116B3281D5C060300F1FFFFFFFF832E1AAC000000000000000000000000
(00.017683) can0 D9#3913010B58AC78559500FE03BAFFEF391300155F81CD09A05E8DD04F1038F0FFFFFFFFFF83EAC18E0000000000000000
(00.019353) can0 E3#39060B08001111180000D0FF
(00.020837) can0 DB#390F0015AD1BE820FFFF7FCFFFFF3FFFFFFFFFFFFF83DD6C3E00000000000000
(00.021232) can0 21C#2400000000000000
(00.029413) can0 2D#F0CAD504C4090090709758E26F5205000800A0FEFFFF7F0802D235FFFFFFFF00FEFF880C393900000000000000000000
(00.029937) can0 E3#0500000CF5FCFF00000000008BDB5FEB
(00.030628) can0 DC#3910011055423F005310E6425C9D002005F0FFF5391000162258CF8E1A0AFADC5C35280000000000FFFF84AAF73D0000
(00.034627) can0 E3#008000040AA71A004100050800800343CF4E88F4
(00.036036) can0 DB#390E00203367E914B880831A3FF67F155D4DC116B3281D5C060300F1FFFFFFFF85F9E489000000000000000000000000
(00.037578) can0 D9#39130015B943CE09A05DCDCF4F1038F0FFFFFFFFFF857A7A8C00000000000000
(00.040731) can0 18E19490#010100560D7201800CED00BC02060600000000401F010000AC0D482B012003000001AD01860C00000202B4039932D007AC0D401F0C4916541311001505150000
(00.041431) can0 DB#390F00154F0BE920FFFF7FCFFFFF3FFFFFFFFFFFFF852C8DBD00000000000000
(00.049424) can0 2D#D1D1D604C4090090709758E26F5205000800A0FEFFFF7F0802D235FFFFFFFF00FEFF8ADF41D900000000000000000000
(00.008544) can0 2D#9A5CAE04C4090090709758E26F5205000800A0FEFFFF7F0802D235FFFFFFFF00FEFF3BE4778A00000000000000000000
(00.009068) can0 D4#3904060432495884
(00.009652) can0 DC#3910001681FAA88E1A0AFADC5C35280000000000FFFF3716932F000000000000
(00.015141) can0 DB#390E0020FC39C214B880831A3FF77F155D4DC116B3281D5C060300F1FFFFFFFF3863638C000000000000000000000000
(00.016764) can0 D9#391300153E47A709A05E8DCF4F1038F0FFFFFFFFFF38DB443800000000000000
(00.018468) can0 E3#410005080194B6B34C4A4304
(00.019735) can0 18E19490#0000000155555555056C06DA030000000000001A027F000000000100000000000000000054535008010801B50184016301440154535013011311001505150000
(00.020443) can0 DB#390F00157B81C220FFFF7FCFFFFF3FFFFFFFFFFFFF38BF1D1600000000000000
(00.028557) can0 2D#8555AF04C4090090709758E26F5205000800A0FEFFFF7F0802D235FFFFFFFF00FEFF3DC792C300000000000000000000
(00.029727) can0 DC#3910001690FFA98E1A0AFADC5835280000000000FFFF392C9D1A000000000000
(00.033734) can0 D4#39040C050E0FF4FFFF3915011444BD91D9F85FF5FFFFFFFFFE0780A02801FEFFFF000000000000000000000000000000
(00.034266) can0 E3#39042208003D877E780FFAFF
(00.035189) can0 DB#390E0020681DC314B880831A3FF77F155D4DC116B3281D5C060300F1FFFFFFFF3AADCB14000000000000000000000000
(00.036752) can0 D9#39130015F365A809A05DCDCF4F1038F0FFFFFFFFFF3A0951C300000000000000
(00.039890) can0 DB#390F00159991C320FFFF7FCFFFFF3FFFFFFFFFFFFF3A71910200000000000000
(00.048612) can0 2D#D0B3B004C4090090709758E26F5205000800A0FEFFFF7F0802D235FFFFFFFF00FEFF3F5E22AB00000000000000000000
(00.049673) can0 DC#39100016E8BAAA8E1A0AFADC5C35280000000000FFFF3BC8F852000000000000
(00.002760) can0 2D#C00A8304C4090090709758E26F5205000800A0FEFFFF7F0802D235FFFFFFFF00FEFFE59D5C2B00000000000000000000
(00.003735) can0 DC#3910001624757D8E1A0AFADC5C35280000000000FFFFE177E40B000000000000
(00.004117) can0 18E19490#010100570D7201800CED00BC02060600000000401F010000AC0D482B012003000001AD01870C00000202B303B932D007AC0D401F0C3806541311001505150000
(00.009302) can0 DB#390E010F9035FFFFFFFFFFFFFF8FD308BCFDFF390E002013529714B880831A3FF77F155D4DC116B3281D5C060300F1FFFFFFFFE2D95CE6000000000000000000
(00.011849) can0 D9#3913001565217C09A05D4DD04F1038F0FFFFFFFFFFE25080AB00000000000000
(00.014041) can0 DB#390F001514B49720FFFF7FCFFFFF3FFFFFFFFFFFFFE27C030000000000000000
(00.022653) can0 2D#9D358404C4090090709758E26F5205000800A0FEFFFF7F0802D235FFFFFFFF00FEFFE70F7F2F00000000000000000000
(00.023177) can0 D4#390C140CFFFFFFFFFDFFFFFFFFFFFFFF
(00.023794) can0 DC#39100016699D7E8E1A0AFADC5C35280000000000FFFFE3DB27DB000000000000
(00.029294) can0 DB#390E00207E999814B880831A3FF77F155D4DC116B3281D5C060300F1FFFFFFFFE4A97E1F000000000000000000000000
(00.030839) can0 D9#3913010B58AC78559500FE03BAFFEF3913001527847D09A05DCDD04F1038F0FFFFFFFFFFE40430B30000000000000000
(00.032616) can0 E3#39060B08001111180000D0FF
(00.033829) can0 18E19490#028400646464010006275602030000000000000007010B01BD04000001000000000000004A14C105F204821300000000A70C800C660FED0B1311001505150000
(00.034538) can0 DB#390F0015AA419820FFFF7FCFFFFF3FFFFFFFFFFFFFE49005B900000000000000
(00.042676) can0 2D#823C8504C4090090709758E26F5205000800A0FEFFFF7F0802D235FFFFFFFF00FEFFE9EB80F300000000000000000000
(00.043201) can0 E3#0500000CF5FCFF0000000000EB92AF28
(00.043895) can0 DC#3910011055423F30531066065D9D002005F0FFF13910001678987F8E1A0AFADC5835280000000000FFFFE5BF5A6F0000
(00.047886) can0 E3#00800004ADBC0A004100050800800343CF4DE9BF
(00.049325) can0 DB#390E0020EABD9914B880831A3FF77F155D4DC116B3281D5C060300F1FFFFFFFFE58CD884000000000000000000000000
(00.000002) can0 129447D#1249
(00.000699) can0 DB#390F0015E9896E20FFFF7FCFFFFF3FFFFFFFFFFFFF905679CC00000000000000
(00.003037) can0 44#04
(00.008804) can0 2D#4E7B5B04C4090090709758E26F5205000800A0FEFFFF7F0802D235FFFFFFFF00FEFF9568F58700000000000000000000
(00.009784) can0 DC#39100016808F558E1A0AFADC5835280000000000FFFF9198DE5E000000000000
(00.015373) can0 DB#390E010FA035FFFFFFFFFFFFFF8FD308BCFDFF390E0020CE116F14B880831A3FF77F155D4DC116B3281D5C060300F1FFFFFFFF92B138AC000000000000000000
(00.017872) can0 D9#39130015A4F85409A05E8DD04F1038F0FFFFFFFFFF9202046700000000000000
(00.018717) can0 E3#3A020004F4FFFFFF
(00.020120) can0 DB#390F00150B996F20FFFF7FCFFFFF3FFFFFFFFFFFFF9215CB3500000000000000
(00.028711) can0 2D#13445C04C4090090709758E26F5205000800A0FEFFFF7F0802D235FFFFFFFF00FEFF97D77D7300000000000000000000
(00.029235) can0 D4#390C140CFFFFFFFFFDFFFFFFFFFFFFFF
(00.029757) can0 DC#39100016F8CA568E1A0AFADC5C35280000000000FFFF93D91610000000000000
(00.030138) can0 18E19490#0000000155555555056D06DB030000000000001A027F000000000100000000000000000054535008010801B50185016301440154535009011311001505150000
(00.035363) can0 DB#390E0020A1B37014B880831A3FF77F155D4DC116B3281D5C060300F1FFFFFFFF943F93A5000000000000000000000000
(00.036849) can0 D9#3913010B58AC78559500FE03BAFFEF39130015353F5509A05DCDD04F1038F0FFFFFFFFFF94D5D0010000000000000000
(00.038674) can0 E3#39060B08001111180000D0FF
(00.040145) can0 DB#390F0015B4727020FFFF7FCFFFFF3FFFFFFFFFFFFF942593E700000000000000
(00.048746) can0 2D#0C4D5D04C4090090709758E26F5205000800A0FEFFFF7F0802D235FFFFFFFF00FEFF9937007C00000000000000000000
(00.049272) can0 E3#008000046E3902000500000CF5FCFF00000000009B7183C6
(00.001468) can0 DB#390F01064D8504607819390E00201B654314B880831A3FF77F155D4DC116B3281D5C060300F1FFFFFFFF3AB42B2B0000
(00.002877) can0 D9#3913010B58AC78559500FE03BAFFEF39130015EED02809A05E0DD14F1038F0FFFFFFFFFF3A787FC70000000000000000
(00.004824) can0 E3#39060B08001111180000D0FF
(00.006241) can0 DB#390F001591614320FFFF7FCFFFFF3FFFFFFFFFFFFF3A82243B00000000000000
(00.014816) can0 2D#D47C3004C4090090709758E26F5205000800A0FEFFFF7F0802D235FFFFFFFF00FEFF3FC3403B00000000000000000000
(00.015342) can0 E3#008000043CB8F900
(00.015757) can0 DC#3910011055423F005310DE065D9D002005F0FFF53910001699B22A8E1A0AFADC5C35280000000000FFFF3BFA5AE30000
(00.021470) can0 DB#390E0020F79A4414B880831A3FF77F155D4DC116B3281D5C060300F1FFFFFFFF3CF511F5000000000000000000000000
(00.022927) can0 D9#3913001579C32909A05E0DD04F1038F0FFFFFFFFFF3C5CF9E300000000000000
(00.024813) can0 E3#4100050800800343CF4D3FFB
(00.025907) can0 18E19490#010100570D7001800CED00BC02060600000000401F010000AC0D482B012003000001AD01860C00000202B403B132D007AC0D401F0C282B541311001505150000
(00.026608) can0 DB#390F00153F134420FFFF7FCFFFFF3FFFFFFFFFFFFF3CE8B4CD00000000000000
(00.034834) can0 2D#CB753104C4090090709758E26F5205000800A0FEFFFF7F0802D235FFFFFFFF00FEFF41AA102600000000000000000000
(00.035359) can0 D4#39040604CD413F84
(00.035798) can0 DC#3910001688B72B8E1A0AFADC5835280000000000FFFF3D167207000000000000
(00.041457) can0 DB#390E002063BE4514B880831A3FF77F155D4DC116B3281D5C060300F1FFFFFFFF3EB89A6D000000000000000000000000
(00.042880) can0 D9#391300155FF22A09A05E0DD04F1038F0FFFFFFFFFF3E31028000000000000000
(00.044760) can0 E3#4100050801201C0F519A7EFC
(00.046232) can0 DB#390F0015DD034520FFFF7FCFFFFF3FFFFFFFFFFFFF3E23558700000000000000
(00.000132) can0 DB#390F01064D8504603C19390E00206C301114B880831A3FF77F555D4DC116B3281D5C060300F1FFFFFFFFD6CF784F0000
(00.001466) can0 D9#3913010B58AC68559500FE03BAFFEF39130015CC74F609A05D4DD14F1038F0FFFFFFFFFFD61AF28D0000000000000000
(00.003385) can0 E3#39060B08001111180000D0FF
(00.004400) can0 18E19490#028400646464010004275602030000000000000008010A01BE04010000000100010000004714C105F104821300000000A70C800C930FED0B1311001505150000
(00.005108) can0 DB#390F001550261120FFFF7FCFFFFF3FFFFFFFFFFFFFD605E64E00000000000000
(00.013513) can0 2D#E8AAFE04C4090090709758E26F5205000800A0FEFFFF7F0802D235FFFFFFFF00FEFFDB5145A500000000000000000000
(00.014038) can0 E3#008000040284EF00
(00.014403) can0 DC#3910011055423F2D53108E465C9D002005F0FFF539100016A355F88E1A0AFADC5C35280000000000FFFFD738E8EA0000
(00.020133) can0 DB#390E0020D05D1214B880831A3FF77F555D4DC116B3281D5C060300F1FFFFFFFFD8AC0B1C000000000000000000000000
(00.021350) can0 D9#391300155B67F709A05D4DD04F1038F0FFFFFFFFFFD8E29CFD00000000000000
(00.023457) can0 E3#4100050800800343CF4CDBD9
(00.024889) can0 DB#390F001576171220FFFF7FCFFFFF3FFFFFFFFFFFFFD8CB2E6C00000000000000
(00.033482) can0 2D#F7A3FF04C4090090709758E26F5205000800A0FEFFFF7F0802D235FFFFFFFF00FEFFDD9D2DB700000000000000000000
(00.034007) can0 D4#3904060466293584
(00.034270) can0 DC#3910001687FDF98E1A0AFADC5C35280000000000FFFFD90D7DF8000000000000
(00.034655) can0 18E19490#036C06382272D2330036000B000000010000000000000000000000000000000000A70CE50F001C0C320035000C0054D9055016D70CC409001311001505150000
(00.040123) can0 DB#390E002044791314B880831A3FF77F555D4DC116B3281D5C060300F1FFFFFFFFDA28183E000000000000000000000000
(00.041471) can0 D9#391300154527F809A05DCDD04F1038F0FFFFFFFFFFDA1AE75400000000000000
(00.043458) can0 E3#41000508017621FECA5B29DC
(00.044897) can0 DB#390F001594071320FFFF7FCFFFFF3FFFFFFFFFFFFFDA4262C600000000000000
(00.001069) can0 DB#390E002060D5E514B880831A3FF77F555D4DC116B3281D5C060300F1FFFFFFFF7E86610B000000000000000000000000
(00.002207) can0 D9#391300152445CA09A05E0DD14F1038F0FFFFFFFFFF7E3DC6A100000000000000
(00.004383) can0 E3#4100050800800343CF4C8119
(00.005876) can0 DB#390F0015D7CFE520FFFF7FCFFFFF3FFFFFFFFFFFFF7EB6EF5100000000000000
(00.014404) can0 2D#ADF5D204C4090090709758E26F5205000800A0FEFFFF7F0802D235FFFFFFFF00FEFF8352873B00000000000000000000
(00.014928) can0 D4#39040604B6C12C84
(00.015088) can0 DC#391000166FB0CC8E1A0AFADC5C35280000000000FFFF7F9E6A7E000000000000
(00.015471) can0 18E19490#036D06382274D2350038000B000000010000000000000000000000000000000000A70CE50F001C0C340037000C0054D9054816D40CC409001311001505150000
(00.021059) can0 DB#390E0020DCB8E614B880831A3FF77F555D4DC116B3281D5C060300F1FFFFFFFF80D7A1DD000000000000000000000000
(00.022336) can0 D9#39130015B582CB09A05D4DD14F1038F0FFFFFFFFFF803A63BB00000000000000
(00.024365) can0 E3#4100050801FE84D85CBD4DEE
(00.025832) can0 DB#390F0015F1FEE620FFFF7FCFFFFF3FFFFFFFFFFFFF80224FA000000000000000
(00.034414) can0 2D#B2FCD304C4090090709758E26F5205000800A0FEFFFF7F0802D235FFFFFFFF00FEFF857CD6AF00000000000000000000
(00.034938) can0 4F#288A01001A7EDFDD
(00.035103) can0 DC#391000164B18CD8E1A0AFADC5C35280000000000FFFF81EE3F66000000000000
(00.039580) can0 D4#39040C050E0FF4FFFF3915011444BD91D9F85FF5FFFFFFFFFE0780A02801FEFFFF000000000000000000000000000000
(00.040112) can0 E3#39042208003D877E780FFAFF
(00.041095) can0 DB#390E0020489CE714B880831A3FF77F555D4DC116B3281D5C060300F1FFFFFFFF8262EAD3000000000000000000000000
(00.042370) can0 D9#39130015CE46CC09A05DCDD04F1038F0FFFFFFFFFF82833E8500000000000000
(00.045254) can0 18E19490#040300030002007E36ED0C5D0D220172010803010101010200000000000000000000000000000000000000000000000000000000000000001311001505150000
(00.045978) can0 DB#390F001513EEE720FFFF7FCFFFFF3FFFFFFFFFFFFF82CF9DAE00000000000000
(00.001771) can0 E3#39060B08001111180000D0FF
(00.002444) can0 DC08E2#4002000000000000
(00.002735) can0 18E19490#028400646464010006275402030000000000000007010A01BE04010000000000000000004714C105F204871300000000A70C800C6A0FED0B1311001505150000
(00.003442) can0 DB#390F00151688B720FFFF7FCFFFFF3FFFFFFFFFFFFF2266BDF300000000000000
(00.011821) can0 2D#5C06A404C4090090709758E26F5205000800A0FEFFFF7F0802D235FFFFFFFF00FEFF27A02D4100000000000000000000
(00.012346) can0 E3#008000048345DD00
(00.012510) can0 DC#3910011055423F005310FE425C9D002005F0FFF539100016245F9E8E1A0AFADC5C35280000000000FFFF23F0370F0000
(00.018416) can0 21C#11020104000001F403E805DC07D009C40DAC138819641F402328251C271000000000000000000000000000000000000000000000000000000000000000000000
(00.019115) can0 21D#304028
(00.019322) can0 DB#390E00200E8AB814B880831A3FF77F555D4DC116B3281D5C060300F1FFFFFFFF2341B023000000000000000000000000
(00.019843) can0 D9#39130015B0E19D09A05E8DD24F1038F0FFFFFFFFFF240215F600000000000000
(00.020220) can0 21C#21000000000000000000000000000000000000000000000000000000000000000000000000000000000000000000000000000000000000000000000000000000
(00.021815) can0 E3#4100050800800343CF4C275E3204000C3D5D1353670700F025F21F1300000000
(00.023282) can0 DB#390F0015A87DB820FFFF7FCFFFFF3FFFFFFFFFFFFF231D7B7700000000000000
(00.031834) can0 2D#430FA504C4090090709758E26F5205000800A0FEFFFF7F0802D235FFFFFFFF00FEFF290CEE7000000000000000000000
(00.032358) can0 D4#3904060458152384
(00.032519) can0 DC#3910001600F79F8E1A0AFADC5C35280000000000FFFF249C75DA000000000000
(00.032900) can0 18E19490#036C06342276D237003A000C000000010000000000000000000000000000000000A70CE50F001C0C360039000D0054D9055016D40CC409001311001505150000
(00.038501) can0 DB#390E00209AAEB914B880831A3FF77F555D4DC116B3281D5C060300F1FFFFFFFF25456CC4000000000000000000000000
(00.039675) can0 D9#3913001509D59E09A05E8DD14F1038F0FFFFFFFFFF266F307100000000000000
(00.041791) can0 E3#4100050801D34A6A1CAAE5C4
(00.043277) can0 DB#390F00154A6DB920FFFF7FCFFFFF3FFFFFFFFFFFFF2508B46400000000000000
(00.043801) can0 21C#22000000000000000000000000000000000000000000000000000000000000000000000000000000000000000000000000000000000000000000000000000000
(00.000552) can0 DB#390E010FA035FFFFFFFFFFFFFF8FD308BCFDFF390E03086F1793F8FFFFFFFF00
(00.002775) can0 D9#39130015ADEF7309A05ECDD14F1038F0FFFFFFFFFFD08C582B00000000000000
(00.003915) can0 E3#4100000802343937D12B7FBD
(00.005314) can0 DB#390E002070EA8E14B880831A3FF77F555D4DC116B3281D5C060300F1FFFFFFFFD0821607390F0015E73D8E20FFFF7FCFFFFF3FFFFFFFFFFFFFD0553E94000000
(00.011758) can0 D9#39FE28082900000000000000
(00.013917) can0 2D#8F487B04C4090090709758E26F5205000800A0FEFFFF7F0802D235FFFFFFFF00FEFFD5AE06F500000000000000000000
(00.014441) can0 D4#390C140CFFFFFFFFFDFFFFFFFFFFFFFF
(00.014681) can0 DC#39100016A164758E1A0AFADC5C35280000000000FFFFD1596C7F000000000000
(00.015061) can0 18E19490#0000000155555555056D06DB030000000000001A027F000000000100000000000000000054535008010801B7018501640143015453501D011311001505150000
(00.015768) can0 DB#390E04105CE30B4C24B4DBFF3FAE6C79EBFFFFFF390F01064D850460F81C0000
(00.020638) can0 DB#390E0020E4CE8F14B880831A3FF77F555D4DC116B3281D5C060300F1FFFFFFFFD21F0210000000000000000000000000
(00.021782) can0 D9#3913010B58AC68559500FE03BAFFEF39130015EC777409A05E0DD24F1038F0FFFFFFFFFFD2C376A50000000000000000
(00.023864) can0 E3#39060B08001111180000D0FF4100000803E74BA6F2A20000
(00.024598) can0 DC#39FE6F089401008001000000
(00.025432) can0 DB#390F0015052D8F20FFFF7FCFFFFF3FFFFFFFFFFFFFD269D57700000000000000
(00.033939) can0 2D#D2777C04C4090090709758E26F5205000800A0FEFFFF7F0802D235FFFFFFFF00FEFFD7B74A3100000000000000000000
(00.034463) can0 E3#0080000440C0D500
(00.034627) can0 DC#3910011055423F005310BE125D9D002005F0FFF139100016EC8C768E1A0AFADC5C35280000000000FFFFD37E77820000
(00.040649) can0 DB#390E00208B6C9014B880831A3FF77F555D4DC116B3281D5C060300F1FFFFFFFFD43E4C2C000000000000000000000000
(00.041657) can0 D9#3913001531D77509A05E8DD14F1038F0FFFFFFFFFFD4FDFD6400000000000000
(00.043934) can0 E3#4100050800800343CF4BD7D8
(00.044659) can0 18E19490#010100570D7201800CED00BC02060600000000401F010000AC0D482B012003000001AD01870C00000202B4039132D007AC0D401F0C0421551311001505150000
(00.045403) can0 DB#390F0015BAC69020FFFF7FCFFFFF3FFFFFFFFFFFFFD42BA45500000000000000
(00.006589) can0 2D#EB0C5404C4090090709758E26F5205000800A0FEFFFF7F0802D235FFFFFFFF00FEFF8739A16200000000000000000000
(00.007112) can0 DC#3910011055423F3253107E065D9D002005F0FFF13910001677F84E8E1A0AFADC5C35280000000000FFFF8385EC5E0000
(00.007630) can0 E3#00800004245ECD00
(00.007793) can0 18E19490#040300020002007E36ED0C5D0D220173010803010101010200000000000000000000000000000000000000000000000000000000000000001311001505150000
(00.013213) can0 DB#390E0020562F6814B880831A3FF77F555D4DC116B3281D5C060300F1FFFFFFFF84B7E3B6000000000000000000000000
(00.014263) can0 D9#39130015CD984D09A05E4DD24F1038F0FFFFFFFFFF8409921900000000000000
(00.016583) can0 E3#4100050800800343CF4B87BA
(00.018063) can0 DB#390F0015A5EB6820FFFF7FCFFFFF3FFFFFFFFFFFFF84B2551300000000000000
(00.026599) can0 2D#F4055504C4090090709758E26F5205000800A0FEFFFF7F0802D235FFFFFFFF00FEFF89D4EC8E00000000000000000000
(00.027123) can0 D4#39040604B1391384
(00.027282) can0 DC#3910001653504F8E1A0AFADC5C35280000000000FFFF85634B02000000000000
(00.033202) can0 DB#390E0020C20B6914B880831A3FF77F555D4DC116B3281D5C060300F1FFFFFFFF86E9C522000000000000000000000000
(00.034384) can0 D9#39130015E8914E09A05DCDD24F1038F0FFFFFFFFFF8629FAA900000000000000
(00.036549) can0 E3#4100050801553A022EA2B850
(00.037208) can0 18E19490#0000000155555555056D06DB030000000000001A027F000000000100000000000000000054535008010801B7018501640143015453502A011311001505150000
(00.038071) can0 DB#390F001547FB6920FFFF7FCFFFFF3FFFFFFFFFFFFF860FE78A00000000000000
(00.046592) can0 2D#D51E5604C4090090709758E26F5205000800A0FEFFFF7F0802D235FFFFFFFF00FEFF8BF2A35000000000000000000000
(00.047117) can0 4F#28730C00384D9AD1
(00.047279) can0 DC#39100016430A508E1A0AFADC5C35280000000000FFFF87D104FD000000000000
(00.003936) can0 2D#8BC42A04C409009070975822705205000800A0FEFFFF7F0802D235FFFFFFFF00FEFF33A6A0D600000000000000000000
(00.004462) can0 DC#39100016A763248E1A0AFADC5C35280000000000FFFF2F2DA23E000000000000
(00.004843) can0 18E19490#010100570D7201800CED00BC02060600000000401F010000AC0D482B012003000001AD01840C00000202B503B132D007AC0D401F0C5811551311001505150000
(00.010506) can0 DB#390E010FA035FFFFFFFFFFFFFF8FD308BCFDFF390E0020B87A3E14B880831A3FF77F955D4DC116B3281D5C060300F1FFFFFFFF30B54F23000000000000000000
(00.012622) can0 D9#3913001547632309A05E0DD24F1038F0FFFFFFFFFF30F3604B00000000000000
(00.015337) can0 DB#390F0015ECEF3E20FFFF7FCFFFFF3FFFFFFFFFFFFF30CFBE0300000000000000
(00.023836) can0 2D#94CD2B04C409009070975822705205000800A0FEFFFF7F0802D235FFFFFFFF00FEFF35A6762B00000000000000000000
(00.024360) can0 D4#390C140CFFFFFFFFFDFFFFFFFFFFFFFF
(00.024599) can0 DC#3910001683CB258E1A0AFADC5C35280000000000FFFF31930A54000000000000
(00.030504) can0 DB#390F01064D850460F81C390E00202C5E3F14B880831A3FF77F955D4DC116B3281D5C060300F1FFFFFFFF3258740C0000
(00.031611) can0 D9#3913010B58AC68559500FE03BAFFEF3913001576142409A05E0DD14F1038F0FFFFFFFFFF32E2077E0000000000000000
(00.033781) can0 E3#39060B08001111180000D0FF
(00.034406) can0 18E19490#028400646464010005275702030000000000000007010A01BE04010001000000000000004B14C005F1047F1300000000A70C800C8E0FED0B1311001505150000
(00.035370) can0 DB#390F00150EFF3F20FFFF7FCFFFFF3FFFFFFFFFFFFF328CAD8800000000000000
(00.043906) can0 2D#C9F22C04C409009070975822705205000800A0FEFFFF7F0802D235FFFFFFFF00FEFF37BCA86300000000000000000000
(00.044431) can0 DC#3910011055423F3954103E065C9D002005F0FFF139100016CE23268E1A0AFADC5C35280000000000FFFF33EDA9610000
(00.044950) can0 E3#00800004E7DBC500
(00.001864) can0 2D#F0890404C409009070975822705205000800A0FEFFFF7F0802D235FFFFFFFF00FEFFE7FEACC100000000000000000000
(00.002394) can0 DC#3910011055423F005310FE425C9D002005F0FFF5391000161895FE8E1A0AFADC5C35280000000000FFFFE28F06810000
(00.002912) can0 E3#00800004511CBD00
(00.008518) can0 DB#390E0020C4731814B880831A3FF77F955D4DC116B3281D5C060300F1FFFFFFFFE4571F7D000000000000000000000000
(00.009436) can0 D9#39130015B6A5FD09A05E8DD24F1038F0FFFFFFFFFFE490398B00000000000000
(00.011857) can0 E3#4100050800800343CF4AE75E
(00.012392) can0 18E19490#010100570D7201800CED00BC02060600000000401F010000AC0D482B012003000001AD01860C00000202B503B132D007AC0D401F0C512C551311001505150000
(00.013368) can0 DB#390F0015A2B11820FFFF7FCFFFFF3FFFFFFFFFFFFFE40EB99600000000000000
(00.021909) can0 2D#EF800504C409009070975822705205000800A0FEFFFF7F0802D235FFFFFFFF00FEFFE9AD1F9000000000000000000000
(00.022439) can0 D4#3904060416220384
(00.022600) can0 DC#391000163C3DFF8E1A0AFADC5C35280000000000FFFFE4C596CE000000000000
(00.028602) can0 DB#390E002050571914B880831A3FF77F955D4DC116B3281D5C060300F1FFFFFFFFE6D3C70B000000000000000000000000
(00.029564) can0 D9#3913001540CEFE09A05ECDD24F1038F0FFFFFFFFFFE60349B400000000000000
(00.031797) can0 E3#4100050801E35BBD2A2AECDD
(00.033376) can0 DB#390F001540A11920FFFF7FCFFFFF3FFFFFFFFFFFFFE657C22200000000000000
(00.041881) can0 2D#CE9B0604C409009070975822705205000800A0FEFFFF7F0802D235FFFFFFFF00FEFFEBF2775400000000000000000000
(00.042409) can0 DC#3910001661A5008E1A0AFADC5C35280000000000FFFFE626AE95000000000000
(00.042789) can0 18E19490#028400646464010005275502030000000000000006010A01BE04010000000000000000004E14C105F204851300000000A70C800C380FED0B1311001505150000
(00.047074) can0 D4#39040C050E0FF4FFFF000000
(00.047274) can0 E3#39042208003D867E780FFAFF3980000C00FFC081EB2FB0FEED9B8CA100000000
(00.048527) can0 DB#390E0020EC3A1A14B880831A3FF77F955D4DC116B3281D5C060300F1FFFFFFFFE8E85D67000000000000000000000000
(00.049612) can0 D9#39130015A2DEFF09A05ECDD24F1038F0FFFFFFFFFFE815BEA000000000000000
(00.003974) can0 2D#5FE3DF04C409009070975822705205000800A0FEFFFF7F0802D235FFFFFFFF00FEFF9D39C6D900000000000000000000
(00.004500) can0 DC#3910001693BBD98E1A0AFADC5C35280000000000FFFF98F791F5000000000000
(00.004880) can0 18E19490#010100570D7201800CED00BC02060600000000401F010000AC0D482B012003000001AD01870C00000202B403B932D007AC0D401F0C4912551311001505150000
(00.005578) can0 21C#23009F0062004400390033002F04FE01F00114009E0060004300390033003004FE01F00114009E00600043003900330030000000000000000000000000000000
(00.009248) can0 DC085B#4003080000000000
(00.010552) can0 DB#390E010F9435FFFFFFFFFFFFFF8FD308BCFDFF390E0020A734F314B880831A3FF77F955D4DC116B3281D5C060300F1FFFFFFFF9A42EC5D000000000000000000
(00.012537) can0 D9#391300150B7CD809A05E0DD34F1038F0FFFFFFFFFF9A308E2600000000000000
(00.015387) can0 DB#390F00159AB3F320FFFF7FCFFFFF3FFFFFFFFFFFFF9AF937BA00000000000000
(00.023863) can0 2D#CB36E004C409009070975822705205000800A0FEFFFF7F0802D235FFFFFFFF00FEFF9F88539200000000000000000000
(00.024390) can0 D4#390C140CFFFFFFFFFDFFFFFFFFFFFFFF
(00.024629) can0 DC#39100016DE53DA8E1A0AFADC5C35280000000000FFFF9A431987000000000000
(00.030544) can0 DB#390E00204BCBF414B880831A3FF77F955D4DC116B3281D5C060300F1FFFFFFFF9CBCB1CA000000000000000000000000
(00.031545) can0 D9#3913010B58AC68559500FE03BAFFEF3913001549D9D909A05E8DD34F1038F0FFFFFFFFFF9C70E3950000000000000000
(00.033811) can0 E3#39060B08001111180000D0FF
(00.034316) can0 18E19490#028400646464010005275602030000000000000007010B01BD04010000000100FFFF00004714C005F104811300000000A70C800C4D0FED0B1311001505150000
(00.035421) can0 DB#390F001534C1F420FFFF7FCFFFFF3FFFFFFFFFFFFF9CDE64D400000000000000
(00.035815) can0 21C#2400000000000000
(00.043930) can0 2D#D43FE104C409009070975822705205000800A0FEFFFF7F0802D235FFFFFFFF00FEFFA15F9D3A00000000000000000000
(00.044457) can0 DC#3910011055423F005410C6125D9D002005F0FFF539100016FAFBDB8E1A0AFADC5C35280000000000FFFF9CD604890000
(00.044975) can0 E3#008000044E02B6000500000CF5FCFF0000000000A303A4B7
(00.007796) can0 2D#7F9ABA04C409009070975822705205000800A0FEFFFF7F0802D235FFFFFFFF00FEFF53B6024800000000000000000000
(00.008324) can0 D4#3904060476ECF484
(00.008483) can0 DC#39100016DC48B48E1A0AFADC5C35280000000000FFFF4DDF854F000000000000
(00.014453) can0 DB#390E0020E40DCE14B880831A3FF77F955D4DC116B3281D5C060300F1FFFFFFFF4F1EBFB1000000000000000000000000
(00.015399) can0 D9#39130015BF93B308A05E8DD34F1038F0FFFFFFFFFF4FDEC48C00000000000000
(00.017725) can0 E3#4100050801831F94626F515C
(00.019323) can0 DB#390F0015E345CE20FFFF7FCFFFFF3FFFFFFFFFFFFF4F23B48300000000000000
(00.027814) can0 2D#6093BB04C409009070975822705205000800A0FEFFFF7F0802D235FFFFFFFF00FEFF552A851800000000000000000000
(00.028340) can0 DC#39100016F8E0B58E1A0AFADC5C35280000000000FFFF4F86E088000000000000
(00.028725) can0 18E19490#028400646464010004275502030000000000000007010A01BD04000000000000000000004414C005F204821300000000A70C800C7A0FED0B1311001505150000
(00.033001) can0 D4#39040C050E0FF4FFFF3915011444BD91D9F85FF5FFFFFFFFFE0780A02801FEFFFF000000000000000000000000000000
(00.033532) can0 E3#39042208003D877E780FFAFF
(00.034465) can0 DB#390E00207029CF14B880831A3FF77F955D4DC116B3281D5C060300F1FFFFFFFF52AB7822000000000000000000000000
(00.035423) can0 D9#39130015B154B408A05E0DD34F1038F0FFFFFFFFFF52FCEAD900000000000000
(00.039298) can0 DB#390F00150155CF20FFFF7FCFFFFF3FFFFFFFFFFFFF52B92C9C00000000000000
(00.047855) can0 2D#3DACBC04C409009070975822705205000800A0FEFFFF7F0802D235FFFFFFFF00FEFF57862C5900000000000000000000
(00.048379) can0 DC#39100016B508B68E1A0AFADC5C35280000000000FFFF528F33D1000000000000
(00.000379) can0 DB#390E0020E6E6A515B880831A3FF77FD55D4DC116B3281D5C060300F1FFFFFFFFFC24A87C000000000000000000000000
(00.001126) can0 D9#39130015D5748A08A05ECDD44F1038F0FFFFFFFFFFFDD07B9A00000000000000
(00.003683) can0 E3#4100050800800343CF4A00A0
(00.005230) can0 DB#390F0015D3B7A520FFFF7FCFFFFF3FFFFFFFFFFFFFFCABCC8800000000000000
(00.013698) can0 2D#46E19204C409009070975822705205000800A0FEFFFF7F0802D235FFFFFFFF00FEFF010831ED00000000000000000000
(00.014224) can0 D4#390406041272EC84
(00.014385) can0 DC#39100016473C8C8E1A0AFADC5C35280000000000FFFFFC7F533B000000000000
(00.020370) can0 DB#390E00202E4AA615B880831A3FF77F955D4DC116B3281D5C060300F1FFFFFFFFFE264B6E000000000000000000000000
(00.021254) can0 D9#39130015E2D28B08A05E4DD54F1038F0FFFFFFFFFFFFF5064B00000000000000
(00.023646) can0 E3#41000508013D26101D69ED0B
(00.023859) can0 18E19490#0000000155555555056D06DB030000000000001A027F000001000100000000000000000054535008010801B8018601650143015453500F011311001505150000
(00.025240) can0 DB#390F0015F586A620FFFF7FCFFFFF3FFFFFFFFFFFFFFE138F3C00000000000000
(00.033659) can0 D4#39040C050E0FF4FFFF390C1608FFFFFFFFFFFFFFFF3915011444BD91D9F85FF5FFFFFFFFFE0780A02801FEFFFF000000
(00.034185) can0 2D#59E89304C409009070975822705205000800A0FEFFFF7F0802D235FFFFFFFF00FEFF042D444200000000000000000000
(00.034711) can0 D4#390C083CFE7400800000086CF53C2483FF7BDF01F0F0C401A02CE07C8FB30400009E053C400B5AD08216B4A0052D68E5286BFE7FA9E600FFC9FFFFFF833EE4FF
(00.035368) can0 DC#3910001663948D8E1A0AFADC5C35280000000000FFFFFEA476FD000000000000
(00.038881) can0 E3#39042208003D877E780FFAFF
(00.040498) can0 DB#390E0020BA6EA715B880831A3FF77F955D4DC116B3281D5C060300F1FFFFFFFF01EBFDEF000000000000000000000000
(00.041274) can0 D9#3913001599168C08A05ECDD44F1038F0FFFFFFFFFF0108147F00000000000000
(00.045214) can0 DB#390F00151796A720FFFF7FCFFFFF3FFFFFFFFFFFFF01B5183100000000000000
(00.000114) can0 DC#3910011055423F30541006065D9D002005F0FFF1391000161087638E1A0AFADC5C35280000000000FFFFABC9BE840000
(00.000632) can0 E3#0500000CF5FCFF0000000000B32ECCD7
(00.004793) can0 E3#00800004C3B09E004100050800800343CF49B06A
(00.006312) can0 DB#390E00203F777D15B880831A3FF77FD55D4DC116B3281D5C060300F1FFFFFFFFADBEE211000000000000000000000000
(00.007029) can0 D9#39130015CEAB6208A05E0DD54F1038F0FFFFFFFFFFAD13672E00000000000000
(00.011124) can0 DB#390F0015CEA67D20FFFF7FCFFFFF3FFFFFFFFFFFFFADB5DF7700000000000000
(00.019602) can0 2D#09A36A04C409009070975822705205000800A0FEFFFF7F0802D235FFFFFFFF00FEFFB2D40E2B00000000000000000000
(00.020128) can0 D4#39040604D1F7E484
(00.020289) can0 DC#391000168FEF648E1A0AFADC5C35280000000000FFFFAD07AF8D000000000000
(00.020672) can0 18E19490#036C0636227BD24400470010000000010000000000000000000000000000000000A70CE50F001C0C43004700110054D9055316D50CC409001311001505150000
(00.026278) can0 DB#390E0020831A7E15B880831A3FF77FD55D4DC116B3281D5C060300F1FFFFFFFFAF7BE236000000000000000000000000
(00.027101) can0 D9#3913001529576308A05ECDD44F1038F0FFFFFFFFFFAF08ACB000000000000000
(00.029548) can0 E3#4100050801A57614E390BF40
(00.031146) can0 DB#390F0015E8977E20FFFF7FCFFFFF3FFFFFFFFFFFFFAF16280F00000000000000
(00.031666) can0 DC085D#4002000000000000
(00.039612) can0 2D#16AA6B04C409009070975822705205000800A0FEFFFF7F0802D235FFFFFFFF00FEFFB4CF186800000000000000000000
(00.040137) can0 DC#39100016AB47658E1A0AFADC5C35280000000000FFFFAFFCA645000000000000
(00.044786) can0 D4#39040C050E0FF4FFFF3915011444BD91D9F85FF5FFFFFFFFFE0780A02801FEFFFF000000000000000000000000000000
(00.045318) can0 E3#39042208003D877E781FFAFF
(00.046290) can0 DB#390E0020173E7F15B880831A3FF77FD55D4DC116B3281D5C060300F1FFFFFFFFB1C75A39000000000000000000000000
(00.047136) can0 D9#3913001527906408A05E4DD44F1038F0FFFFFFFFFFB1F4583400000000000000
(00.003065) can0 2D#F6824804C409009070975822705205000800A0FEFFFF7F0802D235FFFFFFFF00FEFF6EFA635C00000000000000000000
(00.003592) can0 DC#391000162069428E1A0AFADC5C35280000000000FFFF6853AAD3000000000000
(00.008261) can0 D4#39040C050E0FF4FFFF000000
(00.008460) can0 E3#39042208003D867E780FFAFF3980000C007FE081DF2FB0FE71C1B51100000000
(00.009783) can0 DB#390E0020AF815C15B880831A3FF77FD55D4DC116B3281D5C060300F1FFFFFFFF6BE43065000000000000000000000000
(00.010566) can0 D9#391300153AFC4108A05E4DD54F1038F0FFFFFFFFFF6BA7068E00000000000000
(00.014605) can0 DB#390F00152E8A5C20FFFF7FCFFFFF3FFFFFFFFFFFFF6B11707300000000000000
(00.017386) can0 44#04
(00.023124) can0 DC#3910001604C1438E1A0AFADC5C35280000000000FFFF6B5A2A1D000000000000
(00.023505) can0 2D#E98B4904C409009070975822705205000800A0FEFFFF7F0802D235FFFFFFFF00FEFF700FDD3000000000000000000000
(00.024032) can0 18E19490#010100570D7201800CED00BC02060600000000401F010000AC0D482B012003000001AD018E0C00000202B403B932D007AC0D401F0C2B12551311001505150000
(00.024731) can0 21C#23000000000000000000000000000000000000000000000000000000000000000000000000000000000000000000000000000000000000000000000000000000
(00.028409) can0 DC085B#4003080000000000
(00.029771) can0 DB#390E010F9035FFFFFFFFFFFFFF8FD308BCFDFF390E00203BA55D15B880831A3FF77FD55D4DC116B3281D5C060300F1FFFFFFFF6D969E6D000000000000000000
(00.030441) can0 D9#391300156C224208A05E8DD54F1038F0FFFFFFFFFF6D19DEB800000000000000
(00.034655) can0 DB#390F0015CC9A5D20FFFF7FCFFFFF3FFFFFFFFFFFFF6D1E19C200000000000000
(00.043032) can0 2D#C8904A04C409009070975822705205000800A0FEFFFF7F0802D235FFFFFFFF00FEFF724834FB00000000000000000000
(00.043559) can0 D4#390C140CFFFFFFFFFDFFFFFFFFFFFFFF
(00.043798) can0 DC#391000169BA9448E1A0AFADC5C35280000000000FFFF6DD838D8000000000000
(00.007570) can0 DC#3910011055423F00541096065C9D002005F0FFF53910001618BF1D8E1A0AFADC5C35280000000000FFFF1F371EB30000
(00.008088) can0 2D#05F62304C4090090709758E26F5205000800A0FEFFFF7F0802D235FFFFFFFF00FEFF2473969400000000000000000000
(00.008614) can0 E3#0500000CF5FCFF0000000000271374ED
(00.012836) can0 E3#00800004991290004100050800800343CF492448
(00.014366) can0 DB#390E002049783715B880831A3FF87FD55D4DC116B3281D5C060300F1FFFFFFFF21D754EF000000000000000000000000
(00.014972) can0 D9#3913001525621C08A05E4DD64F1030F0FFFFFFFFFF21D7BECF00000000000000
(00.017661) can0 18E19490#010100570D7201800CED00BC02060600000000401F010000AC0D482B012003000001AD01870C00000202B503A132D007AC0D401F0C242C551311001505150000
(00.019186) can0 DB#390F00151E783720FFFF7FCFFFFF3FFFFFFFFFFFFF2133629800000000000000
(00.027599) can0 DC#3910001655571E8E1A0AFADC5C35280000000000FFFF2117C8FB000000000000
(00.027980) can0 2D#31BA2404C409009070975822705205000800A0FEFFFF7F0802D235FFFFFFFF00FEFF2682C4FA00000000000000000000
(00.028508) can0 D4#390406045036D684
(00.034340) can0 DB#390E002083973815C880831A3FF87FD55D4DC116B3281D5C060300F1FFFFFFFF23ED0C49000000000000000000000000
(00.035055) can0 D9#3913001567C71D08A05ECDD64F1030F0FFFFFFFFFF238EDE8C00000000000000
(00.037553) can0 E3#410005080178372EEDB4C350
(00.039209) can0 DB#390F0015A08D3820FFFF7FCFFFFF3FFFFFFFFFFFFF23C8172300000000000000
(00.047542) can0 DC#3910001671FF1F8E1A0AFADC5C35280000000000FFFF238B5E9D000000000000
(00.047923) can0 2D#2EB32504C409009070975822705205000800A0FEFFFF7F0802D235FFFFFFFF00FEFF282B320900000000000000000000
(00.048449) can0 18E19490#028400646464010005275602020000000000000006010B01BE04010001000000FFFF00004814C005F2047F1300000000A70C800C590FED0B1311001505150000
(00.001651) can0 DC#39100016AA4EF28E1A0AFADC6035280000000000FFFFC946FA7D000000000000
(00.002034) can0 2D#AA9CF804C4090090709758E26F5205000800A0FEFFFF7F0802D235FFFFFFFF00FEFFCE5736B100000000000000000000
(00.002558) can0 18E19490#028400646464010006275402030000000000000006010901BD04000001000000020000004B14C105F304851300000000A70C800C590FED0B1311001505150000
(00.007022) can0 D4#39040C050E0FF4FFFF000000
(00.007221) can0 E3#39042208003D867E780FFAFF3980000C007FE081D62FB0FED1F8A22400000000
(00.008564) can0 DB#390E00201AED0C15C880831A3FF87F155E4DC116B3281D5C060300F1FFFFFFFFCB65C312000000000000000000000000
(00.009240) can0 D9#3913001584B4F108A05ECDD74F1030F0FFFFFFFFFFCB808ADC00000000000000
(00.013388) can0 DB#390F00152BEC0C20FFFF7FCFFFFF3FFFFFFFFFFFFFCBDF3A9300000000000000
(00.016144) can0 44#04
(00.021670) can0 DC#391000166BACF38E1A0AFADC5C35280000000000FFFFCB965414000000000000
(00.022051) can0 2D#B595F904C4090090709758E26F5205000800A0FEFFFF7F0802D235FFFFFFFF00FEFFD099BC7E00000000000000000000
(00.028555) can0 DB#390E010F9C35FFFFFFFFFFFFFF8FD308BCFDFF390E00208EC90D15C880831A3FF87F155E4DC116B3281D5C060300F1FFFFFFFFCD53DCAF000000000000000000
(00.030203) can0 D9#391300153179F208A05E0DD84F1030F0FFFFFFFFFFCD81593C00000000000000
(00.031700) can0 18E19490#036C06362276D248004C0012000000010000000000000000000000000000000000A70CE50F001C0C47004B00140054D9055516D40CC409001311001505150000
(00.033388) can0 DB#390F0015C9FC0D20FFFF7FCFFFFF3FFFFFFFFFFFFFCD69EC1B00000000000000
(00.041713) can0 DC#39100016118EF48E1A0AFADC6035280000000000FFFFCD887925000000000000
(00.042093) can0 2D#948EFA04C4090090709758E26F5205000800A0FEFFFF7F0802D235FFFFFFFF00FEFFD2EA2F9200000000000000000000
(00.042619) can0 D4#390C140CFFFFFFFFFDFFFFFFFFFFFFFF
(00.048542) can0 DB#390E002032A40E15C880831A3FF87F155E4DC116B3281D5C060300F1FFFFFFFFCFB2ABC2000000000000000000000000
(00.049184) can0 D9#3913010B58AC58559500FE03BAFFEF3913001573DCF308A05E8DD84F1030F0FFFFFFFFFFCF2D6E810000000000000000
(00.000395) can0 18E19490#036D0633227DD24A004D0014000000010000000000000000000000000000000000A70CE50F001C0C49004C00150054D9054A16D70CC409001311001505150000
(00.002152) can0 DB#390F0015BD9CE020FFFF7FCFFFFF3FFFFFFFFFFFFF7381356E00000000000000
(00.010432) can0 DC#391000164203C78E1A0AFADC6035280000000000FFFF73E80960000000000000
(00.010816) can0 2D#F813CD04C4090090709758E26F5205000800A0FEFFFF7F0802D235FFFFFFFF00FEFF7867F43600000000000000000000
(00.011342) can0 D4#390C140CFFFFFFFFFDFFFFFFFFFFFFFF
(00.017316) can0 DB#390F01064D8504605024390E00200171E115C880831A3FF87F155E4DC116B3281D5C060300F1FFFFFFFF75383C5D0000
(00.018028) can0 D9#3913010B58AC48559500FE03BAFFEF391300158044C608A05E4DDA4F1030F0FFFFFFFFFF753AE44F0000000000000000
(00.020510) can0 E3#39060B08001111180000D0FF
(00.022183) can0 DB#390F00155F8CE120FFFF7FCFFFFF3FFFFFFFFFFFFF750400FB00000000000000
(00.030375) can0 DC#3910011055423F3054100E165D9D002005F0FFF139100016587AC88E1A0AFADC6035280000000000FFFF75D202DE0000
(00.030893) can0 2D#D908CE04C4090090709758E26F5205000800A0FEFFFF7F0802D235FFFFFFFF00FEFF7A5C3CF300000000000000000000
(00.031415) can0 18E19490#040300030002007E36EB0C5D0D220172010803010101010200000000000000000000000000000000000000000000000000000000000000001311001505150000
(00.035818) can0 E3#008000049D427F004100050800800343CF487A15
(00.037336) can0 DB#390E0020BD1CE215C880831A3FF87F155E4DC116B3281D5C060300F1FFFFFFFF77A0E71D000000000000000000000000
(00.037856) can0 D9#39130015FD51C708A05E4DD94F1030F0FFFFFFFFFF771DC54800000000000000
(00.042154) can0 DB#390F001579BDE220FFFF7FCFFFFF3FFFFFFFFFFFFF77597D4500000000000000
(00.002462) can0 E3#4100050801E508B3E1737933
(00.004163) can0 DB#390F00158E4CBB20FFFF7FCFFFFF3FFFFFFFFFFFFF298CD97200000000000000
(00.012190) can0 DC#3910001688E1A28E1A0AFADC6035280000000000FFFF29D24224000000000000
(00.012570) can0 2D#D86AA804C4090090709758E26F5205000800A0FEFFFF7F0802D235FFFFFFFF00FEFF2E74569600000000000000000000
(00.017731) can0 D4#39040C050E0FF4FFFF000000
(00.017931) can0 E3#39042208003D867E780FFAFF3980000C00FFE581CA2FB0FE3162EE1100000000
(00.019315) can0 DB#390E002099FBBC15C880831A3FF97F155E4DC116B3281D5C060300F1FFFFFFFF2B54B84F000000000000000000000000
(00.019835) can0 D9#39130015A959A107A05E0DDD4F1030F0FFFFFFFFFF2B0813BB00000000000000
(00.022472) can0 18E19490#040300030002007E36EE0C5E0D220172010803010101010200000000000000000000000000000000000000000000000000000000000000001311001505150000
(00.024189) can0 DB#390F0015203EBC20FFFF7FCFFFFF3FFFFFFFFFFFFF2B083BCA00000000000000
(00.026841) can0 44#04
(00.032257) can0 DC#39100016AC49A38E1A0AFADC6035280000000000FFFF2BF0376E000000000000
(00.032725) can0 2D#C763A904C4090090709758E26F5205000800A0FEFFFF7F0802D235FFFFFFFF00FEFF30F9482600000000000000000000
(00.039304) can0 DB#390E010F8835FFFFFFFFFFFFFF8FD308BCFDFF390E00200DDFBD15C880831A3FF97F155E4DC116B3281D5C060300F1FFFFFFFF2D7A20B7000000000000000000
(00.041171) can0 D9#391300158F68A207A05E0DDD4F1030F0FFFFFFFFFF2DDD67FD00000000000000
(00.044137) can0 DB#390F0015C22EBD20FFFF7FCFFFFF3FFFFFFFFFFFFF2DD21B5F00000000000000
(00.001617) can0 44#04
(00.006941) can0 DC#391000167AFF7B8E1A0AFADC6035280000000000FFFFDBCC770A000000000000
(00.007414) can0 2D#FE188104C4090090709758E26F5205000800A0FEFFFF7F0802D235FFFFFFFF00FEFFE0CD145B00000000000000000000
(00.008990) can0 21C#23000000000000000000000000000000000000000000000000000000000000000000000000000000000000000000000000000000000000000000000000000000
(00.012646) can0 DC085B#4003080000000000
(00.014112) can0 DB#390E010F8835FFFFFFFFFFFFFF8FD308BCFDFF390E0020FCF89515C880831A3FF97F555E4DC116B3281D5C060300F1FFFFFFFFDD3F218B000000000000000000
(00.015573) can0 D9#39130015F7947A07A05FCDDC4F1028F0FFFFFFFFFFDDBF107D00000000000000
(00.017076) can0 18E19490#036B06362272D24C00500015000000010000000000000000000000000000000000A70CE50F001C0C4B004F00170054D9054816D50CC409001311001505150000
(00.018948) can0 DB#390F0015D0959520FFFF7FCFFFFF3FFFFFFFFFFFFFDD2503B800000000000000
(00.027012) can0 DC#39100016E5977C8E1A0AFADC6035280000000000FFFFDD525AA9000000000000
(00.027394) can0 2D#DF038204C4090090709758E26F5205000800A0FEFFFF7F0802D235FFFFFFFF00FEFFE29A6B3700000000000000000000
(00.027920) can0 D4#390C140CFFFFFFFFFDFFFFFFFFFFFFFF
(00.034105) can0 DB#390E002040959615C880831A3FF97F555E4DC116B3281D5C060300F1FFFFFFFFDFFAA554000000000000000000000000
(00.034627) can0 D9#3913010B58AC48559500FE03BAFFEF39130015B0DD7B07A05F8DDD4F1028F0FFFFFFFFFFDF9D801E0000000000000000
(00.037260) can0 E3#39060B08001111180000D0FF
(00.038983) can0 DB#390F0015F6A49620FFFF7FCFFFFF3FFFFFFFFFFFFFDF35090800000000000000
(00.039376) can0 21C#2400000000000000
(00.047009) can0 DC#3910011055423F00541096065C9D002005F0FFF53910001624757D8E1A0AFADC5C35280000000000FFFFDF0080CA0000
(00.047530) can0 2D#C00A8304C4090090709758E26F5205000800A0FEFFFF7F0802D235FFFFFFFF00FEFFE43FA40A00000000000000000000
(00.048059) can0 E3#0500000CE5FCFF1200000000E7FDE6CC
(00.048292) can0 18E19490#040300020002007E36EB0C5E0D220171010803010101010200000000000000000000000000000000000000000000000000000000000000001311001505150000
(00.000910) can0 D9#3913001565744D07A05F4DDF4F1028F0FFFFFFFFFF83DBAB1700000000000000
(00.002201) can0 18E19490#036D063A227AD24D00510017000000010000000000000000000000000000000000A70CE50F001C0C4C005000180054D9055916D40CC409001311001505150000
(00.002909) can0 E3#4100000802343937850BEB55
(00.004117) can0 DB#390E0020E50D6815C880831A3FF97F555E4DC116B3281D5C060300F1FFFFFFFF83037F96390F0015A5EB6820FFFF7FCFFFFF3FFFFFFFFFFFFF8375F37E000000
(00.009790) can0 D9#39FE28082900000000000000
(00.012138) can0 DC#39100016B61A4F8E1A0AFADC6035280000000000FFFF83DA1C52000000000000
(00.012521) can0 2D#F4055504C4090090709758E26F5205000800A0FEFFFF7F0802D235FFFFFFFF00FEFF88142C6500000000000000000000
(00.013045) can0 D4#390C140CFFFFFFFFFDFFFFFFFFFFFFFF
(00.014110) can0 DB#390E04105CE30B4C24B4DBFF2FAE6C79EBFFFFFF390F01064D85046098190000
(00.019294) can0 DB#390E002071296915C880831A3FF97F555E4DC116B3281D5C060300F1FFFFFFFF85769FE4000000000000000000000000
(00.019813) can0 D9#3913010B58AC48559500FE03BAFFEF3913001520E04E07A05F8DE04F1028F0FFFFFFFFFF8565D52E0000000000000000
(00.022164) can0 DC#39FE6F089401008001000000
(00.022458) can0 E3#39060B08001111180000D0FF4100000803D8822732BF0000
(00.024185) can0 DB#390F001547FB6920FFFF7FCFFFFF3FFFFFFFFFFFFF85A2517800000000000000
(00.032113) can0 DC#3910011055423F3254104E165C9D002005F0FFF139100016A640508E1A0AFADC6035280000000000FFFF85EC87F40000
(00.032631) can0 2D#D51E5604C4090090709758E26F5205000800A0FEFFFF7F0802D235FFFFFFFF00FEFF8A409F8B00000000000000000000
(00.033155) can0 18E19490#040300020002007E36EB0C5D0D220172010803010101010200000000000000000000000000000000000000000000000000000000000000001311001505150000
(00.037757) can0 E3#00800004F9DC67004100050800800343CF478AB3
(00.038028) can0 21D#300128
(00.038181) can0 21C#23000000000000000000000000000000000000000000000000000000000000000000000000000000000000000000000000000000000000000000000000000000
(00.039343) can0 DB#390E0020CD446A15C880831A3FF97F555E4DC116B3281D5C060300F1FFFFFFFF87EC369F000000000000000000000000
(00.039863) can0 D9#3913001525484F06A05FCDDF4F1028F0FFFFFFFFFF87FD9F7B00000000000000
(00.044140) can0 DB#390F001561CA6A20FFFF7FCFFFFF3FFFFFFFFFFFFF874026A300000000000000
(00.047927) can0 21D#300128
(00.048078) can0 21C#2400000000000000
(00.002685) can0 D4#39040C050E0FF4FFFF000000
(00.002884) can0 E3#39042208003D867E780FFAFF3980000C007FC181912FB0FE419C04C100000000
(00.004302) can0 DB#390E0020306A4415C880831A3FF77F555E4DC116B3281D5C060300F1FFFFFFFF3B1ABC4C000000000000000000000000
(00.004822) can0 D9#39130015D3FA2908A05FCDD34F1038F0FFFFFFFFFF3BFD63F200000000000000
(00.007109) can0 18E19490#040300020002007E36EB0C5E0D220180010803010101010200000000000000000000000000000000000000000000000000000000000000001311001505150000
(00.009123) can0 DB#390F00153F134420FFFF7FCFFFFF3FFFFFFFFFFFFF3B5854FC00000000000000
(00.011789) can0 44#04
(00.017020) can0 DC#3910001658502B8E1A0AFADC6035280000000000FFFF3B21EF09000000000000
(00.017563) can0 2D#CB753104C4090090709758E26F5205000800A0FEFFFF7F0802D235FFFFFFFF00FEFF40D3D46100000000000000000000
(00.024290) can0 DB#390E010F9C35FFFFFFFFFFFFFF8FD308BCFDFF390E0020A44E4515C880831A3FF77F555E4DC116B3281D5C060300F1FFFFFFFF3DD9EFBB000000000000000000
(00.025634) can0 D9#391300151E762A08A05F4DD44F1038F0FFFFFFFFFF3DE8DE6F00000000000000
(00.029175) can0 DB#390F0015DD034520FFFF7FCFFFFF3FFFFFFFFFFFFF3D17983500000000000000
(00.036906) can0 DC#39100016C7382C8E1A0AFADC6035280000000000FFFF3D5AF409000000000000
(00.037288) can0 18E19490#0000000155555555056C06DA030000000000001A027F000000000100000000000000000055535008010801B9018601650143015453500F011311001505150000
(00.037995) can0 2D#EA6E3204C4090090709758E26F5205000800A0FEFFFF7F0802D235FFFFFFFF00FEFF42D0A4BE00000000000000000000
(00.038520) can0 D4#390C140CFFFFFFFFFDFFFFFFFFFFFFFF
(00.044279) can0 DB#390E002018234615C880831A3FF77F555E4DC116B3281D5C060300F1FFFFFFFF3FFC03E9000000000000000000000000
(00.044802) can0 D9#3913010B58AC48559500FE03BAFFEF391300159D1D2B08A05E4DD44F1038F0FFFFFFFFFF3F17D6350000000000000000
(00.047418) can0 E3#39060B08001111180000D0FF
(00.049157) can0 DB#390F0015FB324620FFFF7FCFFFFF3FFFFFFFFFFFFF3FF812D800000000000000
(00.002364) can0 DC#391000163F2F068E1A0AFADC6035280000000000FFFFF189DD90000000000000
(00.003024) can0 2D#61B20C04C4090090709758E26F5205000800A0FEFFFF7F0802D235FFFFFFFF00FEFFF683E27A00000000000000000000
(00.003551) can0 D4#390406040FDD9E84
(00.009816) can0 DB#390E0020BB4B2015C880831A3FF67F555E4DC116B3281D5C060300F1FFFFFFFFF399A5AE000000000000000000000000
(00.010337) can0 D9#39130015D1C40509A05E4DCE4F1040F0FFFFFFFFFFF397B5CE00000000000000
(00.012498) can0 18E19490#0000000155555555056D06DB030000000000001A027F000000000100000000000000000055535008010701BA0186016501420154535009011311001505150000
(00.013205) can0 E3#410005080174C0032AA1A4AA
(00.014685) can0 DB#390F0015B1142020FFFF7FCFFFFF3FFFFFFFFFFFFFF3E0393500000000000000
(00.015206) can0 DC085D#4002000000000000
(00.022440) can0 DC#391000161B87078E1A0AFADC6035280000000000FFFFF37E7EBD000000000000
(00.023067) can0 2D#7EBB0D04C4090090709758E26F5205000800A0FEFFFF7F0802D235FFFFFFFF00FEFFF8CEFF9600000000000000000000
(00.028199) can0 D4#39040C050E0FF4FFFF3915011444B591E5F85FF5FFFFFFFFFE0780A02875FEFFFF000000000000000000000000000000
(00.028729) can0 E3#39042208003D877E781FFAFF
(00.029827) can0 DB#390E00202F6F2115C880831A3FF67F555E4DC116B3281D5C060300F1FFFFFFFFF5A975FE000000000000000000000000
(00.030347) can0 D9#3913001557400609A05ECDCE4F1040F0FFFFFFFFFFF50AA21C00000000000000
(00.034658) can0 DB#390F001553042120FFFF7FCFFFFF3FFFFFFFFFFFFFF55FBC3E00000000000000
(00.042363) can0 DC#3910001601FE088E1A0AFADC6035280000000000FFFFF58BB2ED000000000000
(00.042747) can0 18E19490#010100580D7201800CED00BC02060600000000401F010000AC0D4B2B012003000001AD01870C00000202BB03A932D007AC0D401F0C5127561311001505150000
(00.043444) can0 2D#5FA00E04C4090090709758E26F5205000800A0FEFFFF7F0802D235FFFFFFFF00FEFFFAF8511900000000000000000000
(00.000558) can0 DC#39100016C92DE08E1A0AFADC6035280000000000FFFFA6DD6D36000000000000
(00.001282) can0 2D#8900E604C409009070975822705205000800A0FEFFFF7F0802D235FFFFFFFF00FEFFAA8DEEEE00000000000000000000
(00.008040) can0 DB#390E010FA035FFFFFFFFFFFFFF8FD308BCFDFF390E00200106FA15C880831A3FF97F955E4DC116B3281D5C060300F1FFFFFFFFA821466F000000000000000000
(00.009272) can0 D9#39130015755FDF06A05F4DE24F1028F0FFFFFFFFFFA7C91C3700000000000000
(00.012874) can0 DB#390F00156824FA20FFFF7FCFFFFF3FFFFFFFFFFFFFA8A01BB300000000000000
(00.020492) can0 DC#39100016ED85E18E1A0AFADC6035280000000000FFFFA8F11408000000000000
(00.020875) can0 18E19490#0000000155555555056C06DA030000000000001A027F000000000100000000000000000055535007010701B9018601640143015453500C011311001505150000
(00.021581) can0 2D#9609E704C409009070975822705205000800A0FEFFFF7F0802D235FFFFFFFF00FEFFAC71C78800000000000000000000
(00.022107) can0 D4#390C140CFFFFFFFFFDFFFFFFFFFFFFFF
(00.028038) can0 DB#390F01064D8504609819390E00209522FB15C880831A3FF97F955E4DC116B3281D5C060300F1FFFFFFFFAAD40D850000
(00.028548) can0 D9#3913010B58AC48559500FE03BAFFEF391300152762E006A05F8DE14F1028F0FFFFFFFFFFA9C960760000000000000000
(00.030534) can0 DC08E2#4002000000000000
(00.031140) can0 E3#39060B08001111180000D0FF
(00.032909) can0 DB#390F00158A34FB20FFFF7FCFFFFF3FFFFFFFFFFFFFAA4D6BCC00000000000000
(00.040541) can0 DC#3910011055423F0054109E165D9D002005F0FFF539100016A06DE28E1A0AFADC6035280000000000FFFFAA0FBA360000
(00.041221) can0 2D#337EE804C409009070975822705205000800A0FEFFFF7F0802D235FFFFFFFF00FEFFAE18325D00000000000000000000
(00.046455) can0 E3#0080000489D751004100050800800343CF46AEFC3204000C58CA0553670700F0AD5D15A6000000000000000000000000
(00.047972) can0 21C#1102010D7380763C7A247E0C81F485DC89C4957C9770000000000000000000000000000000000000000000000000000000000000000000000000000000000000
(00.048657) can0 D9#39130015602BE106A05FCDE04F1028F0FFFFFFFFFFAB26A43500000000000000
(00.049039) can0 DB#390E002079DDFC15C880831A3FF97F955E4DC116B3281D5C060300F1FFFFFFFFAB71FC1B000000000000000000000000
(00.001487) can0 DB#390F0015D4EDD520FFFF7FCFFFFF3FFFFFFFFFFFFF5D7FE7FC00000000000000
(00.009050) can0 DC#39100016BC13BC8E1A0AFADC6035280000000000FFFF5DD11832000000000000
(00.009768) can0 2D#5D64C204C4090090709758E26F5205000800A0FEFFFF7F0802D235FFFFFFFF00FEFF621DFCC100000000000000000000
(00.014917) can0 D4#39040C050E0FF4FFFF000000
(00.015116) can0 E3#39042208003DC67E782FFEFF3980000C00FF8088BF2FB0FE65CFCACB00000000
(00.016587) can0 DB#390E002091FAD616D880831A3FFC7F155F4DC116B3281D5C060300F1FFFFFFFF5FB95F33000000000000000000000000
(00.017110) can0 D9#39130015170FBB02A05F0DF84F1008F0FFFFFFFFFF5F80580000000000000000
(00.021410) can0 DB#390F0015F2DCD620FFFF7FCFFFFF3FFFFFFFFFFFFF5F267C3100000000000000
(00.023972) can0 44#04
(00.028982) can0 DC#3910001698BBBD8E1A0AFADC6035280000000000FFFF5F144AAB000000000000
(00.029363) can0 18E19490#010100580D7101800CED00BC02060600000000401F010000AC0D4B2B012003000001AE01860C00000202C403B932D007AC0D401F0C4227561311001505150000
(00.030062) can0 2D#426DC304C4090090709758E26F5205000800A0FEFFFF7F0802D235FFFFFFFF00FEFF64BB432F00000000000000000000
(00.036576) can0 DB#390E010F9435FFFFFFFFFFFFFF8FD308BCFDFF390E0020897DD716D880831A3FFC7FD55E4DC116B3281D5C060300F1FFFFFFFF6165E274000000000000000000
(00.037234) can0 D9#391300157EC6BC03A05F0DF74F1008F0FFFFFFFFFF617AC58F00000000000000
(00.041410) can0 DB#390F001510CCD720FFFF7FCFFFFF3FFFFFFFFFFFFF61F597AB00000000000000
(00.048985) can0 DC#39100016D553BE8E1A0AFADC6035280000000000FFFF61D9095B000000000000
(00.006084) can0 DC#391000169EA99D0E1A0AFADC6035280000000000FFFF1FD1DD5D000000000000
(00.006823) can0 2D#6BC4A304C409009070975822705205000800A0FEFFFF7F2002D235FFFFFFFF00FEFF2483668900000000000000000000
(00.007350) can0 D4#3904060485978984
(00.013723) can0 DB#390E0020228CB715C880831A3FF47FD55E4DC116B3281D5C060300F1FFFFFFFF21B45E50000000000000000000000000
(00.014241) can0 D9#3913001586659C09A05F8DD36F1130F0FFFFFFFFFF21CBF11800000000000000
(00.016218) can0 18E19490#0000000155555555056C06DA030000000000001A0286000001000100000000000000000055535008010801B90185016501430154534FDE001311001505150000
(00.016925) can0 E3#4100050801EA0D786E5B083F
(00.018591) can0 DB#390F00151688B720FFFF7FCFFFFF3FFFFFFFFFFFFF2174D55900000000000000
(00.026158) can0 DC#39100016D3419E0E1A0AFADC6035280000000000FFFF212A8FDD000000000000
(00.026867) can0 2D#36FBA404C409009070975822705205000800A0FEFFFF7F2002D235FFFFFFFF00FEFF26A77F3200000000000000000000
(00.027395) can0 D4#39FE1D085940B288C402000039040C050E0FF4FFFF000000
(00.032066) can0 E3#39042208003D867E780FFAFF3980000C00FF808F1E30B0FE29D6F97000000000
(00.033737) can0 DB#390E0020F63DB815C880831A3FF67F955E4DC116B3281D5C060300F1FFFFFFFF235579F3000000000000000000000000
(00.034258) can0 D9#3913001570F79D0CA05F8DC84F1138F0FFFFFFFFFF23500F7F00000000000000
(00.038565) can0 DB#390F0015A87DB820FFFF7FCFFFFF3FFFFFFFFFFFFF236137DC00000000000000
(00.041116) can0 44#04
(00.046087) can0 DC#39100016F7E99F0E1A0AFADC6035280000000000FFFF233702A2000000000000
(00.046471) can0 18E19490#010100580D7201800CED00BC02060120030000401F010000AC0D4B2B012003000001AE01860C0000020200005F35D007AC0D401F0C3C1D561311001505150000
(00.047172) can0 2D#29F2A504C409009070975822705205000800A0FEFFFF7F2002D235FFFFFFFF00FEFF28D968D000000000000000000000
(00.003401) can0 D4#39040C050E0FF4FFFF000000
(00.003601) can0 E3#39042208003C067E780FFAFF3980000C007FF28F2430B0FED98A23C600000000
(00.006160) can0 DB#390E0020209C90190881831A3F288015624DC116B3281D5C060300F1FFFFFFFFD3A3093F000000000000000000000000
(00.006682) can0 D9#39130015E1CC7507A063CDDC0F1230F0FFFFFFFFFFD3D5C6BC00000000000000
(00.008607) can0 18E19490#04590155010E002A30EB0C670D220171010803010101010100000000000000000000000000000000000000000000000000000000000000001311001505150000
(00.010981) can0 DB#390F0015BAC69020FFFF7FCFFFFF3FFFFFFFFFFFFFD3F55DE500000000000000
(00.012761) can0 44#04
(00.018339) can0 2D#0E927D04C4090090709758624652552B28E030FFFFFF7F4002D235FFFFFFFF00FEFFD80B534D00000000000000000000
(00.018861) can0 DC#39100016A883770E9A01002380352C0000000000FFFFD3CBB7DA000000000000
(00.026146) can0 DB#390E010FA035FFFFFFFFFFFFFF8FD308BCFDFF390E00208FC591190881831A3F258015624DC116B3281D5C060300F1FFFFFFFFD5C73F1D000000000000000000
(00.027208) can0 D9#39130015F1827609A0634DD40F1230F0FFFFFFFFFFD5C8F1B500000000000000
(00.030982) can0 DB#390F001558D69120FFFF7FCFFFFF3FFFFFFFFFFFFFD5C4EC4F00000000000000
(00.038371) can0 DC#39100016B2FA780E9A01002380352C0000000000FFFFD570A28E000000000000
(00.038754) can0 2D#4CCC7E04C4090090709758624652552B28E030FEFFFF7F4002D235FFFFFFFF00FEFFDAD7CC6B00000000000000000000
(00.039275) can0 D4#390C140CFFFFFFFFFDFFFFFFFFFFFFFF
(00.039515) can0 18E19490#0000000100000055056806D8030000EF0166013B028D000082018E010000E208DF08000055535007010701B90186016301420154535043031311001505150000
(00.046137) can0 DB#390E002008C692190881831A3F268015624DC116B3281D5C060300F1FFFFFFFFD7F7ECE0000000000000000000000000
(00.046659) can0 D9#3913010B58BA48559500FE03BAFFEF3913001508D4770BA0634DCD0F1238F0FFFFFFFFFFD74A57BD0000000000000000
(00.048482) can0 E3#39060B080011111800C0CFFF
(00.001768) can0 DB#390F001547FB6920FFFF7FCFFFFF3FFFFFFFFFFFFF85FBCA5100000000000000
(00.008528) can0 2D#16F25604C4090090709758624652552B28E030FFFFFF7F4002D235FFFFFFFF00FEFF8AEC55EC00000000000000000000
(00.009225) can0 DC#3910001623AD500E9A01002380352C0000000000FFFF86E85561000000000000
(00.016921) can0 DB#390E0020A35D6A190881831A3F2A8055624DC116B3281D5C050300F1FFFFFFFF87C422B3000000000000000000000000
(00.017439) can0 D9#3913010B58BA48559500FE03BAFFEF3913001550B94F05A0634DE90F1220F0FFFFFFFFFF87ACAFB20000000000000000
(00.021766) can0 DB#390F001561CA6A20FFFF7FCFFFFF3FFFFFFFFFFFFF87A0C0C700000000000000
(00.022161) can0 21C#2400000000000000
(00.028528) can0 2D#09FB5704C4090090709758624652552B28E030FFFFFF7F4002D235FFFFFFFF00FEFF8CF4DA2200000000000000000000
(00.029195) can0 DC#3910011055423F005410B112E99C112095C0FFF1391000160705510E9A01002380352C0000000000FFFF8893FC040000
(00.029714) can0 18E19490#04590156010E002A30ED0C670D220172010803010101010100000000000000000000000000000000000000000000000000000000000000001311001505150000
(00.033426) can0 E3#008000041E3234004100050800800343CF458C2F
(00.036800) can0 D9#39130015EF525005A0634DE90F1220F0FFFFFFFFFF89D94BED00000000000000
(00.037180) can0 DB#390E0020B56D6B190881831A3F2B8015624DC116B3281D5C050300F1FFFFFFFF8909C62D000000000000000000000000
(00.041768) can0 DB#390F001583DA6B20FFFF7FCFFFFF3FFFFFFFFFFFFF892AF64900000000000000
(00.048547) can0 2D#AC8C5804C4090090709758624652552B28E030FFFFFF7F4002D235FFFFFFFF00FEFF8E8BA14D00000000000000000000
(00.049065) can0 D4#3904060414937A84
(00.049226) can0 DC#3910001622C0520E9A21002380352C0000000000FFFF8A85CB80000000000000
(00.005683) can0 2D#7C642D04C4090090709758624652552B28E030FFFFFF7F4002D235FFFFFFFF00FEFF382D6F4300000000000000000000
(00.006203) can0 DC#391000168A2C270E9A01002380352C0000000000FFFF34F64623000000000000
(00.006584) can0 18E19490#01E701600D7201800CED00BC02060620030000401F01E302AC0DEA06012003440E01FB06870C0000010100002538D007AC0D401F0C2428571311001505150000
(00.014096) can0 DB#390E010FAC35FFFFFFFFFFFFFF8FD308BCFDFF390E0020556741190881831A3F2A8055624DC116B3281D5C060300F1FFFFFFFF353B471F000000000000000000
(00.015045) can0 D9#39130015EB352605A0630DEA0F1220F0FFFFFFFFFF3565226F00000000000000
(00.018931) can0 DB#390F001555404120FFFF7FCFFFFF3FFFFFFFFFFFFF356AC85200000000000000
(00.025679) can0 2D#5D7F2E04C4090090709758624652552B28E030FFFFFF7F4002D235FFFFFFFF00FEFF3A4E393D00000000000000000000
(00.026198) can0 DC#391000169055280E9A01002380352C0000000000FFFF36E6A0D5000000000000
(00.033967) can0 D9#3913010B58BA48559500FE03BAFFEF39130015D97F2705A0634DEA0F1220F0FFFFFFFFFF3769BA260000000000000000
(00.034483) can0 DB#390E00209DCB42190881831A3F2A8015624DC116B3281D5C060300F1FFFFFFFF37DE84CB000000000000000000000000
(00.036268) can0 18E19490#028400646464010005275302030000000000000006010901BF04C104BF040200FFFF00004B14D30578058813000004027C08800CA70FED0B1311001505150000
(00.038979) can0 DB#390F001573714220FFFF7FCFFFFF3FFFFFFFFFFFFF375FF1DF00000000000000
(00.045678) can0 2D#42762F04C4090090709758624652552B28E030FFFFFF7F4002D235FFFFFFFF00FEFF3C20F5FA00000000000000000000
(00.046336) can0 DC#3910011055423F3054107106E89C112095C0FFF539100016B4FD290E9A01002380352C0000000000FFFF3872E2870000
(00.002139) can0 D9#3913010B58BA48559500FE03BAFFEF39130015AC8AFA06A0630DE90F1220F0FFFFFFFFFFDD2AB6870000000000000000
(00.002653) can0 DB#390F01064D850460141D390E0020174C15190881831A3F2B8055624DC116B3281D5C050300F1FFFFFFFFDD108D430000
(00.004429) can0 18E19490#028400646464010006275602010000000000000006010901C004C004BF040100FDFF00005014CD0577058213000002027C08800CCC0FED0B1311001505150000
(00.007171) can0 DB#390F0015D8651520FFFF7FCFFFFF3FFFFFFFFFFFFFDD3823F100000000000000
(00.013903) can0 2D#18200204C4090090709758624652552B28E030FFFFFF7F4002D235FFFFFFFF00FEFFE2B0506600000000000000000000
(00.014486) can0 DC#3910011055423F3254102952E99C112095C0FFF539100016DAAEFC0E9A0100237C352C0000000000FFFFDE93F9CB0000
(00.018794) can0 E3#00800004947823004100050800800343CF44E2C4
(00.022086) can0 D9#39130015D328FB05A0634DE90F1220F0FFFFFFFFFFDF25F1E000000000000000
(00.022469) can0 DB#390E0020924516190881831A3F2A8055624DC116B3281D5C060300F1FFFFFFFFDFD53705000000000000000000000000
(00.027173) can0 DB#390F0015FE541620FFFF7FCFFFFF3FFFFFFFFFFFFFDFC5B3DD00000000000000
(00.033921) can0 2D#07290304C4090090709758624652552B28E030FFFFFF7F4002D235FFFFFFFF00FEFFE44CACE200000000000000000000
(00.034443) can0 D4#390406046F136984
(00.034603) can0 DC#3910001635DAFD0E9A01002380352C0000000000FFFFE0C32703000000000000
(00.034987) can0 18E19490#036806C8166BD2110E110E1E00F100F5000000020102010000EF01EF01000000000402E50F00AC0D0E0E0E0E1E0094DB056216D10C841C001311001505150000
(00.042145) can0 D9#39130015A8ECFC05A063CDE80F1220F0FFFFFFFFFFE135E7C800000000000000
(00.042526) can0 DB#390E0020066117190881831A3F2A8055624DC116B3281D5C060300F1FFFFFFFFE1AB34FE000000000000000000000000
(00.043822) can0 E3#410005080159A82AF84448A1
(00.047195) can0 DB#390F00151C441720FFFF7FCFFFFF3FFFFFFFFFFFFFE1854BCC00000000000000
