(00.003941) can0 18E19490#010200750D5501800C1001BC02060600000000401F020000AC0D6B2B012003000002AF012A1200000202AE0315380000AC0D401F0C4B29531311001505150000
(00.004642) can0 E3#39060B08484151255CC3DDFF00800004FFCC2904
(00.008098) can0 DB#390E0020E45FC931C882831A3F3E80557B4DC116B3281D5C060300F1FFFFFFFFDA967F62000000000000000000000000
(00.013477) can0 DB#390F00156B06CA20FFFF7FCFFFFF3FFFFFFFFFFFFFDB10AFA800000000000000
(00.013865) can0 DC#39100016B9866CAE120AFADED435280000000000FFFFDAE9AE46000000000000
(00.014688) can0 D9#39130015BEB66F12A07BCDA00F1278F0FFFFFFFFFFDAB81BBB00000000000000
(00.019283) can0 2D#3EFF8005C409009070975862705205000800A0FEFFFF7F4002D235FFFFFFFF00FEFFE022CEE400000000000000000000
(00.028047) can0 DB#390E00205832CA31C882831A3F3E80557B4DC116B3281D5C060300F1FFFFFFFFDC106662000000000000000000000000
(00.033457) can0 DB#390F00158916CB20FFFF7FCFFFFF3FFFFFFFFFFFFFDDFC92D200000000000000
(00.033844) can0 DC#391000169D2E6DAE120AFADED435280000000000FFFFDCBFD5D0000000000000
(00.034225) can0 18E19490#02880064646401000000DE124B8A0000000000002C012E01BD04010000000100000000004714C1057605821300000000950C800C660FED0B1311001505150000
(00.034929) can0 D9#3913001567147012A07BCD9E0F1278F0FFFFFFFFFFDC90953700000000000000
(00.039338) can0 2D#21F68105C409009070975862705205000800A0FEFFFF7F4002D235FFFFFFFF00FEFFE26EE24300000000000000000000
(00.039866) can0 D4#3904060484475585
(00.040025) can0 E3#4100050800800343D37BE1DB
(00.048059) can0 DB#390E010F1836FFFFFFFFFFFFFFFFD408BCFDFF390E0020CC16CB31C882831A3F3E80557B4DC116B3281D5C060300F1FFFFFFFFDEEE7032000000000000000000
(00.049267) can0 E3#3980000C007FB08F0C30B0FEE542DCFF
(00.006910) can0 DB#390E0020A6A8B630B882831A3F3580957A4DC116B3281D5C060300F1FFFFFFFFB616DCA1000000000000000000000000
(00.012321) can0 DB#390F00151688B720FFFF7FCFFFFF3FFFFFFFFFFFFFB786E8C200000000000000
(00.012706) can0 DC#39100016646659AE120AFADED035280000000000FFFFB531CDA3000000000000
(00.013471) can0 D9#3913001504C95C11A07A4D9F0F1278F0FFFFFFFFFFB61A0DD500000000000000
(00.018201) can0 2D#E2016D05C409009070975862705205000800A0FEFFFF7F4002D235FFFFFFFF00FEFFBA6C9B1100000000000000000000
(00.018726) can0 D4#39040604758D5185
(00.018886) can0 E3#4100050800800343D37BB9E1
(00.022650) can0 18F2CA48#252492499D9722
(00.026925) can0 DB#390E010F0836FFFFFFFFFFFFFFFFD408BCFDFF390E0020464DB730B882831A3F3580D57A4DC116B3281D5C060300F1FFFFFFFFB8948158000000000000000000
(00.028126) can0 E3#3980000C007FB08F0C30B0FEBD9EC9B73E800108C3020F00BD5FE0FF00000000
(00.032333) can0 DB#390F0015A87DB820FFFF7FCFFFFF3FFFFFFFFFFFFFB99281E900000000000020
(00.032721) can0 DC#391000161C235AAE120AFADED435280000000000FFFFB7538106000000000000
(00.033465) can0 D9#3913001525C95D11A07A0DA00F1278F0FFFFFFFFFFB8FADEDE00000000000000
(00.038186) can0 2D#C31A6E05C409009070975862705205000800A0FEFFFF7F4002D235FFFFFFFF00FEFFBCF4FD7600000000000000000000
(00.038712) can0 E3#4100050801F5BEAC9B393125390422080041C67E782FFEFF
(00.043346) can0 D4#39040C050E0FF6FFFF000000
(00.046947) can0 DB#390F01064F850460F81C390E0020E63DB830B882831A3F3780D57A4DC116B3281D5C060300F1FFFFFFFFB9995C6B0000
(00.004198) can0 DB#390E00207647A230B882831A3F3480D57A4DC116B3281D5C060300F1FFFFFFFF8D6FD89A000000000000000000000000
(00.009610) can0 DB#390F00159FD5A320FFFF7FCFFFFF3FFFFFFFFFFFFF8E80E09700000000000000
(00.009998) can0 DC#3910001639D445AE120AFADED035280000000000FFFF8C9271D8000000000000
(00.010728) can0 D9#3913001510264812A07A0D9F0F1278F0FFFFFFFFFF8D00021E00000000000000
(00.015464) can0 2D#AF875905C409009070975862705205000800A0FEFFFF7F4002D235FFFFFFFF00FEFF920E4E7900000000000000000000
(00.015991) can0 D4#39040604E0D94D85
(00.016152) can0 E3#4100050800800343D37B91D7
(00.024212) can0 DB#390E010F1836FFFFFFFFFFFFFFFFD408BCFDFF390E0020E263A330B882831A3F3480D57A4DC116B3281D5C060300F1FFFFFFFF8FE613B3000000000000000000
(00.025389) can0 E3#3980000C007FB08F0D30B0FE95E46D5F
(00.029625) can0 DB#390F001531A7A420FFFF7FCFFFFF3FFFFFFFFFFFFF9032CD3300000000000000
(00.030011) can0 DC#39100016743C46AE120AFADED035280000000000FFFF8E72E88F000000000000
(00.030391) can0 18E19490#010200740D5401800C0C01BC02060600000000401F020000AC0D682B012003000002AC012A1200000202AD0305380000AC0D401F0C440F531311001505150000
(00.031096) can0 D9#391300150C214911A07A8DA00F1278F0FFFFFFFFFF8E9291A100000000000000
(00.035477) can0 2D#8E9C5A05C409009070975862705205000800A0FEFFFF7F4002D235FFFFFFFF00FEFF9484BDBE00000000000000000000
(00.036003) can0 E3#41000508018B49FA56AD095B390422080041867E780FFAFF
(00.040629) can0 D4#39040C050E0FF6FFFF000000
(00.044286) can0 DB#390F01064F850460141D390E0020F849A430B882831A3F3580D57A4DC116B3281D5C060300F1FFFFFFFF911E12FD0000
(00.049608) can0 DB#390F0015D3B7A520FFFF7FCFFFFF3FFFFFFFFFFFFF92B1332200000000000000
(00.001059) can0 DB#390F0015E73D8E20FFFF7FCFFFFF3FFFFFFFFFFFFF645B30FF00000000000000
(00.001445) can0 DC#39100016CCB830AE120AFADED435280000000000FFFF63981A84000000000000
(00.002178) can0 D9#39130015F6A23312A07B4DA10F1278F0FFFFFFFFFF63F0A1E100000000000000
(00.006888) can0 2D#C4734405C409009070975862705205000800A0FEFFFF7F4002D235FFFFFFFF00FEFF6834828300000000000000000000
(00.015633) can0 DB#390E0020CB828E31B882831A3F3B80557B4DC116B3281D5C060300F1FFFFFFFF65162C5A000000000000000000000000
(00.021041) can0 DB#390F0015052D8F20FFFF7FCFFFFF3FFFFFFFFFFFFF66152B0300000000000000
(00.021427) can0 DC#39100016DDBD31AE120AFADED035280000000000FFFF6503FB42000000000000
(00.021810) can0 18E19490#02880064646401000000FA123DD20000000000002C012E01BD04010001000000010000004714C1057A057F1300000000950C800C1C0FED0B1311001505150000
(00.022516) can0 D9#391300155A0E3412A07A8D9E0F1278F0FFFFFFFFFF652DAF7000000000000000
(00.026928) can0 2D#DB7A4505C409009070975862705205000800A0FEFFFF7F4002D235FFFFFFFF00FEFF6A1C5F4A00000000000000000000
(00.027455) can0 D4#3904060411134985
(00.027615) can0 E3#4100050800800343D37B6984
(00.035697) can0 DB#390E010F1836FFFFFFFFFFFFFFFFD408BCFDFF390E002041F88F31C882831A3F3980157B4DC116B3281D5C060300F1FFFFFFFF67F165A8000000000000000000
(00.036826) can0 224BA92#6CAC
(00.041061) can0 DB#390F0015BAC69020FFFF7FCFFFFF3FFFFFFFFFFFFF6852404700000000000000
(00.041448) can0 DC#39100016A5F832AE120AFADED435280000000000FFFF672B5D7F000000000000
(00.042132) can0 D9#3913001552713511A07B0DA00F1278F0FFFFFFFFFF67B9173D00000000000000
(00.046911) can0 2D#604C4605C4090090709758A2705205000800A0FEFFFF7F4002D235FFFFFFFF00FEFF6CBEDB1D00000000000000000000
(00.047438) can0 E3#4100050801064F3DF07C6CEA390422080041867E780FFAFF
(00.002058) can0 DB#390F00151A007720FFFF7FCFFFFF3FFFFFFFFFFFFF3694D94800000000000000
(00.002444) can0 DC#391000164CEA19AE120AFADED035280000000000FFFF35514E7A000000000000
(00.002824) can0 18E19490#010200750D5401800C1001BC02060600000000401F020000AC0D682B012003000002AE012B1200000202AE03E4370000AC0D401F0C3B19531311001505150000
(00.003528) can0 D9#3913001564261C11A07B8D9E0F1278F0FFFFFFFFFF35DD83A000000000000000
(00.007915) can0 2D#60662D05C409009070975862705205000801507F7FFFBFA001691AFFFFFFFF807F7F9D6733E280000000000000000000
(00.008441) can0 E3#4100050801435FC487FD6E98390422080041877E780FFAFF
(00.013057) can0 D4#39040C050E0FF6FFFF3915011446F991D9F85FF5FFFFFFFFFE0780A02801FEFFFF000000000000000000000000000000
(00.016673) can0 DB#390E0020BB967731B882831A3F3E80157B4DC116B3281D5C060300F1FFFFFFFF3784D44B000000000000000000000000
(00.022050) can0 DB#390F0015A4F57820FFFF7FCFFFFF3FFFFFFFFFFFFF38329E3500000000000000
(00.022436) can0 DC#3910001634AF1AAE120AFADED435280000000000FFFF376E8EA1000000000000
(00.024034) can0 D9#3913001590901D11A07B4DA00F1278F0FFFFFFFFFF37DC8B9D00000000000000
(00.027963) can0 2D#417D2E05C409009070975862705205000800A0FEFFFF7F4002D235FFFFFFFF00FEFF3CAC23A400000000000000000000
(00.032242) can0 18E19490#02880064646401000000831234320000000000002C012E01BD04010001000100010000004514C1057B05881300000000950C800C300FED0B1311001505150000
(00.036641) can0 DB#390E0020C8037831C882831A3F3C80557B4DC116B3281D5C060300F1FFFFFFFF3960A197000000000000000000000000
(00.041879) can0 21C#110201007574795C7C7C7F38832087D08BB88FA09388000000000000000000000000000000000000000000000000000000000000000000000000000000000000
(00.042568) can0 DC#39100110154643005000C6120D9C002205F0FFF53910001610071BAE120AFADED435280000000000FFFF3987D0920000
(00.043085) can0 30C#A327F186DBB6DB6D
(00.043469) can0 D9#3913010B5ABA48559500FE03BAFFEF391300155BFC1E12A07BCDA00F1278F0FFFFFFFFFF3913955A0000000000000000
(00.043983) can0 21D#304028
(00.044136) can0 21C#21000000000000000000000000000000000000000000000000000000000000000000000000000000000000000000000000000000000000000000000000000000
(00.047859) can0 2D#5E742F05C409009070975862705205000800A0FEFFFF7F4002D235FFFFFFFF00FEFF3E66C39C00000000000000000000
(00.048385) can0 D4#390C140CFFFFFFF7FDFFFFFFFFFFFFFF
(00.003047) can0 DC#391001101546430050009E060C9C002205F0FFF5391000168E3002AE120AFADED035280000000000FFFF070243840000
(00.003568) can0 DB#390F0015B56C6020FFFF7FCFFFFF3FFFFFFFFFFFFF07C0B98D00000000000000
(00.004159) can0 E3#3A020004F4FFFFFF
(00.004322) can0 D9#3913010B5ABA48559500FE03BAFFEF3913001508C30512A07A0DA10F1278F0FFFFFFFFFF083102140000000000000000
(00.008869) can0 2D#88971605C409009070975862705205000800A0FEFFFF7F4002D235FFFFFFFF00FEFF0C0E4E8200000000000000000000
(00.009396) can0 D4#390C140CFFFFFFF7FDFFFFFFFFFFFFFF
(00.013319) can0 18E19490#010200740D5401800C1001BC02060600000000401F020000AC0D682B012003000002AD01271200000202AE030D380000AC0D401F0C361F531311001505150000
(00.014131) can0 E3#4100010801000002C4A2617139060B084941512551C3CEFF80400002486C8A02
(00.017701) can0 DB#390E0020C96A6030B882831A3F3880D57A4DC116B3281D5C060300F1FFFFFFFF08B9A160000000000000000000000000
(00.018812) can0 E3#0500000CF5FCFF00000000000F7D745D
(00.023065) can0 DB#390F0015577C6120FFFF7FCFFFFF3FFFFFFFFFFFFF09AFCA9800000000000000
(00.023451) can0 DC#39100016AA9803AE120AFADED035280000000000FFFF0982BED2000000000000
(00.024187) can0 D9#3913001566F60611A07ACDA00F1278F0FFFFFFFFFF0ADD0DED00000000000000
(00.028862) can0 2D#979E1705C409009070975862705205000800A0FEFFFF7F4002D235FFFFFFFF00FEFF0E14DA2E00000000000000000000
(00.034139) can0 E3#41000108022F00000200020C
(00.037652) can0 DB#390E0020AB9B6130B882831A3F3980D57A4DC116B3281D5C060300F1FFFFFFFF0A3F956F000000000000000000000000
(00.043048) can0 DB#390F0015714D6220FFFF7FCFFFFF3FFFFFFFFFFFFF0BA76EBB00000000000000
(00.043432) can0 DC#3910001635F004AE120AFADED035280000000000FFFF0BFBC684000000000000
(00.043816) can0 18E19490#028800646464010000004512C1D60000000000002C012E01BD04000000000100010000005014C0057C058813000000009508800C5D0FED0B1311001505150000
(00.044525) can0 D9#39130015B9E10712A07A0DA00F1278F0FFFFFFFFFF0C95454400000000000000
(00.048913) can0 2D#32E91805C409009070975862705205000800A0FEFFFF7F4002D235FFFFFFFF00FEFF102B5C5D00000000000000000000
(00.049438) can0 D4#3904060466E04085
(00.049600) can0 E3#4100050800800343D37B0E234100010803646578E0CC1C64
(00.001285) can0 DC#39100016C9D1F2AE120AFADED035280000000000FFFFE6CB01F4000000000000
(00.001668) can0 DB#390F0015B64E5020FFFF7FCFFFFF3FFFFFFFFFFFFFE90211CA00000000000000
(00.002055) can0 18E19490#000000A55555555505000000000000000000001A5A8D00000000010000000000000000005252522E012C01910161014D014C015352520F011311001505150000
(00.002761) can0 E3#4100000802343937E9F077C0
(00.003369) can0 D9#39130015A7DCF512A07A8DA10F1278F0FFFFFFFFFFE810CADB00000000000000
(00.007271) can0 2D#78060605C409009070975862705205000800A0FEFFFF7F4002D235FFFFFFFF00FEFFEC0F6E2900000000000000000000
(00.015973) can0 DB#390E0020806D5030B882831A3F3580957A4DC116B3281D5C060300F1FFFFFFFFEA8FFEDA000000000000000000000000
(00.021299) can0 DC#3910011015464382500086460D9C002205F0FFF139100016ED79F3AE120AFADED035280000000000FFFFE9DA62770000
(00.021817) can0 DB#390F0015545E5120FFFF7FCFFFFF3FFFFFFFFFFFFFEBC1F79700000000000000
(00.022398) can0 E3#4100000803FEA42D58FD0000
(00.022596) can0 D9#3913010B5ABA48559500FE03BAFFEF391300152158F612A07A0DA10F1278F0FFFFFFFFFFEA5A8BA00000000000000000
(00.027129) can0 2D#670F0705C409009070975862705205000800A0FEFFFF7F4002D235FFFFFFFF00FEFFEE7F74C400000000000000000000
(00.004706) can0 DB#390E002059BC4131C882831A3F3D80157B4DC116B3281D5C060300F1FFFFFFFFCBEB30B5000000000000000000000000
(00.010049) can0 DC#391001101546433050006E060C9C002205F0FFF1391000164D9FE4AE120AFADED435280000000000FFFFCB9FC2220000
(00.010567) can0 DB#390F001573714220FFFF7FCFFFFF3FFFFFFFFFFFFFCC8057FF00000000000000
(00.011222) can0 D9#3913010B5ABA48559500FE03BAFFEF39130015FF51E711A07ACDA10F1278F0FFFFFFFFFFCB5C352F0000000000000000
(00.015910) can0 2D#7572F805C409009070975862705205000800A0FEFFFF7F4002D235FFFFFFFF00FEFFD0FD7A5400000000000000000000
(00.016438) can0 D4#390C140CFFFFFFF7FDFFFFFFFFFFFFFF
(00.020321) can0 18E19490#010200750D5401800C1001BC02060600000000401F020000AC0D6B2B012003000002AD012A1200000202AE030D380000AC0D401F0C3015531311001505150000
(00.021177) can0 E3#39060B084A41512552C3DDFF008000049CAA0E04
(00.024808) can0 DB#390E002013044231C882831A3F3C80157B4DC116B3281D5C060300F1FFFFFFFFCD6FE5B5000000000000000000000000
(00.025865) can0 E3#0500000CF5FCFF0000000000D3872024
(00.030124) can0 DC#391000166937E5AE120AFADED435280000000000FFFFCDCDF5CC000000000000
(00.030506) can0 DB#390F001591614320FFFF7FCFFFFF3FFFFFFFFFFFFFCEE76A1C00000000000000
(00.031273) can0 D9#39130015E111E811A07A4DA10F1278F0FFFFFFFFFFCDE1350600000000000000
(00.035913) can0 2D#6A7BF905C409009070975862705205000800A0FEFFFF7F4002D235FFFFFFFF00FEFFD29EF61500000000000000000000
(00.044707) can0 DB#390E002007294331C882831A3F3B80157B4DC116B3281D5C060300F1FFFFFFFFCF404414000000000000000000000000
(00.004363) can0 DB#390E002085FA3231C882831A3F4080557B4DC116B3281D5C060300F1FFFFFFFFAC3089AC000000000000000000000000
(00.009672) can0 DC#3910011015464330500056120D9C002205F0FFF1391000167752D5AE120AFADED435280000000000FFFFAC97D1D10000
(00.010188) can0 DB#390F0015963B3320FFFF7FCFFFFF3FFFFFFFFFFFFFAD2DEF9200000000000000
(00.010856) can0 D9#3913010B5ABA48559500FE03BAFFEF391300158348D811A07B4DA10F1278F0FFFFFFFFFFAC669B960000000000000000
(00.015576) can0 2D#9AEAE905C409009070975862705205000800A0FEFFFF7F4002D235FFFFFFFF00FEFFB2BAA14500000000000000000000
(00.016100) can0 D4#390C140CFFFFFFF6FDFFFFFFFFFFFFFF
(00.019942) can0 18E19490#010200750D5401800C1001BC02060600000000401F020000AC0D6B2B012003000002AE012A1200000202AE031D380000AC0D401F0C2D29531311001505150000
(00.020827) can0 E3#39060B08494151A557C3DDFF00800004D9160B04
(00.024490) can0 DB#390E002011DE3331C882831A3F4080557B4DC116B3281D5C060300F1FFFFFFFFAE65E788000000000000000000000000
(00.029748) can0 DC#391000163ABAD6AE120AFADED435280000000000FFFFAE3C3010000000000000
(00.030129) can0 DB#390F001538493420FFFF7FCFFFFF3FFFFFFFFFFFFFAF1620EA00000000000000
(00.031031) can0 D9#3913001559B3D912A07B4DA00F1278F0FFFFFFFFFFAE0737DB00000000000000
(00.035571) can0 2D#BBF1EA05C409009070975862705205000800A0FEFFFF7F4002D235FFFFFFFF00FEFFB4F6D0A200000000000000000000
(00.044415) can0 DB#390E0020FD213431C882831A3F4080557B4DC116B3281D5C060300F1FFFFFFFFB0F4E959000000000000000000000000
(00.049670) can0 DC#391000161E12D7AE120AFADED435280000000000FFFFB025FC63000000000000
(00.000387) can0 DC#3910011015464330500026520D9C002205F0FFF13910001622D8B7AE120AFADED435280000000000FFFF715A0B7A0000
(00.000903) can0 21C#1102010F0001001D004F00F8029A049505C005C000000001001D004F00F8029A049505C005C000000001001D004F00F8029A049505C005C000000001001D004F
(00.001575) can0 D9#3913010B5ABA48559500FE03BAFFEF391300152056BA11A07A4DA10F1278F0FFFFFFFFFF71CD273E0000000000000000
(00.002088) can0 DB#390F0015D8651520FFFF7FCFFFFF3FFFFFFFFFFFFF7167AE4600000000000000
(00.002472) can0 21D#304028
(00.002625) can0 21C#2100F8029A049505C005C000000001001D004F00F8029A049505C005C000000001001D004F00F8029A049505C005C000000001001D004F00F8029A049505C005
(00.006335) can0 2D#65CBCB05C409009070975862705205000800A0FEFFFF7F4002D235FFFFFFFF00FEFF7605AB7400000000000000000000
(00.006861) can0 D4#390C140CFFFFFFF7FDFFFFFFFFFFFFFF
(00.010658) can0 18E19490#010200750D5401800C1001BC02060600000000401F020000AC0D6B2B012003000002AE012A1200000202AE030D380000AC0D401F0C271F531311001505150000
(00.011588) can0 E3#39060B084941512552C3DDFF0080000483B40504
(00.015270) can0 DB#390E002022F31531C882831A3F3D80157B4DC116B3281D5C060300F1FFFFFFFF726F80FF000000000000000000000000
(00.020461) can0 DC#3910001638A1B8AE120AFADED435280000000000FFFF73C545BC000000000000
(00.020840) can0 DB#390F0015FE541620FFFF7FCFFFFF3FFFFFFFFFFFFF7317700900000000000000
(00.021578) can0 D9#391300157367BB11A07B0DA10F1278F0FFFFFFFFFF73E5D9E100000000000000
(00.025653) can0 21C#22C000000001001D003B00B20236040A04A904A90000000000130031006C018D02A4034303430000000000090027004F01290218028602860000000000000000
(00.026336) can0 2D#38F4CC05C409009070975862705205000800A0FEFFFF7F4002D235FFFFFFFF00FEFF78A034C700000000000000000000
(00.035151) can0 DB#39FE0B086100000001000000390E0020684B1631C882831A3F3C80157B4DC116B3281D5C060300F1FFFFFFFF74759E21
(00.040383) can0 DC#391000161C09B9AE120AFADED435280000000000FFFF7552906D000000000000
(00.040764) can0 DB#390F00151C441720FFFF7FCFFFFF3FFFFFFFFFFFFF7532A35E00000000000000
(00.041150) can0 18E19490#02880064646401000000C01297F60000000000002C012D01BE04010000000000000000004714C1057B05851300000000950C800C300FED0B1311001505150000
(00.041856) can0 D9#3913001535A4BC12A07B4DA00F1278F0FFFFFFFFFF758F312200000000000000
(00.046360) can0 2D#27FDCD05C409009070975862705205000800A0FEFFFF7F4002D235FFFFFFFF00FEFF7A80384B00000000000000000000
(00.046886) can0 D4#39040604A7D43185
(00.047047) can0 E3#4100050800800343D37A7804
(00.000915) can0 DB#390E002011370231B882831A3F3C80D57A4DC116B3281D5C060300F1FFFFFFFF4C315452000000000000000000000000
(00.006135) can0 DC#3910001641BBA5AE120AFADED435280000000000FFFF4C09FEBA000000000000
(00.006517) can0 DB#390F001595190320FFFF7FCFFFFF3FFFFFFFFFFFFF4D32EF6D00000000000000
(00.007319) can0 D9#391300157FE9A812A07B0D9F0F1278F0FFFFFFFFFF4C75153900000000000000
(00.012137) can0 2D#E81CB905C409009070975862705205000800A0FEFFFF7F4002D235FFFFFFFF00FEFF5298041C00000000000000000000
(00.012665) can0 D4#3904060432802D85
(00.012826) can0 E3#4100050800800343D37A51B9
(00.016264) can0 18E19490#040300030003007E36EB0C7B0D220155010806010101010200000000000000000000000000000000000000000000000000000000000000001311001505150000
(00.020980) can0 DB#390E010F1836FFFFFFFFFFFFFFFFD408BCFDFF390E002009B00331B882831A3F3C80157B4DC116B3281D5C060300F1FFFFFFFF4E98B660000000000000000000
(00.022060) can0 E3#3980000C007FB28F0C30B0FE556C7EAD
(00.026245) can0 DC#3910001639FEA6AE120AFADED035280000000000FFFF4E9D42C4000000000000
(00.026627) can0 DB#390F00153B6B0420FFFF7FCFFFFF3FFFFFFFFFFFFF4FEE90DA00000000000000
(00.027327) can0 D9#391300158EB3A912A07B0DA00F1278F0FFFFFFFFFF4E9E92A400000000000000
(00.032134) can0 2D#C907BA05C409009070975862705205000800A0FEFFFF7F4002D235FFFFFFFF00FEFF54842FA500000000000000000000
(00.032662) can0 D4#39FE1D085940B2084A02000039040C050E0FF6FFFF000000
(00.032969) can0 E3#41000508019A22096E61564D390422080041867E780FFAFF
(00.040944) can0 DB#390F01064F8504609819390E0020139A0431B882831A3F3D80157B4DC116B3281D5C060300F1FFFFFFFF5192E2D90000
(00.042370) can0 4F#209A07A00049AFBC
(00.046117) can0 DC#3910001628FBA7AE120AFADED435280000000000FFFF5097F8A8000000000000
(00.046500) can0 44#04
(00.046616) can0 DB#390F0015D97B0520FFFF7FCFFFFF3FFFFFFFFFFFFF5202025200000000000000
(00.047003) can0 18E19490#000000A55555555505000000000000000000001A5A8D00000000010000000000000000005252522D012C01910161014D014C0153525241011311001505150000
(00.000755) can0 E3#3980000C007F828F0C30B0FE2D693FC63E800108C3020E00BD5EE0FF00000000
(00.004842) can0 DC#39100016F51B92AE120AFADED035280000000000FFFF2724DB0D000000000000
(00.005222) can0 DB#390F0015BC82F020FFFF7FCFFFFF3FFFFFFFFFFFFF29CA45F700000000000000
(00.005610) can0 18E19490#010200740D5401800C1001BC02060600000000401F020000AC0D6B2B012003000002AD01281200000202AD030D380000AC0D401F0C2006531311001505150000
(00.006315) can0 D9#3913001515559512A07B0DA00F1278F0FFFFFFFFFF28EE71D200000000000000
(00.010826) can0 2D#BDFAA605C409009070975862705205000800A0FEFFFF7F4002D235FFFFFFFF00FEFF2CDA521C00000000000000000000
(00.011353) can0 E3#410005080138C069245EA3C5390422080041C67E782FFEFF
(00.015979) can0 D4#39040C050E0FF6FFFF000000
(00.019650) can0 DB#390F01064F8504609819390E0020B85BF031C882831A3F3D80157B4DC116B3281D5C060300F1FFFFFFFF29AC1DA40000
(00.024840) can0 DC#39100016D1B393AE120AFADED035280000000000FFFF29FCF3A3000000000000
(00.025221) can0 44#04
(00.025338) can0 DB#390F00155E92F120FFFF7FCFFFFF3FFFFFFFFFFFFF2AF55ED700000000000000
(00.027254) can0 D9#39130015DBD59611A07B4DA10F1278F0FFFFFFFFFF294F80EF00000000000000
(00.030882) can0 2D#A2F3A705C409009070975862705205000800A0FEFFFF7F4002D235FFFFFFFF00FEFF2E8CF52D00000000000000000000
(00.034871) can0 18E19490#02880064646401000000DB124B000000000000002C012E01BD04000000000100FFFF00004814C0057B057F1300000000950C800C450FED0B1311001505150000
(00.039616) can0 DB#390E00207D8EF131B882831A3F3C80157B4DC116B3281D5C060300F1FFFFFFFF2B4EA77F000000000000000000000000
(00.044912) can0 DC#39100110154643005000EE460C9C002205F0FFF5391000164EDB94AE120AFADED035280000000000FFFF2BB8AF4E0000
(00.045428) can0 DB#390F001578A3F220FFFF7FCFFFFF3FFFFFFFFFFFFF2C54FDEA00000000000000
(00.046272) can0 D9#3913010B5ABA48559500FE03BAFFEF39130015D4989712A07BCDA10F1278F0FFFFFFFFFF2B3B77B90000000000000000
(00.000654) can0 18E19490#0300007B017B010200030000000100010000000000000000000000000000000000950C102700E40C00000200000054D9055316D10CC409001311001505150000
(00.001843) can0 D4#39040C050E0FF6FFFF000000
(00.005472) can0 DB#390F01064F8504609819390E0020EF1BDC30B882831A3F3980957A4DC116B3281D5C060300F1FFFFFFFF01BD7A060000
(00.010713) can0 DC#39100016CBE07FAE120AFADED035280000000000FFFF00EE7701000000000000
(00.011098) can0 44#04
(00.011214) can0 DB#390F0015C46ADD20FFFF7FCFFFFF3FFFFFFFFFFFFF02AE46BE00000000000000
(00.011746) can0 D9#39130015E11E8212A07A4DA20F1278F0FFFFFFFFFF01AEBC6B00000000000000
(00.016699) can0 2D#EF759305C409009070975862705205000800A0FEFFFF7F4002D235FFFFFFFF00FEFF06C1213200000000000000000000
(00.025438) can0 DB#390E0020F92BDD30B882831A3F3880D57A4DC116B3281D5C060300F1FFFFFFFF038E0835000000000000000000000000
(00.030593) can0 DC#39100110154643005000CE020D9C002205F0FFF539100016967880AE120AFADED035280000000000FFFF03712B4E0000
(00.031112) can0 DB#390F0015E25BDE20FFFF7FCFFFFF3FFFFFFFFFFFFF048D2B7800000000000000
(00.031497) can0 18E19490#040300030003007E36EB0C7A0D220155010806010101010200000000000000000000000000000000000000000000000000000000000000001311001505150000
(00.032221) can0 D9#3913010B5ABA48559500FE03BAFFEF391300153E098311A07A8DA20F1278F0FFFFFFFFFF03D853010000000000000000
(00.036603) can0 2D#B24A9405C409009070975862705205000800A0FEFFFF7F4002D235FFFFFFFF00FEFF0828702200000000000000000000
(00.037130) can0 D4#390C140CFFFFFFF7FDFFFFFFFFFFFFFF
(00.041853) can0 E3#39060B08494151255883DDFF0080000420FFFA04
(00.045486) can0 DB#390E00204546DE30B882831A3F3880D57A4DC116B3281D5C060300F1FFFFFFFF05BF0F02000000000000000000000000
(00.046558) can0 E3#0500000CF5FCFF00000000000BF2221D
(00.002850) can0 2D#3EFF8005C409009070975862705205000800A0FEFFFF7F4002D235FFFFFFFF00FEFFE079935F00000000000000000000
(00.003381) can0 D4#390C140CFFFFFFF8FDFFFFFFFFFFFFFF
(00.006969) can0 18E19490#010200740D5401800C1001BC02060600000000401F020000AC0D682B012003000002AE012A1200000202AE0315380000AC0D401F0C1820531311001505150000
(00.008229) can0 E3#4100010801000002C4A2617139060B084A4151A54F83DDFF0080000412B0F6040500000CF5FCFF0000000000E320C502
(00.011733) can0 DB#390E0020D808CA30B882831A3F3280957A4DC116B3281D5C060300F1FFFFFFFFDCB4D269000000000000000000000000
(00.016883) can0 DC#39100016A8836DAE120AFADED035280000000000FFFFDD5797FF000000000000
(00.017334) can0 DB#390F00158916CB20FFFF7FCFFFFF3FFFFFFFFFFFFFDD61B22C00000000000000
(00.017893) can0 D9#39130015161D7012A0794DA10F1278F0FFFFFFFFFFDD8A4AB400000000000000
(00.022846) can0 2D#21F68105C409009070975862705205000800A0FEFFFF7F4002D235FFFFFFFF00FEFFE215ED5E00000000000000000000
(00.028119) can0 E3#41000108022F0000020002E0
(00.031736) can0 DB#390E00203CC4CB30B882831A3F3080557A4DC116B3281D5C060300F1FFFFFFFFDE37A952000000000000000000000000
(00.036792) can0 DC#39100016E56B6EAE120AFADED035280000000000FFFFDFCF6821000000000000
(00.037174) can0 18E19490#028800646464010000008412FAFA0000000000002B012E01BD04010001000000FFFF00004814BD057C05871300000000950C800C340FED0B1311001505150000
(00.037881) can0 DB#390F00152764CC20FFFF7FCFFFFF3FFFFFFFFFFFFFDF9C257500000000000000
(00.038267) can0 D9#39130015E2AB7112A0798D9F0F1278F0FFFFFFFFFFDFE1D39A00000000000000
(00.042871) can0 2D#00ED8205C409009070975862705205000800A0FEFFFF7F4002D235FFFFFFFF00FEFFE451876C00000000000000000000
(00.043400) can0 D4#39040604DC542285
(00.043559) can0 E3#4100050800800343D379E22241000108037D48CDEE48F1D6
(00.000340) can0 18E19490#030000850185010200030000000100010000000000000000000000000000000000950C102700E40C00000200000054D9054816D40CC409001311001505150000
(00.001059) can0 D9#391300155A6B5C12A07A4DA00F1278F0FFFFFFFFFFB40CD15900000000000000
(00.005633) can0 2D#E2016D05C409009070975862705205000800A0FEFFFF7F4002D235FFFFFFFF00FEFFBA0A5F7C00000000000000000000
(00.014482) can0 DB#390E00207D30B730B882831A3F3880D57A4DC116B3281D5C060300F1FFFFFFFFB6AC810E000000000000000000000000
(00.019551) can0 DC#39100016298E5AAE120AFADED035280000000000FFFFB614A91E000000000000
(00.020053) can0 DB#390F0015A87DB820FFFF7FCFFFFF3FFFFFFFFFFFFFB75B990300000000000000
(00.020977) can0 D9#391300150B845D12A07ACD9F0F1278F0FFFFFFFFFFB617AC8E00000000000000
(00.021355) can0 E3#410000080057314B414635454100050800800343D379BB96
(00.025670) can0 2D#C31A6E05C409009070975862705205000800A0FEFFFF7F4002D235FFFFFFFF00FEFFBCC5196D00000000000000000000
(00.026194) can0 D4#3904060407371E85
(00.029619) can0 18E19490#040300030003007E36ED0C7A0D220155010806010101010200000000000000000000000000000000000000000000000000000000000000001311001505150000
(00.034492) can0 DB#390E010F1836FFFFFFFFFFFFFFFFD408BCFDFF390E0020E62EB830B882831A3F3980D57A4DC116B3281D5C060300F1FFFFFFFFB83E7CC7000000000000000000
(00.035638) can0 E3#410000080142315052313138
(00.039649) can0 DC#391000160D265BAE120AFADED035280000000000FFFFB81FF8BB000000000000
(00.040033) can0 DB#390F00154A6DB920FFFF7FCFFFFF3FFFFFFFFFFFFFB9C5ACF700000000000000
(00.040799) can0 D9#39130015EEA55E12A07A8DA00F1278F0FFFFFFFFFFB806001100000000000000
(00.045677) can0 2D#DC136F05C409009070975862705205000800A0FEFFFF7F4002D235FFFFFFFF00FEFFBE5F84B700000000000000000000
(00.046204) can0 E3#41000508016EA123275868FC390422080041877E780FFAFF
(00.004088) can0 2D#AF875905C409009070975862705205000800A0FEFFFF7F4002D235FFFFFFFF00FEFF92D51E9100000000000000000000
(00.004614) can0 4F#28B7030004191BD0
(00.008032) can0 18E19490#000000A55555555505000000000000000000001A5A8D00000000010000000000000000005252522D012C01910161014D014C015352522A011311001505150000
(00.012947) can0 DB#390E0020046CA331B882831A3F3D80D57A4DC116B3281D5C060300F1FFFFFFFF8F3725EA000000000000000000000000
(00.018040) can0 DC#39100016743C46AE120AFADED035280000000000FFFF8F5D5FE3000000000000
(00.018501) can0 DB#390F001531A7A420FFFF7FCFFFFF3FFFFFFFFFFFFF9072046400000000000000
(00.019230) can0 D9#3913001512BC4913A07B4D9E0F1278F0FFFFFFFFFF8FCCEACA00000000000000
(00.024117) can0 2D#8E9C5A05C409009070975862705205000800A0FEFFFF7F4002D235FFFFFFFF00FEFF9454460D00000000000000000000
(00.024643) can0 D4#39040604F6FD1A85
(00.024803) can0 E3#4100050800800343D37993AB
(00.032961) can0 DB#390E010F1836FFFFFFFFFFFFFFFFD408BCFDFF390E0020D3FDA431B882831A3F3E80D57A4DC116B3281D5C060300F1FFFFFFFF915CEE19000000000000000000
(00.037997) can0 DC#39100016653947AE120AFADED435280000000000FFFF917977D9000000000000
(00.038377) can0 DB#390F0015D3B7A520FFFF7FCFFFFF3FFFFFFFFFFFFF92F9886C00000000000000
(00.038764) can0 18E19490#010200750D5401800C1001BC02060600000000401F020000AC0D682B012003000002AC01281200000202AE030D380000AC0D401F0C1106531311001505150000
(00.039469) can0 D9#3913001506834A12A07B8DA00F1278F0FFFFFFFFFF91D72D5300000000000000
(00.044140) can0 2D#91955B05C409009070975862705205000800A0FEFFFF7F4002D235FFFFFFFF00FEFF96CFE03200000000000000000000
(00.044667) can0 E3#410005080194C533D22B126D390422080041877E780FFAFF
(00.049284) can0 D4#39040C050E0FF6FFFF3915011446F991D9F85FF5FFFFFFFFFE0780A02801FEFFFF000000000000000000000000000000
(00.049816) can0 DC085B#400308040000
(00.001914) can0 DB#390E0020EC8F8E30B882831A3F3980957A4DC116B3281D5C060300F1FFFFFFFF650CECA6000000000000000000000000
(00.003010) can0 E3#0500000CF5FCFF00000000006B311649
(00.006935) can0 DC#39100016DDBD31AE120AFADED035280000000000FFFF64C6C8BB000000000000
(00.007535) can0 DB#390F0015052D8F20FFFF7FCFFFFF3FFFFFFFFFFFFF66EA86F600000000000000
(00.007926) can0 D9#391300154CA83412A07A4DA00F1278F0FFFFFFFFFF655932D500000000000000
(00.012995) can0 2D#DB7A4505C409009070975862705205000800A0FEFFFF7F4002D235FFFFFFFF00FEFF6A65CCDE00000000000000000000
(00.021864) can0 DB#390E0020B5108F30B882831A3F3B80957A4DC116B3281D5C060300F1FFFFFFFF67931FE9000000000000000000000000
(00.026845) can0 DC#39100016905532AE120AFADED035280000000000FFFF660F860F000000000000
(00.027230) can0 18E19490#02880064646401000000AC124AF60000000000002C012E01BE04010000000000010000004814C1057805821300000000950C800C240FED0B1311001505150000
(00.027937) can0 DB#390F0015BAC69020FFFF7FCFFFFF3FFFFFFFFFFFFF688BEAFB00000000000000
(00.028324) can0 D9#39130015B81E3512A07A8D9E0F1278F0FFFFFFFFFF67B056E100000000000000
(00.033031) can0 2D#FA614605C409009070975862705205000800A0FEFFFF7F4002D235FFFFFFFF00FEFF6CD797F300000000000000000000
(00.033557) can0 D4#39040604C4B21685
(00.033716) can0 E3#4100050800800343D3796B973204000C946E3753670700F06A7F2A7A00000000
(00.041878) can0 DB#390E010F1836FFFFFFFFFFFFFFFFD408BCFDFF390E00205ABB9030B882831A3F3C80957A4DC116B3281D5C060300F1FFFFFFFF6936D22F000000000000000000
(00.046878) can0 DC#39100016815033AE120AFADED435280000000000FFFF6813B6D3000000000000
(00.047274) can0 DB#390F001558D69120FFFF7FCFFFFF3FFFFFFFFFFFFF6ADCFF6B00000000000000
(00.047947) can0 D9#391300155A0D3612A07BCD9F0F1278F0FFFFFFFFFF68E61A8000000000000000
(00.002009) can0 18E19490#02880064646401000000DE1297F60000000000002C012E01BD04010000000100000000004714C2057B05821300000000950C800CFF0EED0B1311001505150000
(00.007024) can0 DB#390E00202CFC7930B882831A3F3580557A4DC116B3281D5C060300F1FFFFFFFF3B88DB77000000000000000000000000
(00.012030) can0 DC#391001101546433250002E120D9C002205F0FFF139100016BAC21CAE120AFADED035280000000000FFFF3B6A50B20000
(00.012545) can0 DB#390F001560D47A20FFFF7FCFFFFF3FFFFFFFFFFFFF3C4FBDE600000000000000
(00.013248) can0 D9#3913010B5ABA48559500FE03BAFFEF39130015AF231F11A07A8DA20F1278F0FFFFFFFFFF3B1ED1B90000000000000000
(00.018154) can0 2D#7D893005C409009070975822705205000800A0FEFFFF7F4002D235FFFFFFFF00FEFF406683BB00000000000000000000
(00.018682) can0 D4#390C140CFFFFFFF7FDFFFFFFFFFFFFFF
(00.023405) can0 E3#39060B08494151255383DDFF00800004B5ABE604
(00.027074) can0 DB#390E00205D2A7A30B882831A3F3780557A4DC116B3281D5C060300F1FFFFFFFF3DDF3BBB000000000000000000000000
(00.028106) can0 E3#0500000CF5FCFF00000000004364855D
(00.031980) can0 DC#391000169E6A1DAE120AFADED035280000000000FFFF3D89C9F7000000000000
(00.032362) can0 18E19490#0300007A017A010200030000000000010000000000000000000000000000000000950C102700E40C00000200000054DA054A16D40CC409001311001505150000
(00.033080) can0 D9#391300152D442011A07A0DA10F1278F0FFFFFFFFFF3DA60A4A00000000000000
(00.033457) can0 DB#390F001582C47B20FFFF7FCFFFFF3FFFFFFFFFFFFF3E0B2EE900000000000000
(00.038154) can0 2D#149B3105C409009070975862705205000800A0FEFFFF7F4002D235FFFFFFFF00FEFF428A93CF00000000000000000000
(00.047022) can0 DB#390E0020C91D7B30B882831A3F3980557A4DC116B3281D5C060300F1FFFFFFFF3F0B96A1000000000000000000000000
(00.004010) can0 DC#39100016781807AE120AFADED035280000000000FFFF116453D9000000000000
(00.004504) can0 44#04
(00.004620) can0 DB#390F0015DF3F6520FFFF7FCFFFFF3FFFFFFFFFFFFF123529B000000000000000
(00.005111) can0 D9#39130015FBDE0A11A07A0DA10F1278F0FFFFFFFFFF114B32D200000000000000
(00.010274) can0 2D#65E91B05C409009070975822705205000800A0FEFFFF7F4002D235FFFFFFFF00FEFF166F368800000000000000000000
(00.013890) can0 DC08E2#4002000000000000
(00.014180) can0 DC#39FE6F089401008001000000
(00.015557) can0 E3#41000108000D0700000000003A020004F4FFFFFF
(00.019060) can0 DB#390E0020FD2E6530B882831A3F3380157A4DC116B3281D5C060300F1FFFFFFFF13DCB89B000000000000000000000000
(00.023947) can0 DC#391001101546433050000E160D9C002205F0FFF139100016626108AE120AFADED035280000000000FFFF1374FF1F0000
(00.024466) can0 18E19490#040300030002007E36EB0C7A0D220155010806010101010200000000000000000000000000000000000000000000000000000000000000001311001505150000
(00.025190) can0 D9#3913010B5ABA48559500FE03BAFFEF3913001551CA0B12A07ACDA00F1278F0FFFFFFFFFF13B6C3010000000000000000
(00.025703) can0 DB#390F0015F90E6620FFFF7FCFFFFF3FFFFFFFFFFFFF13DE13A500000000000000
(00.030184) can0 2D#38D61C05C409009070975822705205000800A0FEFFFF7F4002D235FFFFFFFF00FEFF18B941F900000000000000000000
(00.030711) can0 D4#390C140CFFFFFFF8FDFFFFFFFFFFFFFF
(00.035420) can0 E3#4100010801000002C4A2617139060B08494151A54C83DDFF008000044461E204
(00.039102) can0 DB#390E0020EFEC6630A882831A3F3480557A4DC116B3281D5C060300F1FFFFFFFF14E7993B000000000000000000000000
(00.040120) can0 E3#0500000CF5FCFF00000000001B5FB1C3
(00.043967) can0 DC#3910001646C909AE120AFADED035280000000000FFFF15D9BA03000000000000
(00.044678) can0 DB#390F00151B1E6720FFFF7FCFFFFF3FFFFFFFFFFFFF15F44B5700000000000000
(00.045064) can0 D9#391300152FE20C12A07A8DA00F1278F0FFFFFFFFFF1501B37400000000000000
(00.000493) can0 D9#39130015C2C2F111A07A0DA10F1278F0FFFFFFFFFFDF2A58BF00000000000000
(00.004400) can0 2D#04220205C409009070975862705205000800A0FEFFFF7F4002D235FFFFFFFF00FEFFE4A49F9C00000000000000000000
(00.008069) can0 18E19490#02880064646401000000DC12E4C10000000000002C012E01BD04010000000200020000004714C0057B05821300000000950C800C450FED0B1311001505150000
(00.013185) can0 DB#390E00206AC24C30B882831A3F3E80D57A4DC116B3281D5C060300F1FFFFFFFFE1E080AC000000000000000000000000
(00.018092) can0 DC#39100110154643005000E6420C9C002205F0FFF539100016B0CBEFAE120AFADED035280000000000FFFFE1364B290000
(00.018610) can0 21C#1102010D7380763C7A247E0C81F485DC89C4957C9770000000000000000000000000000000000000000000000000000000000000000000000000000000000000
(00.019295) can0 D9#3913010B5ABA48559500FE03BAFFEF39130015BA38F211A07B8DA20F1278F0FFFFFFFFFFE15CFE500000000000000000
(00.019809) can0 DB#390F0015CD844D20FFFF7FCFFFFF3FFFFFFFFFFFFFE107BE0600000000000000
(00.020198) can0 21D#304028
(00.020351) can0 21C#21000000000000000000000000000000000000000000000000000000000000000000000000000000000000000000000000000000000000000000000000000000
(00.024313) can0 2D#1B2B0305C409009070975862705205000800A0FEFFFF7F4002D235FFFFFFFF00FEFFE645F3BE00000000000000000000
(00.024842) can0 D4#390C140CFFFFFFF7FDFFFFFFFFFFFFFF
(00.029539) can0 E3#39060B08494151255683DDFF008000044399DD04
(00.033285) can0 DB#390E00206E264D31B882831A3F3F80D57A4DC116B3281D5C060300F1FFFFFFFFE2F93E9D000000000000000000000000
(00.038042) can0 DC#39100016A091F0AE120AFADED035280000000000FFFFE3A51D5D000000000000
(00.038426) can0 18E19490#0300007E017E010200030000000100010000000000000000000000000000000000950C102700E40C00000200000054DA055316D40CC409001311001505150000
(00.039146) can0 DB#390F0015EBB54E20FFFF7FCFFFFF3FFFFFFFFFFFFFE30C259600000000000000
(00.039531) can0 D9#391300156274F311A07BCDA00F1278F0FFFFFFFFFFE3195C4F00000000000000
(00.043424) can0 21C#22000000000000000000000000000000000000000000000000000000000000000000000000000000000000000000000000000000000000000000000000000000
(00.044326) can0 2D#46140405C409009070975862705205000800A0FEFFFF7F4002D235FFFFFFFF00FEFFE85C02FC00000000000000000000
(00.002832) can0 DB#390F0106508504607819390E002073843230B882831A3F3A80957A4DC116B3281D5C060300F1FFFFFFFFADC07EE20000
(00.007585) can0 DC#3910001642FFD5AE120AFADED035280000000000FFFFADEC95C6000000000000
(00.007967) can0 18E19490#000000A55555555505000000000000000000001A5A8D00000000010000000000000000005252522D012C01910161014D014C015352529F001311001505150000
(00.008672) can0 44#04
(00.008788) can0 DB#390F0015963B3320FFFF7FCFFFFF3FFFFFFFFFFFFFAEE6760C00000000000000
(00.010299) can0 D9#3913001592DCD811A07A8DA10F1278F0FFFFFFFFFFADB244F400000000000000
(00.014012) can0 2D#9AEAE905C409009070975862705205000800A0FEFFFF7F4002D235FFFFFFFF00FEFFB2141B7E00000000000000000000
(00.017529) can0 DC08E2#4002000000000000
(00.017819) can0 DC#39FE37844A00804000800000
(00.019282) can0 E3#41000108000D0700000000003A020004F4FFFFFF
(00.022827) can0 DB#390E0020DCCE3330B882831A3F3980957A4DC116B3281D5C060300F1FFFFFFFFAF06BB18000000000000000000000000
(00.027597) can0 DC#39100110154643005000BE120D9C002205F0FFF1391000160F17D6AE120AFADED035280000000000FFFFAFCA2A320000
(00.028285) can0 DB#390F001538493420FFFF7FCFFFFF3FFFFFFFFFFFFFAFC1234600000000000000
(00.028910) can0 D9#3913010B5ABA48559500FE03BAFFEF39130015A096D911A07ACDA10F1278F0FFFFFFFFFFAFBA45170000000000000000
(00.033922) can0 2D#BBF1EA05C409009070975862705205000800A0FEFFFF7F4002D235FFFFFFFF00FEFFB47A0AF100000000000000000000
(00.034448) can0 D4#390C140CFFFFFFF7FDFFFFFFFFFFFFFF
(00.037738) can0 18E19490#010200740D5401800C1001BC02060600000000401F020000AC0D682B012003000002AE012A1200000202AE030D380000AC0D401F0C5F20531311001505150000
(00.039183) can0 E3#4100010801000002C4A2617139060B08464151255F83DDFF008000040625D804
(00.042858) can0 E18B449#6B22996CE41997A1
(00.043877) can0 E3#0500000CF5FCFF0000000000B7C3AA35
(00.047675) can0 DC#391000162BBFD7AE120AFADED035280000000000FFFFB1F8577B000000000000
(00.048379) can0 DB#390F0015DA593520FFFF7FCFFFFF3FFFFFFFFFFFFFB1AACDE500000000000000
(00.048764) can0 D9#391300155311DA11A07A4DA00F1278F0FFFFFFFFFFB1E7E2CA00000000000000
(00.002231) can0 DC#39100016D396C8AE120AFADECC35280000000000FFFF9369ED2E000000000000
(00.002998) can0 DB#390F0015FD762620FFFF7FCFFFFF3FFFFFFFFFFFFF94B065C500000000000000
(00.003386) can0 D9#39130015B327CB11A079CDA00F1278F0FFFFFFFFFF932E518400000000000000
(00.008502) can0 2D#C865DC05C409009070975862705205000800A0FEFFFF7F4002D235FFFFFFFF00FEFF981F543E00000000000000000000
(00.009030) can0 4F#28610E0021E74694
(00.009193) can0 E3#02800008FE30AA0183331883
(00.000870) can0 DB#390E002052111A2FA882831A3F2C80D5794DC116B3281D5C060300F1FFFFFFFF7D0BC365000000000000000000000000
(00.005599) can0 DC#3910011015464300500096060C9C002205F0FFF5391000161357BDAE120AFADECC35280000000000FFFF7D51DBFE0000
(00.003802) can0 DC#3910011015464330500076060C9C002205F0FFF139100016CBF4A9AE120AFADECC35280000000000FFFF5491C5510000
(00.004600) can0 DB#390F00151D5A0720FFFF7FCFFFFF3FFFFFFFFFFFFF5545B8DF00000000000000
(00.005120) can0 D9#3913010B5ABA48559500FE03BAFFEF39130015F22FAC11A07A4DA20F1278F0FFFFFFFFFF54D55B2A0000000000000000
(00.010206) can0 2D#9438BD05C409009070975862705205000800A0FEFFFF7F4002D235FFFFFFFF00FEFF5A8D66D400000000000000000000
(00.010732) can0 D4#390C140CFFFFFFF8FDFFFFFFFFFFFFFF
(00.013956) can0 18E19490#010100730D5401800C1001BC02060600000000401F020000AC0D682B012003000002AD012B1200000202AE0305380000AC0D401F0C562A531311001505150000
(00.015470) can0 E3#39060B08474151254D83DDFF008000048C6FCF04
(00.019213) can0 DB#390E002099080730A882831A3F3080157A4DC116B3281D5C060300F1FFFFFFFF56985071000000000000000000000000
(00.023883) can0 DC#39100016861CAAAE120AFADECC35280000000000FFFF565C29EE000000000000
(00.024657) can0 DA#A327E6136DDB6DB6
(00.025047) can0 D9#391300155F60AD11A07A0DA10F1278F0FFFFFFFFFF5620495700000000000000
(00.030213) can0 2D#B523BE05C409009070975862705205000800A0FEFFFF7F4002D235FFFFFFFF00FEFF5C3F890C00000000000000000000
(00.039110) can0 DB#390E0020395E0830A882831A3F2E80157A4DC116B3281D5C060300F1FFFFFFFF5811DF78000000000000000000000000
(00.043794) can0 DC#39100016A2B4ABAE120AFADECC35280000000000FFFF587C684B000000000000
(00.044175) can0 18E19490#02880064646401000000AD124B000000000000002C012E01BD04000001000100000000004A14C1057905821300000000950C800C200FED0B1311001505150000
(00.044881) can0 DB#390F001541BF0920FFFF7FCFFFFF3FFFFFFFFFFFFF591E540E00000000000000
(00.045268) can0 D9#391300156CCFAE11A0794D9F0F1278F0FFFFFFFFFF58F7675000000000000000
(00.004373) can0 DC#391001101546433850005E060D9C002205F0FFF13910001698799AAE120AFADECC35280000000000FFFF37F6C3910000
(00.005203) can0 DB#390F0015AC05F820FFFF7FCFFFFF3FFFFFFFFFFFFF3852DD1600000000000000
(00.005702) can0 D9#3913010B5ABA48559500FE03BAFFEF391300158F209D11A079CDA10F1278F0FFFFFFFFFF37351FA00000000000000000
(00.010796) can0 2D#45B2AE05C409009070975862705205000800A0FEFFFF7F4002D235FFFFFFFF00FEFF3C3934B200000000000000000000
(00.011322) can0 D4#390C140CFFFFFFF8FDFFFFFFFFFFFFFF
(00.014534) can0 18E19490#010100730D5401800C1001BC02060600000000401F020000AC0D682B012003000002AE012A1200000202AE030D380000AC0D401F0C530C531311001505150000
(00.016183) can0 E3#39060B08474151254E83DDFF0080000450F4CC040500000CF5FCFF00000000003FF0C725000000000000000000000000
(00.019764) can0 DB#390E002093FCF830A882831A3F2F80157A4DC116B3281D5C060300F1FFFFFFFF395D59A6000000000000000000000000
(00.024455) can0 DC#39100016BCD19BAE120AFADECC35280000000000FFFF38CB6655000000000000
(00.000813) can0 D4#39040C050E0FF6FFFF000000
(00.004580) can0 DB#390F0106508504605C19390E00209661E230B882831A3F3480557A4DC116B3281D5C060300F1FFFFFFFF0D9D17640000
(00.009163) can0 DC#39100016882385AE120AFADECC35280000000000FFFF0C2FA6DF000000000000
(00.009945) can0 44#04
(00.010061) can0 DB#390F00159BADE320FFFF7FCFFFFF3FFFFFFFFFFFFF0E7EA71500000000000000
(00.011350) can0 D9#3913001508BF8811A07A8DA20F1278F0FFFFFFFFFF0DCF0BA600000000000000
(00.015724) can0 2D#292F9905C409009070975862705205000800A0FEFFFF7F4002D235FFFFFFFF00FEFF12FC45FC00000000000000000000
(00.019198) can0 18E19490#02880064646401000000DB1206E80000000000002C012E01BD04010000000000010000004514C0057C05811300000000950C800C140FED0B1311001505150000
(00.024543) can0 DB#390E00207499E330B882831A3F3280557A4DC116B3281D5C060300F1FFFFFFFF0F8DFAD1000000000000000000000000
(00.029220) can0 DC#391001101546433950003E060C9C002205F0FFF139100016C5CB86AE120AFADECC35280000000000FFFF0F6BF4700000
(00.030031) can0 DB#390F001535DFE420FFFF7FCFFFFF3FFFFFFFFFFFFF100DE7B200000000000000
(00.030418) can0 D9#3913010B5ABA48559500FE03BAFFEF39130015A7478912A07A8DA20F1278F0FFFFFFFFFF0FEEDE370000000000000000
(00.035619) can0 2D#08349A05C409009070975862705205000800A0FEFFFF7F4002D235FFFFFFFF00FEFF14E72E0800000000000000000000
(00.036147) can0 D4#390C140CFFFFFFF8FDFFFFFFFFFFFFFF
(00.040868) can0 E3#39060B08474151254E83DDFF00800004A13EC8040500000CF5FCFF000000000017DF9693000000000000000000000000
(00.044643) can0 DB#390E00209866E430B882831A3F3280557A4DC116B3281D5C060300F1FFFFFFFF11329D72000000000000000000000000
(00.049170) can0 DC#39100016E16387AE120AFADECC35280000000000FFFF114A08A4000000000000
(00.000820) can0 2D#4FAF7A05C409009070975862705205000800A0FCFFFF7F4002D235FFFFFFFF00FEFFD4FF162300000000000000000000
(00.001347) can0 E3#4100050801507FBE2417B426390422080041C67E782FFEFF
(00.005971) can0 D4#39040C050E0FF6FFFF000000
(00.009748) can0 DB#390F0106508504602019390E002027D3C430B882831A3F3680557A4DC116B3281D5C060300F1FFFFFFFFD18065F10000
(00.014266) can0 DC#3910001644D267AE120AFADED035280000000000FFFFD1241FD6000000000000
(00.015098) can0 44#04
(00.015214) can0 DB#390F0015D5F3C520FFFF7FCFFFFF3FFFFFFFFFFFFFD2969C6100000000000000
(00.016461) can0 D9#39130015629F6A11A07A0DA20F1278F0FFFFFFFFFFD1E5EDEF00000000000000
(00.020875) can0 2D#50A67B05C409009070975862705205000800A0FEFFFF7F4002D235FFFFFFFF00FEFFD659AC8700000000000000000000
(00.024302) can0 18E19490#028800646464010000008112EDDE0000000000002C012E01BD04010000000000000000004B14C1057A05851300000000950C800C280FED0B1311001505150000
(00.029710) can0 DB#390E00208899C530B882831A3F3580557A4DC116B3281D5C060300F1FFFFFFFFD3452524000000000000000000000000
(00.034323) can0 DC#391001101546433050000E160D9C002205F0FFF1391000165EAB68AE120AFADED035280000000000FFFFD3BC59B70000
(00.035198) can0 DB#390F0015F3C2C620FFFF7FCFFFFF3FFFFFFFFFFFFFD4B8FD8D00000000000000
(00.035789) can0 D9#3913010B5ABA48559500FE03BAFFEF391300156DD26B12A07A8DA20F1278F0FFFFFFFFFFD360A26F0000000000000000
(00.040781) can0 2D#0D997C05C409009070975862705205000800A0FEFFFF7F4002D235FFFFFFFF00FEFFD827985900000000000000000000
(00.041310) can0 D4#390C140CFFFFFFF8FDFFFFFFFFFFFFFF
(00.001187) can0 DC#391000162DAC50AE120AFADECC35280000000000FFFFA2B11D2E000000000000
(00.002106) can0 DB#390F0015E501AE20FFFF7FCFFFFF3FFFFFFFFFFFFFA42439A900000000000000
(00.002492) can0 D9#39130015A9765311A07A4DA00F1278F0FFFFFFFFFFA37BCA8F00000000000000
(00.007604) can0 2D#735B6405C409009070975822705205000800A0FEFFFF7F4002D235FFFFFFFF00FEFFA8EF3C1500000000000000000000
(00.016564) can0 DB#390E00209ABBAE30B882831A3F3380157A4DC116B3281D5C060300F1FFFFFFFFA5F1CC34000000000000000000000000
(00.021059) can0 DC#39100016090451AE120AFADECC35280000000000FFFFA42F9703000000000000
(00.021442) can0 18E19490#02880064646401000000931206E80000000000002C012E01BD04010001000100000000004A14C1057C05871300000000950C800CFF0EED0B1311001505150000
(00.022146) can0 DB#390F00150711AF20FFFF7FCFFFFF3FFFFFFFFFFFFFA65FC02600000000000000
(00.022535) can0 D9#3913001567995411A0790D9F0F1278F0FFFFFFFFFFA57D250300000000000000
(00.027653) can0 2D#6C526505C409009070975822705205000800A0FEFFFF7F4002D235FFFFFFFF00FEFFAAEB33AC00000000000000000000
(00.028179) can0 D4#3904060467F9E985
(00.028340) can0 E3#4100050800800343D377A9E5
(00.036576) can0 DB#390E010F0C36FFFFFFFFFFFFFFFFD408BCFDFF390E0020A22DAF30A882831A3F3280157A4DC116B3281D5C060300F1FFFFFFFFA7A6CDE2000000000000000000
(00.037590) can0 E3#3980000C007F818F0D30B0FEAD334781
(00.041090) can0 DC#3910001644EC52AE120AFADECC35280000000000FFFFA65E925B000000000000
(00.042259) can0 DB#390F0015B8FAB020FFFF7FCFFFFF3FFFFFFFFFFFFFA80A8A3B00000000000000
(00.042648) can0 D9#39130015D8135512A07A8DA00F1278F0FFFFFFFFFFA6053EFB00000000000000
(00.047649) can0 2D#4D496605C409009070975822705205000800A0FEFFFF7F4002D235FFFFFFFF00FEFFACE9B9B500000000000000000000
(00.048174) can0 E3#4100050801DC7BBFDCECFDBD390422080041867E780FFAFF
(00.000139) can0 D9#39130015A6C04012A079CD9E0F1278F0FFFFFFFFFF7DD341DF00000000000000
(00.005266) can0 2D#57CF5105C409009070975862705205000800A0FEFFFF7F4002D235FFFFFFFF00FEFF82DDD56F00000000000000000000
(00.005792) can0 D4#3904060455B6E585
(00.008771) can0 18E19490#040300030003007E36ED0C7A0D220155010806010101010200000000000000000000000000000000000000000000000000000000000000001311001505150000
(00.014184) can0 DB#390E010F0C36FFFFFFFFFFFFFFFFD408BCFDFF390E00203B579B30A882831A3F3280D5794DC116B3281D5C060300F1FFFFFFFF7F005622000000000000000000
(00.018665) can0 DC#391000162FB73EAE120AFADECC35280000000000FFFF7FCF138B000000000000
(00.019855) can0 DB#390F001522029C20FFFF7FCFFFFF3FFFFFFFFFFFFF80528B3100000000000000
(00.020243) can0 D9#39130015925E4112A07ACD9F0F1278F0FFFFFFFFFF7FDACF4A00000000000000
(00.020622) can0 E3#3980000C007F818F0D30B0FE8516A5A2410005080139C61EB85D4A6300000000
(00.025239) can0 2D#76D45205C409009070975862705205000800A0FEFFFF7F4002D235FFFFFFFF00FEFF84A938A200000000000000000000
(00.030413) can0 D4#39040C050E0FF6FFFF000000
(00.030612) can0 E3#390422080041867E780FFAFF
(00.034210) can0 DB#390F0106508504603018390E0020EE2E9C30A882831A3F3380157A4DC116B3281D5C060300F1FFFFFFFF8224EC3D0000
(00.038591) can0 DC#391000160B1F3FAE120AFADECC35280000000000FFFF810C2147000000000000
(00.038975) can0 18E19490#000000A55555555505000000000000000000001A5A8D00000100010000000000000000005252522D012C01910161014D014C0153525202011311001505150000
(00.039679) can0 44#04
(00.039795) can0 DB#390F0015C0129D20FFFF7FCFFFFF3FFFFFFFFFFFFF839BC03900000000000000
(00.041322) can0 D9#39130015ED964212A07A4DA20F1278F0FFFFFFFFFF821F23E000000000000000
(00.045316) can0 2D#69DD5305C409009070975862705205000800A0FEFFFF7F4002D235FFFFFFFF00FEFF8656B16000000000000000000000
(00.045841) can0 E3#41000108000D070000000000
(00.048677) can0 DC08E2#4002000000000000
(00.048968) can0 DC#39FE6F089401008001000000
(00.000252) can0 2D#A75E4105C409009070975862705205000800A0FEFFFF7F4002D235FFFFFFFF00FEFF628ECF5900000000000000000000
(00.009205) can0 DB#390E0020AE178B30B882831A3F3480557A4DC116B3281D5C060300F1FFFFFFFF5F79680E000000000000000000000000
(00.013574) can0 DC#3910001625942EAE120AFADECC35280000000000FFFF5E2D5BAC000000000000
(00.014783) can0 DB#390F0015231C8C20FFFF7FCFFFFF3FFFFFFFFFFFFF6003A82D00000000000000
(00.015192) can0 D9#39130015F6A13112A07A0DA00F1278F0FFFFFFFFFF5F1BC9E800000000000000
(00.015647) can0 E3#410000080057314B414635454100050800800343D3776377
(00.020278) can0 2D#86454205C409009070975862705205000800A0FEFFFF7F4002D235FFFFFFFF00FEFF6432D1FD00000000000000000000
(00.020803) can0 D4#3904060478E7E285
(00.023779) can0 18E19490#040300030002007E36ED0C790D220155010806010101010200000000000000000000000000000000000000000000000000000000000000001311001505150000
(00.029215) can0 DB#390E010F0836FFFFFFFFFFFFFFFFD408BCFDFF390E0020C2E18C30B882831A3F3380557A4DC116B3281D5C060300F1FFFFFFFF6199B135000000000000000000
(00.030265) can0 E3#410000080142315052313138
(00.033672) can0 DC#39100016013C2FAE120AFADECC35280000000000FFFF60E94BE9000000000000
(00.034883) can0 DB#390F0015C10C8D20FFFF7FCFFFFF3FFFFFFFFFFFFF624081CC00000000000000
(00.035270) can0 D9#3913001500CA3212A07A4DA00F1278F0FFFFFFFFFF6174FC5F00000000000000
(00.040295) can0 2D#994C4305C409009070975862705205000800A0FEFFFF7F4002D235FFFFFFFF00FEFF66A778E300000000000000000000
(00.040819) can0 E3#41000508017490424AFF281C390422080041877E780FFAFF
(00.045442) can0 D4#39040C050E0FF6FFFF3915011446F991D9F85FF5FFFFFFFFFE0780A02801FEFFFF000000000000000000000000000000
(00.049233) can0 DB#390E002022048D30B882831A3F3380157A4DC116B3281D5C060300F1FFFFFFFF638EEC8F000000000000000000000000
(00.000530) can0 DB#390E002066577A30B882831A3F3A80557A4DC116B3281D5C060300F1FFFFFFFF3DE47675000000000000000000000000
(00.004937) can0 DC#3910011015464300500096060C9C002205F0FFF5391000169E6A1DAE120AFADED035280000000000FFFF3DDBBFC50000
(00.006017) can0 DB#390F001582C47B20FFFF7FCFFFFF3FFFFFFFFFFFFF3E9DC80400000000000000
(00.006404) can0 D9#3913010B5ABA48559500FE03BAFFEF391300158DF12011A07A8DA10F1278F0FFFFFFFFFF3D029B2F0000000000000000
(00.011567) can0 2D#149B3105C409009070975862705205000800A0FEFFFF7F4002D235FFFFFFFF00FEFF42AD76F800000000000000000000
(00.012093) can0 D4#390C140CFFFFFFF7FDFFFFFFFFFFFFFF
(00.016785) can0 E3#39060B08474151A55243DDFF00800004CB62B304
(00.020629) can0 DB#390E00204F207B30B882831A3F3A80957A4DC116B3281D5C060300F1FFFFFFFF3F967563000000000000000000000000
(00.024953) can0 DC#39100016D3821EAE120AFADED035280000000000FFFF3EE03669000000000000
(00.025336) can0 18E19490#0300007E017E010200030000000000010000000000000000000000000000000000950C102700E40C00000200000054DB055316D50CC409001311001505150000
(00.026073) can0 DB#390F00152CB67C20FFFF7FCFFFFF3FFFFFFFFFFFFF40ECDA8000000000000000
(00.026461) can0 D9#3913001582BC2112A07A0DA10F1278F0FFFFFFFFFF3FE686BE00000000000000
(00.031566) can0 2D#35803205C409009070975862705205000800A0FEFFFF7F4002D235FFFFFFFF00FEFF44B3795700000000000000000000
(00.040529) can0 DB#390E0020A3DF7C30B882831A3F3A80957A4DC116B3281D5C060300F1FFFFFFFF41499DB2000000000000000000000000
(00.044872) can0 DC#39100016F72A1FAE120AFADED035280000000000FFFF40A2BF4C000000000000
(00.046111) can0 DB#390F0015CEA67D20FFFF7FCFFFFF3FFFFFFFFFFFFF42CE109200000000000000
(00.046496) can0 D9#391300159C662211A07A0DA00F1278F0FFFFFFFFFF419894BA00000000000000
(00.000339) can0 18E19490#010200740D5401800C1001BC02060600000000401F020000AC0D682B012003000002AD012B1200000202AE03FD370000AC0D401F0C371B531311001505150000
(00.001241) can0 D9#39130015E7B60F11A0798DA00F1278F0FFFFFFFFFF1B4836EF00000000000000
(00.001619) can0 DB#390F001561CA6A20FFFF7FCFFFFF3FFFFFFFFFFFFF1C112E3900000000000000
(00.006712) can0 2D#8D182005C409009070975822705205000800A0FEFFFF7F4002D235FFFFFFFF00FEFF200D843400000000000000000000
(00.007242) can0 E3#4100050801D90BE534571549390422080041867E780FFAFF
(00.011857) can0 D4#39040C050E0FF6FFFF000000
(00.015674) can0 DB#390F0106508504605814390E0020DF5D6A30B882831A3F3480157A4DC116B3281D5C050300F1FFFFFFFF1D6D69800000
(00.019941) can0 DC#3910001694490DAE120AFADED035280000000000FFFF1D125606000000000000
(00.021017) can0 44#04
(00.021219) can0 DB#390F001583DA6B20FFFF7FCFFFFF3FFFFFFFFFFFFF1E59892300000000000000
(00.021605) can0 D9#3913001511D61011A07A8DA20F1278F0FFFFFFFFFF1DC0A5AD00000000000000
(00.026787) can0 2D#92112105C409009070975822705205000800A0FEFFFF7F4002D235FFFFFFFF00FEFF228B99DA00000000000000000000
(00.030022) can0 DC08E2#4002000000000000
(00.030312) can0 DC#39FE6F089401008001000000
(00.030510) can0 18E19490#02880064646401000000AF1206E80000000000002C012E01BD04010001000100010000004A14C0057A05851300000000950C800C0B0FED0B1311001505150000
(00.032014) can0 E3#41000108000D0700000000003A020004F4FFFFFF
(00.035654) can0 DB#390E002013146B30A882831A3F3680157A4DC116B3281D5C060300F1FFFFFFFF1F4B142A000000000000000000000000
(00.040021) can0 DC#391001101546433250007E060D9C002205F0FFF13910001631D20EAE120AFADECC35280000000000FFFF1F87CE360000
(00.041124) can0 DB#390F00152DA86C20FFFF7FCFFFFF3FFFFFFFFFFFFF1F0CF70900000000000000
(00.041510) can0 D9#3913010B5ABA48559500FE03BAFFEF3913001553731111A07A0DA20F1278F0FFFFFFFFFF1FC5C7CC0000000000000000
(00.046668) can0 2D#B30A2205C409009070975822705205000800A0FEFFFF7F4002D235FFFFFFFF00FEFF24A0E27A00000000000000000000
(00.047195) can0 D4#390C140CFFFFFFF8FDFFFFFFFFFFFFFF
(00.047433) can0 E3#4100010801000002C4A26171
(00.003398) can0 DC#391001101546433850005E060D9C002205F0FFF139100016A4B3FAAE120AFADECC35280000000000FFFFF6FB8CA10000
(00.003917) can0 18E19490#040300030003007E36ED0C790D220155010806010101010200000000000000000000000000000000000000000000000000000000000000001311001505150000
(00.004723) can0 DB#390F0015A6C95820FFFF7FCFFFFF3FFFFFFFFFFFFFF765815A00000000000000
(00.005110) can0 D9#3913010B5ABA48559500FE03BAFFEF39130015138DFD11A0790DA30F1278F0FFFFFFFFFFF66D9ECE0000000000000000
(00.010160) can0 2D#804E0E05C409009070975862705205000800A0FEFFFF7F4002D235FFFFFFFF00FEFFFC45D76600000000000000000000
(00.010689) can0 D4#390C140CFFFFFFF8FDFFFFFFFFFFFFFF
(00.015417) can0 E3#39060B08474151A54E43DDFF0080000482ADAC040500000CF5FCFF0000000000FF4D8163000000000000000000000000
(00.019236) can0 DB#390E00202B235830A882831A3F3380D5794DC116B3281D5C060300F1FFFFFFFFF84015C9000000000000000000000000
(00.023456) can0 DC#39100016801BFBAE120AFADECC35280000000000FFFFF89B1599000000000000
(00.024872) can0 D9#391300157C37FE11A07A0DA10F1278F0FFFFFFFFFFF88BE0B800000000000000
(00.025255) can0 DB#390F001544D95920FFFF7FCFFFFF3FFFFFFFFFFFFFF955E74200000000000000
(00.030164) can0 2D#9F470F05C409009070975862705205000800A0FEFFFF7F4002D235FFFFFFFF00FEFFFE42384100000000000000000000
(00.033532) can0 18E19490#000000A55555555505000000000000000000001A5A8D00000100010000000000000000005252522D012C01910161014D014C015352523E011311001505150000
(00.039141) can0 DB#390E002049D25930A882831A3F3280D5794DC116B3281D5C060300F1FFFFFFFFFA386365000000000000000000000000
(00.040151) can0 E3#410000080057314B41463545
(00.043470) can0 DC#391000161F73FCAE120AFADECC35280000000000FFFFFA9ECF1A000000000000
(00.044732) can0 DB#390F001562E85A20FFFF7FCFFFFF3FFFFFFFFFFFFFFB00537C00000000000000
(00.045119) can0 D9#3913001513E7FF12A079CD9E0F1278F0FFFFFFFFFFFAE10E8B00000000000000
(00.001403) can0 2D#0956FC05C409009070975862705205000800A0FEFFFF7F4002D235FFFFFFFF00FEFFD8B9E47800000000000000000000
(00.001932) can0 D4#3904060408ECD485
(00.002092) can0 E3#4100050800800343D376D766
(00.010362) can0 DB#390E010F1436FFFFFFFFFFFFFFFFD408BCFDFF390E0020692A4630A882831A3F3580157A4DC116B3281D5C060300F1FFFFFFFFD552DE9C000000000000000000
(00.014595) can0 DC#39100016E378E9AE120AFADECC35280000000000FFFFD558154B000000000000
(00.015936) can0 DB#390F001519224720FFFF7FCFFFFF3FFFFFFFFFFFFFD6AF2A0E00000000000000
(00.016322) can0 D9#3913001542F3EC12A07A4D9F0F1278F0FFFFFFFFFFD5E46D9B00000000000000
(00.021427) can0 2D#165FFD05C409009070975862705205000800A0FEFFFF7F4002D235FFFFFFFF00FEFFDA9B710100000000000000000000
(00.021956) can0 E3#410005080192EC7F2092B006390422080041877E780FFAFF
(00.024727) can0 18E19490#030000830183010200030000000100010000000000000000000000000000000000950C102700E40C00000200000054D9054816D50CC409001311001505150000
(00.026729) can0 D4#39040C050E0FF6FFFF3915011446F991D9F85FF5FFFFFFFFFE0780A02801FEFFFF000000000000000000000000000000
(00.027261) can0 DC085B#4003080400000000
(00.030379) can0 DB#390E002030B54730A882831A3F3780157A4DC116B3281D5C060300F1FFFFFFFFD71D9207000000000000000000000000
(00.034644) can0 DC#39100016AE90EAAE120AFADECC35280000000000FFFFD75ACDC2000000000000
(00.035931) can0 DB#390F0015A7D74820FFFF7FCFFFFF3FFFFFFFFFFFFFD8CE687800000000000000
(00.037236) can0 D9#3913001516F0ED12A07A0DA10F1278F0FFFFFFFFFFD7D6CB8F00000000000000
(00.041468) can0 2D#3744FE05C409009070975862705205000800A0FEFFFF7F4002D235FFFFFFFF00FEFFDCD5D21300000000000000000000
(00.004398) can0 D4#39040C050E0FF6FFFF3915011446F991D9F85FF5FFFFFFFFFE0780A02801FEFFFF000000000000000000000000000000
(00.008210) can0 DB#390E0020CDC93330A882831A3F3280D5794DC116B3281D5C060300F1FFFFFFFFAF56AD8A000000000000000000000000
(00.012355) can0 DC#39100016E764D6AE120AFADECC35280000000000FFFFAE5001A1000000000000
(00.012736) can0 18E19490#000000A55555555505000000000000000000001A5A8D00000100010000000000000000005252522D012B01910161014C014C01535252AC001311001505150000
(00.013687) can0 D9#39130015031BD911A079CDA10F1278F0FFFFFFFFFFAF7EB53600000000000000
(00.014063) can0 DB#390F001538493420FFFF7FCFFFFF3FFFFFFFFFFFFFB09B4B6700000000000000
(00.019292) can0 2D#CDEAEA05C409009070975822705205000800A0FEFFFF7F4002D235FFFFFFFF00FEFFB457132700000000000000000000
(00.023686) can0 D9#39FE28082900000000000000
(00.028179) can0 DB#390E002021363430A882831A3F3280D5794DC116B3281D5C060300F1FFFFFFFFB10C36D7000000000000000000000000
(00.028702) can0 DC085D#4002000000000000
(00.032372) can0 DC#3910011015464330500026520D9C002205F0FFF139100016C3CCD7AE120AFADECC35280000000000FFFFB1A21B6A0000
(00.033763) can0 DB#390F0015DA593520FFFF7FCFFFFF3FFFFFFFFFFFFFB252A3E300000000000000
(00.034150) can0 D9#3913010B5ABA48559500FE03BAFFEF391300158728DA12A0790DA20F1278F0FFFFFFFFFFB1FDB5FF0000000000000000
(00.039201) can0 2D#A4F8EB05C409009070975862705205000800A0FEFFFF7F4002D235FFFFFFFF00FEFFB6395D7300000000000000000000
(00.039726) can0 D4#390C140CFFFFFFF8FDFFFFFFFFFFFFFF
(00.042605) can0 18E19490#010200730D5501800C1001BC02060600000000401F020000AC0D682B012003000002AC012F1200000202AE030D380000AC0D401F0C2C17531311001505150000
(00.044462) can0 E3#39060B08464151254E43DDFF00800004F55EA504
(00.048278) can0 DB#390E00200040352FA882831A3F3380D5794DC116B3281D5C060300F1FFFFFFFFB3AC4BA5000000000000000000000000
(00.000525) can0 D9#3913010B5ABA48559500FE03BAFFEF39130015F097C611A07A0DA20F1278F0FFFFFFFFFF89A2CE460000000000000000
(00.001040) can0 DB#390F001553042120FFFF7FCFFFFF3FFFFFFFFFFFFF89E525A600000000000000
(00.001426) can0 21D#304028
(00.001581) can0 21C#21988099669A4C9B469C189D4E9E5C9F60A06EA1E0A35C0000000000000000000000000000000000000000000000000000000000000000000000000000000000
(00.005504) can0 2D#1136D705C409009070975862705205000800A0FEFFFF7F4002D235FFFFFFFF00FEFF8EC4BD1100000000000000000000
(00.006029) can0 D4#390C140CFFFFFFF7FDFFFFFFFFFFFFFF
(00.010735) can0 E3#39060B08474151A55343DDFF008000040494A104
(00.014532) can0 DB#390E002070D32130B882831A3F3A80557A4DC116B3281D5C060300F1FFFFFFFF8A680E95000000000000000000000000
(00.018666) can0 DC#391000166C74C4AE120AFADED035280000000000FFFF8B344B7A000000000000
(00.019047) can0 18E19490#0300007F017F010200030000000100010000000000000000000000000000000000950C102700E40C00000200000054D9055316D40CC409001311001505150000
(00.020003) can0 D9#391300156533C712A07A4DA00F1278F0FFFFFFFFFF8B1DD1AF00000000000000
(00.020378) can0 DB#390F001575352220FFFF7FCFFFFF3FFFFFFFFFFFFF8B302E2200000000000000
(00.024634) can0 21C#22000000000000000000000000000000000000000000000000000000000000000000000000000000000000000000000000000000000000000000000000000000
(00.025517) can0 2D#B441D805C409009070975862705205000800A0FEFFFF7F4002D235FFFFFFFF00FEFF9084DF5E00000000000000000000
(00.034492) can0 DB#39FE0B086100000001000000390E002001052230B882831A3F3880557A4DC116B3281D5C060300F1FFFFFFFF8C13D1CD
(00.038626) can0 DC#3910001648DCC5AE120AFADED035280000000000FFFF8D92C0BB000000000000
(00.040025) can0 DB#390F001597252320FFFF7FCFFFFF3FFFFFFFFFFFFF8D91D23900000000000000
(00.040410) can0 D9#39130015CBB4C812A079CD9F0F1278F0FFFFFFFFFF8D0A431000000000000000
(00.045537) can0 2D#AB48D905C409009070975862705205000800A0FEFFFF7F4002D235FFFFFFFF00FEFF92A8F12700000000000000000000
(00.046061) can0 D4#39040604D804CD85
(00.046221) can0 E3#4100050800800343D3769059
(00.048770) can0 18E19490#040300020002007E36ED0C7A0D220156010806010101010200000000000000000000000000000000000000000000000000000000000000001311001505150000
(00.004429) can0 DB#390E0020FC380C30B882831A3F3880557A4DC116B3281D5C060300F1FFFFFFFF607EEFA5000000000000000000000000
(00.008527) can0 DC#39100110154643005000E6420C9C002205F0FFF5391000167034AFAE120AFADECC35280000000000FFFF606A1C1B0000
(00.009046) can0 18E19490#040300030003007436EB0C790D220155010806010101010200000000000000000000000000000000000000000000000000000000000000001311001505150000
(00.009988) can0 DB#390F0015C9FC0D20FFFF7FCFFFFF3FFFFFFFFFFFFF6157C56900000000000000
(00.010375) can0 D9#3913010B5ABA48559500FE03BAFFEF391300157A62B211A07ACDA30F1278F0FFFFFFFFFF60F2410D0000000000000000
(00.015437) can0 2D#9D83C305C409009070975862705205000800A0FEFFFF7F4002D235FFFFFFFF00FEFF66E6736200000000000000000000
(00.015966) can0 D4#390C140CFFFFFFF7FDFFFFFFFFFFFFFF
(00.020652) can0 E3#39060B08474151255443DDFF00800004DFF79D04
(00.024479) can0 DB#390E0020681C0D30B882831A3F3880557A4DC116B3281D5C060300F1FFFFFFFF6233B0BB000000000000000000000000
(00.028572) can0 DC#39100016606EB0AE120AFADECC35280000000000FFFF625C138D000000000000
(00.029874) can0 D9#391300159D9EB311A07A0DA20F1278F0FFFFFFFFFF625FEA3F00000000000000
(00.030253) can0 DB#390F0015EFCD0E20FFFF7FCFFFFF3FFFFFFFFFFFFF6331053200000000000000
(00.035437) can0 2D#C0BCC405C409009070975862705205000800A0FEFFFF7F4002D235FFFFFFFF00FEFF68AE4C7A00000000000000000000
(00.038661) can0 18E19490#000000A55555555505000000000000000000001A5A8D00000000010000000000000000005252522D012C01910161014D014C0153525226011311001505150000
(00.044428) can0 DB#390E002022A40E30B882831A3F3980557A4DC116B3281D5C060300F1FFFFFFFF647DE7A0000000000000000000000000
(00.048591) can0 DC#39100016ACB5B1AE120AFADED035280000000000FFFF649357E3000000000000
(00.004815) can0 2D#1054B105C409009070975862705205000800A0FEFFFF7F4002D235FFFFFFFF00FEFF42A5D6E100000000000000000000
(00.005341) can0 D4#390406041B81C585
(00.005502) can0 E3#4100050800800343D376412C
(00.013789) can0 DB#390E010F0C36FFFFFFFFFFFFFFEFD408BCFDFF390E0020D784FB2FA882831A3F2F8095794DC116B3281D5C060300F1FFFFFFFF3FB0D7CD000000000000000000
(00.014744) can0 E3#3980000C007FB28F0C30B0FE4528EBD33E800108C3020E00BD5DE0FF00000000
(00.017861) can0 DC#391000164AF99EAE120AFADECC35280000000000FFFF3FEEDCC8000000000000
(00.019332) can0 DB#390F00152446FC20FFFF7FCFFFFF3FFFFFFFFFFFFF40C238F300000000000000
(00.019718) can0 D9#39130015B473A111A0794DA10F1278F0FFFFFFFFFF3F7C4B7D00000000000000
(00.024819) can0 2D#314FB205C409009070975862705205000800A0FEFFFF7F4002D235FFFFFFFF00FEFF4426CE8B00000000000000000000
(00.025344) can0 E3#41000508017A47416821D689390422080041C67E782FFEFF
(00.027998) can0 18E19490#030000790179010200030000000000010000000000000000000000000000000000960C102700E40C00000200000054D9055316D50CC409001311001505150000
(00.030018) can0 D4#39040C050E0FF6FFFF000000
(00.033813) can0 DB#390F010650850460DC1C390E0020F6E6FC2FA882831A3F318095794DC116B3281D5C060300F1FFFFFFFF412DC9430000
(00.037899) can0 DC#391000166E519FAE120AFADECC35280000000000FFFF4134EB9D000000000000
(00.039140) can0 44#04
(00.039319) can0 DB#390F0015C656FD20FFFF7FCFFFFF3FFFFFFFFFFFFF42B288BB00000000000000
(00.040600) can0 D9#39130015DD1DA211A0790DA20F1278F0FFFFFFFFFF4168652B00000000000000
(00.044871) can0 2D#2E46B305C409009070975862705205000800A0FEFFFF7F4002D235FFFFFFFF00FEFF46BADABC00000000000000000000
(00.001570) can0 2D#550B9D05C409009070975862705205000800A0FEFFFF7F4002D235FFFFFFFF00FEFF1AA78E9700000000000000000000
(00.002094) can0 D4#39040604EA4BC185
(00.002254) can0 E3#4100050800800343D37619F4
(00.004688) can0 18E19490#040300030003007E36ED0C790D220155010806010101010200000000000000000000000000000000000000000000000000000000000000001311001505150000
(00.010544) can0 DB#390E010F0836FFFFFFFFFFFFFFEFD408BCFDFF390E0020BD17E72FA882831A3F3180D5794DC116B3281D5C060300F1FFFFFFFF1714175B000000000000000000
(00.011548) can0 E3#3980000C007FB28F0C30B0FE1D723BBB
(00.014634) can0 DC#39100016925A8AAE120AFADECC35280000000000FFFF164220A5000000000000
(00.016066) can0 D9#39130015668F8D12A0798DA00F1278F0FFFFFFFFFF162F4EFD00000000000000
(00.016444) can0 DB#390F0015AD1BE820FFFF7FCFFFFF3FFFFFFFFFFFFF186CB11500000000000000
(00.021568) can0 2D#74109E05C409009070975862705205000800A0FEFFFF7F4002D235FFFFFFFF00FEFF1C529F6700000000000000000000
(00.022094) can0 E3#4100050801A9C6AC4444DF88390422080041867E780FFAFF
(00.026729) can0 D4#39040C050E0FF6FFFF000000
(00.030618) can0 DB#390F010650850460DC1C390E00201D41E82FA882831A3F2F80D5794DC116B3281D5C060300F1FFFFFFFF19C62C610000
(00.034543) can0 DC#39100016B6F28BAE120AFADECC35280000000000FFFF18EF61F7000000000000
(00.034923) can0 18E19490#000000A55555555505000000000000000000001A5A8D00000100010000000000000000005252522D012C01910161014D014C01535252DE001311001505150000
(00.035883) can0 44#04
(00.036074) can0 DB#390F00154F0BE920FFFF7FCFFFFF3FFFFFFFFFFFFF1A705DEE00000000000000
(00.036460) can0 D9#3913001547E58E11A0790DA20F1278F0FFFFFFFFFF1934403A00000000000000
(00.041620) can0 2D#6B199F05C409009070975862705205000800A0FEFFFF7F4002D235FFFFFFFF00FEFF1E63533200000000000000000000
(00.000054) can0 DB#390E0020E11FD130B882831A3F3880557A4DC116B3281D5C060300F1FFFFFFFFEBE1F407000000000000000000000000
(00.005356) can0 D9#39130015C90F7711A07A4DA20F1278F0FFFFFFFFFFEB751CF800000000000000
(00.005733) can0 DB#390F00157A9FD220FFFF7FCFFFFF3FFFFFFFFFFFFFEC66968D00000000000000
(00.011016) can0 2D#C6B78805C409009070975862705205000800A0FEFFFF7F4002D235FFFFFFFF00FEFFF0ACBB4900000000000000000000
(00.014105) can0 18E19490#000000A55555555505000000000000000000001A5A8D00000100010000000000000000005252522D012C01910161014D014C01535252F8001311001505150000
(00.020005) can0 DB#390E0020DF75D230B882831A3F3780157A4DC116B3281D5C060300F1FFFFFFFFED0B9E30000000000000000000000000
(00.025488) can0 D9#3913001560D37812A0794D9F0F1278F0FFFFFFFFFFED43953100000000000000
(00.025867) can0 DB#390F0015988FD320FFFF7FCFFFFF3FFFFFFFFFFFFFEE51FEF800000000000000
(00.031031) can0 2D#D9BE8905C409009070975862705205000800A0FEFFFF7F4002D235FFFFFFFF00FEFFF274C17600000000000000000000
(00.031559) can0 D4#39040604AD46BD85
(00.031719) can0 E3#4100050800800343D375F1AE
(00.040068) can0 DB#390E010F0C36FFFFFFFFFFFFFFEFD408BCFDFF390E0020BD84D330B882831A3F3680157A4DC116B3281D5C060300F1FFFFFFFFEF193BBA000000000000000000
(00.040994) can0 E3#3980000C007FB28F0C30B0FEF55FBFF7
(00.043995) can0 EE#D249CBAF07
(00.044377) can0 18E19490#010200730D5401800C1001BC02060600000000401F020000AC0D682B012003000002AE012A1200000202AE0305380000AC0D401F0C191B531311001505150000
(00.045530) can0 D9#3913001542EB7912A07A8DA00F1278F0FFFFFFFFFFEF8AED5A00000000000000
(00.045906) can0 DB#390F001536FDD420FFFF7FCFFFFF3FFFFFFFFFFFFFF0BE473400000000000000
(00.002983) can0 DC#39100016137D5EAE120AFADECC35280000000000FFFFBF98FA8F000000000000
(00.003366) can0 18E19490#000000A55555555505000000000000000000001A5A8D00000100010000000000000000005152522D012C01910161014D014C0153525202011311001505150000
(00.004612) can0 DB#390F0015203EBC20FFFF7FCFFFFF3FFFFFFFFFFFFFC025E60F00000000000000
(00.005554) can0 D9#391300156D4D6111A079CDA00F1278F0FFFFFFFFFFBFE5D5D200000000000000
(00.010140) can0 2D#B7E77205C409009070975862705205000800A0FEFFFF7F4002D235FFFFFFFF00FEFFC4C1350700000000000000000000
(00.019068) can0 DB#390E0020A74EBC30A882831A3F3680157A4DC116B3281D5C060300F1FFFFFFFFC1AA1183000000000000000000000000
(00.022995) can0 DC#3910011015464330500066060D9C002205F0FFF13910001637D55FAE120AFADECC369400000000007FFFE08561950000
(00.024439) can0 21C#11020109000000FA01F402EE03E804E205DC06D607D008CA09C40ABE0BB80CB20DAC0EA60FA6109A1194128E13881482157C16761770186A19641A5E1B5D1C52
(00.025083) can0 D9#3913010B5ABA48559500FE03BAFFEF3913001572186211A07A0DA20F1278F0FFFFFFFFFFC14B55900000000000000000
(00.025597) can0 DB#390F0015C22EBD20FFFF7FCFFFFF3FFFFFFFFFFFFFC183CB0400000000000000
(00.030054) can0 2D#A8EE7305C409009070975862705205000800A0FEFFFF7F4002D235FFFFFFFF00FEFFC6B9696E00000000000000000000
(00.030581) can0 D4#390C140CFFFFFFF7FDFFFFFFFFFFFFFF
(00.033233) can0 18E19490#010200730D5501800C1001BC02060600000000401F020000AC0D682B012003000002AE012B1200000202AF030D380000AC0D401F0C1421531311001505150000
(00.035304) can0 E3#39060B08474151255503DDFF0080000478EC8D04
(00.039131) can0 DB#390E0020336ABD30A882831A3F3680157A4DC116B3281D5C060300F1FFFFFFFFC24A0C5A000000000000000000000000
(00.043107) can0 DC#3910001633C960AE120AFADECC35280000000000FFFFC3ADE392000000000000
(00.044471) can0 D9#391300157D556312A07A8DA20F1278F0FFFFFFFFFFC33FC35700000000000000
(00.044849) can0 DB#390F0015E41FBE20FFFF7FCFFFFF3FFFFFFFFFFFFFC374E28600000000000000
(00.000388) can0 DB#390F0015A963A820FFFF7FCFFFFF3FFFFFFFFFFFFF97E772C300000000000000
(00.001097) can0 D9#391300151DB34D11A079CDA20F1278F0FFFFFFFFFF96E00B3300000000000000
(00.005916) can0 2D#84A35E05C409009070975822705205000800A0FEFFFF7F4002D235FFFFFFFF00FEFF9CA6DA2900000000000000000000
(00.008856) can0 18E19490#02880064646401000000641297F60000000000002C012E01BD04010001000000000000004B14BB057A05871300000000960C800C410FED0B1311001505150000
(00.014846) can0 DB#390E00200B94A82FA882831A3F328055794DC116B3281D5C060300F1FFFFFFFF98316EF2000000000000000000000000
(00.018794) can0 DC#3910011015464338500046060C9C002205F0FFF139100016EF764BAE120AFADECC35280000000000FFFF98DD6B620000
(00.020227) can0 D9#3913010B5ABA48559500FE03BAFFEF391300153B824E11A079CDA20F1278F0FFFFFFFFFF98DEEC1A0000000000000000
(00.020740) can0 DB#390F00154B73A920FFFF7FCFFFFF3FFFFFFFFFFFFF9940DDD400000000000000
(00.025819) can0 2D#9BAA5F05C409009070975822705205000800A0FEFFFF7F4002D235FFFFFFFF00FEFF9E51862A00000000000000000000
(00.026346) can0 D4#390C140CFFFFFFF8FDFFFFFFFFFFFFFF
(00.031062) can0 E3#39060B08464151A55C03DDFF0080000489268904
(00.034947) can0 DB#390E0020D436A92FA882831A3F338095794DC116B3281D5C060300F1FFFFFFFF9A050BDD000000000000000000000000
(00.038773) can0 DC#39100016701E4CAE120AFADECC35280000000000FFFF9A27E92F000000000000
(00.002947) can0 DC#39100016A1DA38AE120AFADEC835280000000000FFFF73396E30000000000000
(00.004414) can0 D9#39130015B9613B11A0790DA10F1278F0FFFFFFFFFF73A4DE5600000000000000
(00.004788) can0 DB#390F0015F6A49620FFFF7FCFFFFF3FFFFFFFFFFFFF74E03D8400000000000000
(00.010047) can0 2D#3C3B4C05C409009070975862705205000800A0FEFFFF7F4002D235FFFFFFFF00FEFF780C62C400000000000000000000
(00.010573) can0 4F#28200E0021ECC4FC
(00.013026) can0 18E19490#000000A55555555505000000000000000000001A5A8D00000000010000000000000000005252522D012C01910161014D014C0153525276011311001505150000
(00.015321) can0 E3#02800008242EA20183331883
(00.019061) can0 DB#390E0020233C962F9882831A3F2B8015794DC116B3281D5C060300F1FFFFFFFF7570299A000000000000000000000000
(00.022957) can0 DC#39100016B0DF39AE120AFADECC35280000000000FFFF75042B43000000000000
(00.024416) can0 D9#391300154C5D3C12A079CD9F0F1278F0FFFFFFFFFF7540BF6600000000000000
(00.024796) can0 DB#390F001514B49720FFFF7FCFFFFF3FFFFFFFFFFFFF762A866200000000000000
(00.030049) can0 2D#23324D05C409009070975862705205000800A0FEFFFF7F4002D235FFFFFFFF00FEFF7AF7079F00000000000000000000
(00.030577) can0 D4#390406049F09B185
(00.030738) can0 E3#4100050800800343D37579DB
(00.039068) can0 DB#390E010FFC35FFFFFFFFFFFFFFEFD408BCFDFF390E002041CD972F9882831A3F2A8015794DC116B3281D5C060300F1FFFFFFFF77BDFCA3000000000000000000
(00.039999) can0 E3#3980000C007FB28F0C30B0FE7DD10F9E3E800108C3020E00BD5DE0FF00000000
(00.042918) can0 DC#39100016FD373AAE120AFADECC35280000000000FFFF7726C54C000000000000
(00.000938) can0 D4#39040C050E0FF6FFFF3915011446F991D9F85FF5FFFFFFFFFE0780A02801FEFFFF000000000000000000000000000000
(00.001470) can0 DC085B#4003080400000000
(00.004870) can0 DB#390E00203FF27F2FA882831A3F278055794DC116B3281D5C060300F1FFFFFFFF47872B26000000000000000000000000
(00.008577) can0 DC#3910001647A822AE120AFADEC835280000000000FFFF47998810000000000000
(00.008961) can0 18E19490#000000A55555555505000000000000000000001A5A8D00000000010000000000000000005252522E012C01910161014D014C0153525216011311001505150000
(00.010332) can0 DB#390F0015BBD88020FFFF7FCFFFFF3FFFFFFFFFFFFF4828DBCB00000000000000
(00.011022) can0 D9#39130015B8E62512A078CDA10F1278F0FFFFFFFFFF4723A77000000000000000
(00.015836) can0 2D#49A43605C409009070975862705205000800A0FEFFFF7F4002D235FFFFFFFF00FEFF4C7B57AE00000000000000000000
(00.024789) can0 DB#390E002041E1802FA882831A3F248015794DC116B3281D5C060300F1FFFFFFFF49062902000000000000000000000000
(00.028587) can0 DC#3910011015464330500006060D9C002205F0FFF139100016630023AE120AFADEC835280000000000FFFF49AF1D680000
(00.030105) can0 D9#3913010B5ABA48559500FE03BAFFEF391300159ED72612A078CDA10F1278F0FFFFFFFFFF49A687DC0000000000000000
(00.030616) can0 DB#390F001559C88120FFFF7FCFFFFF3FFFFFFFFFFFFF4AA46C8100000000000000
(00.035750) can0 2D#20B63705C409009070975822705205000800A0FEFFFF7F4002D235FFFFFFFF00FEFF4EEA749400000000000000000000
(00.036278) can0 D4#390C140CFFFFFFFAFDFFFFFFFFFFFFFF
(00.038824) can0 18E19490#010100720D5601800C1001BC02060600000000401F020000AC0D682B012003000002AD012E1200000202AF030D380000AC0D401F0C080D531311001505150000
(00.041010) can0 E3#39060B08474151254103DDFF008000044AA38104
(00.044837) can0 DB#390E00204DB0812F9882831A3F228015794DC116B3281D5C060300F1FFFFFFFF4B1B7A8E000000000000000000000000
(00.048695) can0 DC#39100016FC6824AE120AFADEC835280000000000FFFF4AD16650000000000000
