(00.000074) can0 E3#4100050801164A0B3F0F71C4
(00.002938) can0 DB#390F001550261120FFFF7FCFFFFF3FFFFFFFFFFFFFD0E402E900000000000000
(00.003840) can0 D9#3913001528421426A042CD314F1208F1FFFFFFFFFFCF4CAE933913010B52BA48559500FE03BAFFEF0000000000000000
(00.004350) can0 DC#39100016985116AE2A0AFADCF034280000000000FFFFCF6814C5000000000000
(00.004731) can0 18E19490#040300030003008836EE0C430D2201FA000806010101010200000000000000000000000000000000000000000000000000000000000000001311001505150000
(00.005484) can0 2D#008C1A05C4090090709758626F5205000800A0FEFFFF7F4802D235FFFFFFFF00FEFFD3FCE67100000000000000000000
(00.017480) can0 DB#390E00205FFF11F9F77E831A3FD07FD5424DC116B3281D5C060300F1FFFFFFFFD0ECEE6C000000000000000000000000
(00.022936) can0 DB#390F001576171220FFFF7FCFFFFF3FFFFFFFFFFFFFD17874EB00000000000000
(00.023708) can0 D9#391300151A081526A0428D314F1208F1FFFFFFFFFFD078591700000000000000
(00.024088) can0 DC#39100016BCF917AE2A0AFADCF034280000000000FFFFD05B5F7F000000000000
(00.025422) can0 2D#1F851B05C4090090709758626F5205000800A0FEFFFF7F4802D235FFFFFFFF00FEFFD57AA0D800000000000000000000
(00.034004) can0 DC#39FE6F089401008001000000
(00.034203) can0 18E19490#000000A50000005001000000000000000000001A5A8E00000000010000000000000000004A4A4BEA00E9002101FE00F500F6004B4A4BE7001311001505150000
(00.037483) can0 DB#390E0020154712F9F77E831A3FD17FD5424DC116B3281D5C060300F1FFFFFFFFD2D13EEF000000000000000000000000
(00.042926) can0 DB#390F001594071320FFFF7FCFFFFF3FFFFFFFFFFFFFD36717AE00000000000000
(00.043624) can0 D9#39130015E98F1626A0420D304F1208F1FFFFFFFFFFD2BC41D600000000000000
(00.044089) can0 DC#39100110153F41004400C612119C002205F0FFF539100016A68018AE2A0AFADCF034280000000000FFFFD21B76FA0000
(00.045451) can0 2D#42BA1C05C4090090709758626F5205000800A0FEFFFF7F4802D235FFFFFFFF00FEFFD8E56C0E00000000000000000000
(00.055456) can0 E3#00800004D135FE04
(00.057497) can0 DB#390E00204CFE13F9F77E831A3FCF7FD5424DC116B3281D5C060300F1FFFFFFFFD4AA1E62000000000000000000000000
(00.062987) can0 DB#390F00153A751420FFFF7FCFFFFF3FFFFFFFFFFFFFD571E08000000000000000
(00.064006) can0 DC#39100016822819AE2A0AFADCF034280000000000FFFFD40AA529000000000000
(00.064389) can0 D9#39130015AEC61726A0424D314F1208F1FFFFFFFFFFD38B5A1A00000000000000
(00.064764) can0 18E19490#0102003C0DF900800C0301BC02060600000000401F020000AC0D2A2B012003000002AE012B1200000202BF03B0380000AC0D401F0C3D204B1311001505150000
(00.065550) can0 2D#5DB31D05C4090090709758626F5205000800A0FEFFFF7F4802D235FFFFFFFF00FEFFDA7ED0B600000000000000000000
(00.066075) can0 D4#390406046DC93B89
(00.077492) can0 DB#390E010F2435FFFFFFFFFFFFFFEFD208BCFDFF390E00206D9C14F9F77E831A3FD17FD5424DC116B3281D5C060300F1FFFFFFFFD6EEDA49000000000000000000
(00.080089) can0 E3#4100050800800343CBA1DAC40500000CF5FCFF0000000000DD4B1E5D00000000
(00.082937) can0 DB#390F0015D8651520FFFF7FCFFFFF3FFFFFFFFFFFFFD7FEF5B500000000000000
(00.084008) can0 DC#39100016CFC01AAE2A0AFADCF034280000000000FFFFD6459934000000000000
(00.084390) can0 D9#39130015FFD91826A0428D324F1208F1FFFFFFFFFFD5EFF93000000000000000
(00.085440) can0 2D#7CA81E05C4090090709758626F5205000800A0FEFFFF7F4802D235FFFFFFFF00FEFFDC63402B00000000000000000000
(00.085966) can0 D4#39040C050E0FF4FFFF39FE1D085940B2084A020000390C140CFFFFFFFFFDFFFFFFFFFFFFFF0000000000000000000000
(00.090028) can0 E3#39060B080051511400C0CFFF39042208003B877E780FFAFF
(00.090344) can0 4F#20F007A000499BA6
(00.094143) can0 18E19490#02880064646401000000091278D7000000000000E900EB00BC04000000000100000000004814C2058A05881300000000B80C800C200F2C0D1311001505150000
(00.097499) can0 DB#390E00200F6D15F9F77E831A3FD07FD5424DC116B3281D5C060300F1FFFFFFFFD8ECDA85000000000000000000000000
(00.098842) can0 D9#39FE2808290000000000000039130015BD7C1926A0420D324F1208F1FFFFFFFFFFD7935A230000000000000000000000
(00.100092) can0 E3#41000508016268B0814370DD3980000C00FFA190D8D1AFFEDFE58B5900000000
(00.103048) can0 DB#390F0015FE541620FFFF7FCFFFFF3FFFFFFFFFFFFFD99F3BB000000000000000
(00.104074) can0 DC#39100016EB681BAE2A0AFADCF034280000000000FFFFD8916A69000000000000
(00.105429) can0 2D#63A11F05C4090090709758626F5205000800A0FEFFFF7F4802D235FFFFFFFF00FEFFDEDA454600000000000000000000
(00.108893) can0 D9#3913010B52BA48559500FE03BAFFEF00
(00.117479) can0 DB#390E0020B30016F9F77E831A3FD07FD5424DC116B3281D5C060300F1FFFFFFFFDB782C38000000000000000000000000
(00.122890) can0 21C#110201037574795C7C7C7F38832087D08BB88FA09388000000000000000000000000000000000000000000000000000000000000000000000000000000000000
(00.123590) can0 DB#390F00151C441720FFFF7FCFFFFF3FFFFFFFFFFFFFDB75AECC00000000000000
(00.123976) can0 D9#3913001520E01A27A0420D314F1208F1FFFFFFFFFFDBFBE51F00000000000000
(00.124358) can0 DC#3910001674001CAE2A0AFADCF034280000000000FFFFDB619F0F000000000000
(00.124743) can0 21D#304028
(00.124862) can0 18E19490#030000980198010000000000000000020000000000000000000000000000000000B80C011000E40C00000000000054D9055316D70CC409001311001505150000
(00.125584) can0 2D#F7742005C4090090709758626F5205000800A0FEFFFF7F4802D235FFFFFFFF00FEFFE0F1AD4E00000000000000000000
(00.126112) can0 21C#21000000000000000000000000000000000000000000000000000000000000000000000000000000000000000000000000000000000000000000000000000000
(00.137532) can0 DB#390E0020D1F117F9F77E831A3FD17FD5424DC116B3281D5C060300F1FFFFFFFFDCB95DF5000000000000000000000000
(00.140326) can0 4F#28FA070027D1EEB5
(00.142925) can0 DB#390F0015A2B11820FFFF7FCFFFFF3FFFFFFFFFFFFFDD0023B400000000000000
(00.144037) can0 DC#39100110153F41004400CE02119C002205F0FFF53910001650A81DAE2A0AFADCF034280000000000FFFFDD2CD9A40000
(00.145228) can0 D9#3913001567A91B27A0424D304F1208F1FFFFFFFFFFDD95C74100000000000000
(00.145606) can0 2D#E87D2105C4090090709758626F5205000800A0FEFFFF7F4802D235FFFFFFFF00FEFFE2D2D79A00000000000000000000
(00.147899) can0 21C#22000000000000000000000000000000000000000000000000000000000000000000000000000000000000000000000000000000000000000000000000000000
(00.154063) can0 18E19490#040300030003008836EE0C430D2201F9000806010101010200000000000000000000000000000000000000000000000000000000000000001311001505150000
(00.155458) can0 E3#008000046543FF04
(00.157504) can0 DB#39FE0B086100000001000000390E0020FD0418F9F77E831A3FCF7F15434DC116B3281D5C060300F1FFFFFFFFDE4AFC24
(00.159448) can0 44#04
(00.162985) can0 DB#390F001540A11920FFFF7FCFFFFF3FFFFFFFFFFFFFDFDB40E700000000000000
(00.163919) can0 D9#391300154DC61C26A042CD304F1208F1FFFFFFFFFFDF8D5A6700000000000000
(00.164296) can0 DC#391000161D401EAE2A0AFADCF034280000000000FFFFDFB96B0F000000000000
(00.165474) can0 2D#C9662205C4090090709758626F5205000800A0FEFFFF7F4802D235FFFFFFFF00FEFFE4FB39DB00000000000000000000
(00.165999) can0 D4#3904060440983C89
(00.172559) can0 DB#390E022A3E004A00650AB4C1177C010047403E49E0D16CC24C85D58D8C82F847CE43068867E9FFFFFFFFDF5415800000
(00.177488) can0 DB#390E010F2435FFFFFFFFFFFFFFEFD208BCFDFF390E030820836CF8FFFFFFFF00
(00.177879) can0 21C#23000000000000000000000000000000000000000000000000000000000000000000000000000000000000000000000000000000000000000000000000000000
(00.180108) can0 E3#4100050800800343CBA1E4CB
(00.182848) can0 DB#390E0020A4BD19F9F77E831A3FD17F15434DC116B3281D5C060300F1FFFFFFFFE0DCF4E7390F001566901A20FFFF7FCFFFFF3FFFFFFFFFFFFFE1170CB3000000
(00.183705) can0 D9#39130015AA3A1D26A0420D314F1208F1FFFFFFFFFFE10CA2C200000000000000
(00.184081) can0 DC#3910001639E81FAE2A0AFADCF034280000000000FFFFE135ECD6000000000000
(00.184464) can0 18E19490#000000A50000005001000000000000000000001A5A8E00000000010000000000000000004A4A4BEA00E9002101FE00F500F6004B4A4AE4001311001505150000
(00.185435) can0 2D#D66F2305C4090090709758626F5205000800A0FEFFFF7F4802D235FFFFFFFF00FEFFE643624500000000000000000000
(00.185958) can0 D4#39040C050E0FF4FFFF3915011445F991EDF85FF5FFFFFFFFFE07009F2801FEFFFF390C140CFFFFFFFFFDFFFFFFFFFFFFFF000000000000000000000000000000
(00.190056) can0 E3#39060B080051511400C0CFFF39042208003B867E780FFAFF
(00.192662) can0 DB#390E04105CE30B4C24B4DBFFEF2D6C71EBFFFFFF390F01064C85046020190000
(00.197498) can0 DB#390E00204E6E1AF9077F831A3FD07F15434DC116B3281D5C060300F1FFFFFFFFE212D308000000000000000000000000
(00.000336) can0 2D#3FDEAE05C4090090709758226F5205000800A0FEFFFF7F4802D235FFFFFFFF00FEFFFC688F5B00000000000000000000
(00.012363) can0 DB#390E00206D2EA5F9077F831A3FCF7F15434DC116B3281D5C060300F1FFFFFFFFF9353A62000000000000000000000000
(00.014943) can0 E3#00800004EF09E804
(00.017887) can0 DB#390F0015F586A620FFFF7FCFFFFF3FFFFFFFFFFFFFFA9808C500000000000000
(00.018663) can0 D9#391300159F63A926A042CD2F4F1208F1FFFFFFFFFFF9C67F1700000000000000
(00.019041) can0 DC#391000168405ABAE2A0AFADCF034280000000000FFFFF96158B9000000000000
(00.020303) can0 2D#20D7AF05C4090090709758226F5205000800A0FEFFFF7F4802D235FFFFFFFF00FEFFFED6843000000000000000000000
(00.020830) can0 D4#3904060490702589
(00.028720) can0 18E19490#030000970197010000000000000000020000000000000000000000000000000000B80C011000E40C00000000000054DA055016D20CC409001311001505150000
(00.030330) can0 E3#4100050800800343CBA0FE560500000CF5FCFF000000000001A3B63900000000
(00.032387) can0 DB#390E010F2C35FFFFFFFFFFFFFFEFD208BCFDFF390E002066A8A6F9077F831A3FD07FD5424DC116B3281D5C060300F1FFFFFFFFFB47B05F000000000000000000
(00.037811) can0 DB#390F00151796A720FFFF7FCFFFFF3FFFFFFFFFFFFFFC35EC0000000000000000
(00.038414) can0 D9#39130015B952AA26A042CD2F4F1208F1FFFFFFFFFFFBA411F400000000000000
(00.038793) can0 DC#391000161B6DACAE2A0AFADCF034280000000000FFFFFB2231B8000000000000
(00.040303) can0 2D#7531B005C4090090709758226F5205000800A0FEFFFF7F4802D235FFFFFFFF00FEFF00C9A3C700000000000000000000
(00.040827) can0 D4#39040C050E0FF4FFFF390C140CFFFFFFFFFDFFFFFFFFFFFFFF00000000000000
(00.044924) can0 E3#39060B080051511400C0CFFF39042208003B877E780FFAFF
(00.052436) can0 DB#390E00207E2FA7F9077F831A3FD07F15434DC116B3281D5C060300F1FFFFFFFFFD19B224000000000000000000000000
(00.054923) can0 E3#4100050801FABEE046B96B093980000C00FFAA90DAD1AFFE0346543A00000000
(00.057835) can0 DB#390F0015A963A820FFFF7FCFFFFF3FFFFFFFFFFFFFFE3CB78E00000000000000
(00.058434) can0 D9#391300159889AB26A0420D304F1208F1FFFFFFFFFFFDD6FC163913010B51BA48559500FE03BAFFEF0000000000000000
(00.058950) can0 DC#391000163FC5ADAE2A0AFADCF034280000000000FFFFFD98DB12000000000000
(00.059332) can0 18E19490#040300030003008836ED0C430D2201FA000806010101010200000000000000000000000000000000000000000000000000000000000000001311001505150000
(00.060282) can0 2D#6A38B105C4090090709758226F5205000800A0FEFFFF7F4802D235FFFFFFFF00FEFF028ECB7100000000000000000000
(00.072364) can0 DB#390E002028ACA8F9077F831A3FCF7F15434DC116B3281D5C060300F1FFFFFFFFFF0DE147000000000000000000000000
(00.077819) can0 DB#390F00154B73A920FFFF7FCFFFFF3FFFFFFFFFFFFF00F6854700000000000000
(00.078416) can0 D9#3913001536FBAC26A0420D304F1208F1FFFFFFFFFFFF0D1A9600000000000000
(00.078796) can0 DC#39100016722DAEAE2A0AFADCF034280000000000FFFFFF9F3063000000000000
(00.080282) can0 2D#4B23B205C4090090709758226F5205000800A0FEFFFF7F4802D235FFFFFFFF00FEFF045A31A500000000000000000000
(00.088718) can0 18E19490#000000A50000005001000000000000000000001A5A8E00000000010000000000000000004A4A4BEA00E9002101FE00F500F7004A4A4BDA001311001505150000
(00.092362) can0 DB#390E00200B63A9F9077F831A3FD07FD5424DC116B3281D5C060300F1FFFFFFFF010B3FE4000000000000000000000000
(00.097810) can0 DB#390F00156D42AA20FFFF7FCFFFFF3FFFFFFFFFFFFF0221643300000000000000
(00.098755) can0 DC#39100110153F413944001E12119C002205F0FFF1391000165685AFAE2A0AFADCF034280000000000FFFF011BF5600000
(00.099417) can0 D9#39130015745EAD26A0428D304F1208F1FFFFFFFFFF0136B95B00000000000000
(00.100298) can0 2D#542AB305C4090090709758226F5205000800A0FEFFFF7F4802D235FFFFFFFF00FEFF052C327900000000000000000000
(00.112362) can0 DB#390E0020A08EAAF9F77E831A3FCF7F15434DC116B3281D5C060300F1FFFFFFFF036B0930000000000000000000000000
(00.114348) can0 44#04
(00.115020) can0 E3#008000045B7FE904
(00.117886) can0 DB#390F00158F52AB20FFFF7FCFFFFF3FFFFFFFFFFFFF04AE66E100000000000000
(00.118671) can0 DC#3910001646DFB0AE2A0AFADCF034280000000000FFFF0369D92C000000000000
(00.119053) can0 D9#391300158235AE26A042CD304F1208F1FFFFFFFFFF0368E21100000000000000
(00.119432) can0 18E19490#0101003C0DF900800C0301BC02060600000000401F020000AC0D2E2B012003000002AE012C1200000202BD03A8380000AC0D401F0C28164B1311001505150000
(00.120298) can0 2D#0915B405C4090090709758226F5205000800A0FEFFFF7F4802D235FFFFFFFF00FEFF07375C3200000000000000000000
(00.120824) can0 D4#390406044CEB2689
(00.132373) can0 DB#390E010F2C35FFFFFFFFFFFFFFEFD208BCFDFF390E0020232AABF9077F831A3FD07FD5424DC116B3281D5C060300F1FFFFFFFF053FDA42000000000000000000
(00.134862) can0 D4#39040C050E0FF4FFFF3915011445F991EDF85FF5FFFFFFFFFE07009F2801FEFFFF000000000000000000000000000000
(00.135394) can0 E3#4100050800800343CBA107BE
(00.135592) can0 D4#390C083CFE7400800000086C743F2583FF7BDF01702AC501A02CE07C8FB30400009E053C400B5AD08216B4A0052D68C9486AFE7F9FE600FFC9FFFFFF833EE4FF
(00.137927) can0 DB#390F00152120AC20FFFF7FCFFFFF3FFFFFFFFFFFFF064E12AD00000000000000
(00.138483) can0 D9#39130015B593AF26A0424D314F1208F1FFFFFFFFFF056CEF4D00000000000000
(00.138860) can0 DC#391000166277B1AE2A0AFADCF034280000000000FFFF056FC311000000000000
(00.140294) can0 2D#6007B505C4090090709758626F5205000800A0FEFFFF7F4802D235FFFFFFFF00FEFF093B73B100000000000000000000
(00.144927) can0 D4#390C140CFFFFFFFFFDFFFFFFFFFFFFFF390C1608FFFFFFFFFFFFFFFF00000000
(00.145320) can0 E3#39060B080051511400C0CFFF39042208003B867E781FFAFF
(00.148808) can0 18E19490#028800646464010000009312DEBB000000000000E900EB00BD04010000000000000000004814C1058905871300000000B80C800C070F2C0D1311001505150000
(00.152392) can0 DB#390F01064C8504602019390E0020E31DACF9F77E831A3FD07F15434DC116B3281D5C060300F1FFFFFFFF072D4D550000
(00.154936) can0 E3#4100050801A0E71A97035961
(00.157820) can0 DB#390F0015C330AD20FFFF7FCFFFFF3FFFFFFFFFFFFF089CDA7300000000000000
(00.158442) can0 D9#39130015BB59B026A0430D314F1208F1FFFFFFFFFF07C6E3533913010B51BA48559500FE03BAFFEF0000000000000000
(00.158956) can0 DC#391000162F9FB2AE2A0AFADCF034280000000000FFFF07F77FC4000000000000
(00.160303) can0 2D#3707B605C4090090709758226F5205000800A0FEFFFF7F4802D235FFFFFFFF00FEFF0B64307400000000000000000000
(00.172362) can0 DB#390E00205BF1ADF9077F831A3FD07FD5424DC116B3281D5C060300F1FFFFFFFF083525FD000000000000000000000000
(00.177818) can0 DB#390F0015E501AE20FFFF7FCFFFFF3FFFFFFFFFFFFF09F1FBAA00000000000000
(00.178421) can0 D9#391300158CFFB126A0438D304F1208F1FFFFFFFFFF08EDA9CC00000000000000
(00.178798) can0 DC#391000160B37B3AE2A0AFADCF034280000000000FFFF08DEEC9E000000000000
(00.179180) can0 18E19490#0300009D019D010000000000000000020000000000000000000000000000000000B80C011000E40C00000000000054DA055516D40CC409001311001505150000
(00.180281) can0 2D#5E15B705C4090090709758626F5205000800A0FEFFFF7F4802D235FFFFFFFF00FEFF0D644FC600000000000000000000
(00.188679) can0 DC#39FE6F089401008001000000
(00.192413) can0 DB#390E0020E79CAEF9077F831A3FD07FD5424DC116B3281D5C060300F1FFFFFFFF0A255EFD000000000000000000000000
(00.197808) can0 DB#390F00150711AF20FFFF7FCFFFFF3FFFFFFFFFFFFF0B6F4C6B00000000000000
(00.198701) can0 DC#39100110153F413044002652119C002205F0FFF139100016945FB4AE2A0AFADCF034280000000000FFFF0ADCF0180000
(00.199428) can0 D9#391300151BEFB226A042CD304F1208F1FFFFFFFFFF0A19599900000000000000
(00.007548) can0 DB#390E0020CD9939F9077F831A3FCF7F15434DC116B3281D5C060300F1FFFFFFFF201EE8E2000000000000000000000000
(00.010042) can0 E3#4100050801874DFCD4E069F03980000C00FF8090DCD1AFFE278057203E800108C3027AABB709E0FF0000000000000000
(00.012896) can0 DB#390F001564AC3A20FFFF7FCFFFFF3FFFFFFFFFFFFF213246C500000000000000
(00.013366) can0 D9#391300150D5F3D26A0424D304F1208F1FFFFFFFFFF21DC6AEC3913010B51BA48559500FE03BAFFEF0000000000000000
(00.013878) can0 DC#391000162DAE3FAE2A0AFADCF034280000000000FFFF217DFF0B000000000000
(00.015319) can0 2D#E3204305C4090090709758226F5205000800A0FEFFFF7F4802D235FFFFFFFF00FEFF269EFD3500000000000000000000
(00.023624) can0 18E19490#0102003C0DF900800C0301BC02060600000000401F020000AC0D2E2B012003000002AE012C1200000202BE03B0380000AC0D401F0C11314B1311001505150000
(00.027424) can0 DB#390E00204ABC3AF9077F831A3FD07F15434DC116B3281D5C060300F1FFFFFFFF23573F54000000000000000000000000
(00.032882) can0 DB#390F001586BC3B20FFFF7FCFFFFF3FFFFFFFFFFFFF24CE7B5700000000000000
(00.033282) can0 D9#39130015E8A53E26A0428D2F4F1208F1FFFFFFFFFF23C80F3B00000000000000
(00.033659) can0 DC#39100016013E40AE2A0AFADCF034280000000000FFFF23299B27000000000000
(00.035332) can0 2D#BE1F4405C4090090709758226F5205000800A0FEFFFF7F4802D235FFFFFFFF00FEFF28C1686100000000000000000000
(00.047424) can0 DB#390E0020E5D03BF9077F831A3FCF7F15434DC116B3281D5C060300F1FFFFFFFF25D8FE3C000000000000000000000000
(00.052871) can0 DB#390F001528CE3C20FFFF7FCFFFFF3FFFFFFFFFFFFF268121BA00000000000000
(00.053510) can0 DC#39100110153F413044006E06109C002205F0FFF139100016259641AE2A0AFADCF034280000000000FFFF2586C2810000
(00.054030) can0 18E19490#028800646464010000003913E6DF000000000000E900EB00BD04010000000000020000004E14C10588057D1300000000B80C800C3D0F2C0D1311001505150000
(00.054736) can0 D9#39130015DAEF3F26A042CD2F4F1208F1FFFFFFFFFF251DA97900000000000000
(00.055361) can0 2D#A1164505C4090090709758226F5205000800A0FEFFFF7F4802D235FFFFFFFF00FEFF2AD357BC00000000000000000000
(00.065477) can0 E3#00800004193BD304
(00.067442) can0 DB#390E002032673CF9077F831A3FD07F15434DC116B3281D5C060300F1FFFFFFFF27EBB0A7000000000000000000000000
(00.069356) can0 44#04
(00.072930) can0 DB#390F0015CADE3D20FFFF7FCFFFFF3FFFFFFFFFFFFF282AF6E200000000000000
(00.073509) can0 DC#39100016687E42AE2A0AFADCF034280000000000FFFF27F18C12000000000000
(00.073892) can0 D9#39130015B11F4026A043CD304F1208F1FFFFFFFFFF27A0C6F100000000000000
(00.075335) can0 2D#800D4605C4090090709758226F5205000800A0FEFFFF7F4802D235FFFFFFFF00FEFF2CFEED0300000000000000000000
(00.075863) can0 D4#390406043CE01089
(00.083601) can0 18E19490#030000990199010000000000000000020000000000000000000000000000000000B80C011000E40C00000000000054D9055016D70CC409001311001505150000
(00.087434) can0 DB#390E010F2C35FFFFFFFFFFFFFFEFD208BCFDFF390E0020A6433DF9077F831A3FD07F15434DC116B3281D5C060300F1FFFFFFFF29880B53000000000000000000
(00.089993) can0 E3#4100050800800343CBA02C06
(00.092883) can0 DB#390F0015ECEF3E20FFFF7FCFFFFF3FFFFFFFFFFFFF2A2FC32200000000000000
(00.093354) can0 D9#3913001583554126A0438D304F1208F1FFFFFFFFFF29CFBB3100000000000000
(00.093733) can0 DC#391000164CD643AE2A0AFADCF034280000000000FFFF297858D3000000000000
(00.095335) can0 2D#9F044705C4090090709758226F5205000800A0FEFFFF7F4802D235FFFFFFFF00FEFF2ED88F9200000000000000000000
(00.095862) can0 D4#39040C050E0FF4FFFF3915011445F991E9F85FF5FFFFFFFFFE07009F2801FEFFFF390C140CFFFFFFFFFDFFFFFFFFFFFFFF000000000000000000000000000000
(00.099991) can0 E3#39060B080051511400C0CFFF39042208003BC67E782FFEFF
(00.107609) can0 DB#390F01064C8504602019390E002021663EF9077F831A3FCF7F15434DC116B3281D5C060300F1FFFFFFFF2BCA90310000
(00.109949) can0 E3#410005080167C38E992686E3
(00.112881) can0 DB#390F00150EFF3F20FFFF7FCFFFFF3FFFFFFFFFFFFF2CF803D100000000000000
(00.113359) can0 D9#3913001516404226A0438D2F4F1208F1FFFFFFFFFF2B25C5B63913010B51BA48559500FE03BAFFEF0000000000000000
(00.113870) can0 DC#39100016D3BE44AE2A0AFADCF034280000000000FFFF2BEABAEB000000000000
(00.114253) can0 18E19490#040300030003008836ED0C430D2201F9000806010101010200000000000000000000000000000000000000000000000000000000000000001311001505150000
(00.115311) can0 2D#3A734805C4090090709758226F5205000800A0FEFFFF7F4802D235FFFFFFFF00FEFF3037A1BF00000000000000000000
(00.127424) can0 DB#390E00202E613FF9F77E831A3FD07F15434DC116B3281D5C060300F1FFFFFFFF2D06F890000000000000000000000000
(00.132879) can0 DB#390F0015B7504020FFFF7FCFFFFF3FFFFFFFFFFFFF2EC0AC2600000000000000
(00.133288) can0 D9#39130015952B4326A0428D2F4F1208F1FFFFFFFFFF2D29AEB700000000000000
(00.133664) can0 DC#39100016C2BB45AE2A0AFADCF434280000000000FFFF2DA5F9FC000000000000
(00.135315) can0 2D#257A4905C4090090709758226F5205000800A0FEFFFF7F4802D235FFFFFFFF00FEFF3260E22300000000000000000000
(00.143621) can0 18E19490#000000A50000005001000000000000000000001A5A8F00000000010000000000000000004A4A4BEA00E80020010101F500F7004A4A4B13011311001505150000
(00.147423) can0 DB#390E002057ED40F9F77E831A3FCF7F15434DC116B3281D5C060300F1FFFFFFFF2FCC854B000000000000000000000000
(00.152870) can0 DB#390F001555404120FFFF7FCFFFFF3FFFFFFFFFFFFF3033002100000000000000
(00.153593) can0 DC#39100110153F413044007606109C002205F0FFF139100016BAFE46AE2A0AFADCF034280000000000FFFF2F03CA870000
(00.154337) can0 D9#39130015887D4426A0428D304F1208F1FFFFFFFFFF2FB0AFB600000000000000
(00.155384) can0 2D#727A4A05C4090090709758626F5205000800A0FEFFFF7F4802D235FFFFFFFF00FEFF3488690900000000000000000000
(00.165347) can0 E3#00800004346AD404
(00.167441) can0 DB#390E002058EA41F9077F831A3FD07F15434DC116B3281D5C060300F1FFFFFFFF3112E698000000000000000000000000
(00.172930) can0 DB#390F001573714220FFFF7FCFFFFF3FFFFFFFFFFFFF32FA1BCE00000000000000
(00.173541) can0 DC#391000169E5647AE2A0AFADCF034280000000000FFFF315B21BD000000000000
(00.173922) can0 D9#39130015CF344526A042CD314F1208F1FFFFFFFFFF31A8F96100000000000000
(00.174298) can0 18E19490#0102003C0DF900800C0301BC02060600000000401F020000AC0D2E2B012003000002AD012E1200000202BC03A8380000AC0D401F0C130D4B1311001505150000
(00.175336) can0 2D#6D734B05C4090090709758626F5205000800A0FEFFFF7F4802D235FFFFFFFF00FEFF3682AA9D00000000000000000000
(00.175859) can0 D4#3904060488961189
(00.185386) can0 E3#4100050800800343CBA036700500000CF5FCFF00000000003991F0E400000000
(00.187446) can0 DB#390E010F2C35FFFFFFFFFFFFFFEFD208BCFDFF390E002044EC42F9F77E831A3FD07F15434DC116B3281D5C060300F1FFFFFFFF335CAA86000000000000000000
(00.192868) can0 DB#390F001591614320FFFF7FCFFFFF3FFFFFFFFFFFFF3416675300000000000000
(00.193353) can0 D9#39130015395F4626A0428D314F1208F1FFFFFFFFFF333D41EA00000000000000
(00.193731) can0 DC#39100016842F48AE2A0AFADCF034280000000000FFFF33C3788F000000000000
(00.195324) can0 2D#46574C05C4090090709758226F5205000800A0FEFFFF7F4802D235FFFFFFFF00FEFF386A9F0000000000000000000000
(00.195850) can0 D4#39040C050E0FF4FFFF390C140CFFFFFFFFFDFFFFFFFFFFFFFF00000000000000
(00.005915) can0 DB#390E0020F860D2F9F77E831A3FCE7F15434DC116B3281D5C060300F1FFFFFFFF527FDF24000000000000000000000000
(00.008554) can0 4F#289F0A000A097BBB
(00.011258) can0 DB#390F0015988FD320FFFF7FCFFFFF3FFFFFFFFFFFFF533932C100000000000000
(00.011646) can0 DC#39100110153F41004400C612119C002205F0FFF539100016FF04D8AE2A0AFADCF034280000000000FFFF53F3EC0E0000
(00.012168) can0 18E19490#028800646464010000009512E6DF000000000000E900EB00BC04010001000100FFFF00004D14C0058A05881300000000B80C800C380F2C0D1311001505150000
(00.013074) can0 D9#3913001532B4D626A043CD2E4F1208F1FFFFFFFFFF53AED1ED00000000000000
(00.013696) can0 2D#C412DC05C4090090709758626F5205000800A0FEFFFF7F4802D235FFFFFFFF00FEFF58D3C78F00000000000000000000
(00.018291) can0 E3#3A020004F4FFFFFF
(00.023718) can0 E3#008000044D5BBE04
(00.025827) can0 DB#390E00202D7AD3F9F77E831A3FD07FD5424DC116B3281D5C060300F1FFFFFFFF5445A9C5000000000000000000000000
(00.031316) can0 DB#390F001536FDD420FFFF7FCFFFFF3FFFFFFFFFFFFF55A61B3200000000000000
(00.031702) can0 D9#391300151486D726A0428D2F4F1208F1FFFFFFFFFF55947ABB00000000000000
(00.032077) can0 DC#39100016DBACD9AE2A0AFADCF034280000000000FFFF55296B1B000000000000
(00.033707) can0 2D#DB1BDD05C4090090709758626F5205000800A0FEFFFF7F4802D235FFFFFFFF00FEFF5AB4DD6000000000000000000000
(00.034230) can0 D4#39040604C97AFB89
(00.038357) can0 E3#02800008F868920183331883
(00.041763) can0 18E19490#030000960196010000000000000000020000000000000000000000000000000000B80C011000E40C00000000000054D9055516D50CC409001311001505150000
(00.043727) can0 E3#4100050800800343CB9F5A1F0500000CF5FCFF00000000005DA0F92600000000
(00.045946) can0 DB#390E010F2C35FFFFFFFFFFFFFFEFD208BCFDFF390E002080BBD4F9F77E831A3FCE7F15434DC116B3281D5C060300F1FFFFFFFF56F4961D000000000000000000
(00.051256) can0 DB#390F0015D4EDD520FFFF7FCFFFFF3FFFFFFFFFFFFF579CCE0900000000000000
(00.051731) can0 DC#391000169644DAAE2A0AFADCF034280000000000FFFF570CC383000000000000
(00.052112) can0 D9#3913001569B8D826A0424D304F1208F1FFFFFFFFFF572ACDC300000000000000
(00.053737) can0 2D#FA00DE05C4090090709758626F5205000800A0FEFFFF7F4802D235FFFFFFFF00FEFF5C4D1E3800000000000000000000
(00.054263) can0 D4#39040C050E0FF4FFFF390C140CFFFFFFFFFDFFFFFFFFFFFFFF00000000000000
(00.058312) can0 E3#39060B080051511400C0CFFF39042208003B877E780FFAFF
(00.065981) can0 DB#390E0020E24AD5F9F77E831A3FCF7F15434DC116B3281D5C060300F1FFFFFFFF58D44CD0000000000000000000000000
(00.068342) can0 E3#41000508015E31BA671747553980000C007FB290DED1AFFE5F31B6F03E800108C3027AABB709E0FF0000000000000000
(00.071282) can0 DB#390F0015F2DCD620FFFF7FCFFFFF3FFFFFFFFFFFFF59C1EAE500000000000000
(00.071669) can0 DC#39100016B2ECDBAE2A0AFADCF034280000000000FFFF594F9998000000000000
(00.072051) can0 D9#39130015FB47D926A0428D304F1208F1FFFFFFFFFF59735D6D3913010B51BA38559500FE03BAFFEF0000000000000000
(00.072564) can0 18E19490#040300030003008836EE0C430D2201F9000806010101010200000000000000000000000000000000000000000000000000000000000000001311001505150000
(00.073675) can0 2D#E509DF05C4090090709758626F5205000800A0FEFFFF7F4802D235FFFFFFFF00FEFF5ECBD3D700000000000000000000
(00.085912) can0 DB#390E00205E27D6F9F77E831A3FCF7F15434DC116B3281D5C060300F1FFFFFFFF5BF93ED3000000000000000000000000
(00.091266) can0 DB#390F001510CCD720FFFF7FCFFFFF3FFFFFFFFFFFFF5CF5F1A600000000000000
(00.091652) can0 DC#391000162D84DCAE2A0AFADCF034280000000000FFFF5B77AC24000000000000
(00.092032) can0 D9#39130015AD99DA26A0424D304F1208F1FFFFFFFFFF5B83A74D00000000000000
(00.093675) can0 2D#71DCE005C4090090709758626F5205000800A0FEFFFF7F4802D235FFFFFFFF00FEFF609004FA00000000000000000000
(00.101766) can0 18E19490#000000A50000005001000000000000000000001A5A8E00000000010000000000000000004A4A4BEB00E8002001FE00F400F600494A4A1D011311001505150000
(00.105914) can0 DB#390E00203CD6D7F9F77E831A3FCE7F15434DC116B3281D5C060300F1FFFFFFFF5D9B459F000000000000000000000000
(00.111256) can0 DB#390F0015AE39D820FFFF7FCFFFFF3FFFFFFFFFFFFF5E30125F00000000000000
(00.111757) can0 DC#39100110153F41004400CE020D9C002205F0FFF539100016092CDDAE2A0AFADCF034280000000000FFFF5D67EE0F0000
(00.113226) can0 D9#39130015EF3CDB26A042CD304F1208F1FFFFFFFFFF5DB6E20100000000000000
(00.113694) can0 2D#6ED5E105C4090090709758626F5205000800A0FEFFFF7F4802D235FFFFFFFF00FEFF628F520200000000000000000000
(00.123718) can0 E3#00800004F92DBF04
(00.125826) can0 DB#390E00203CEBD8F9077F831A3FD07F15434DC116B3281D5C060300F1FFFFFFFF5F48046E000000000000000000000000
(00.127738) can0 44#04
(00.131314) can0 DB#390F00154C29D920FFFF7FCFFFFF3FFFFFFFFFFFFF60BB0B2200000000000000
(00.131700) can0 D9#391300159114DC26A0428D304F1208F1FFFFFFFFFF5FE0D66800000000000000
(00.132078) can0 DC#3910001644C4DEAE2A0AFADCF034280000000000FFFF5FE9412E000000000000
(00.132460) can0 18E19490#0102003C0DF900800C0301BC02060600000000401F020000AC0D2E2B012003000002B3012C1200000202BF03A8380000AC0D401F0C63034B1311001505150000
(00.133698) can0 2D#4FCEE205C4090090709758626F5205000800A0FEFFFF7F4802D235FFFFFFFF00FEFF64D3C75300000000000000000000
(00.134222) can0 D4#39040604E42BFC89
(00.145922) can0 DB#390E010F2C35FFFFFFFFFFFFFFEFD208BCFDFF390E00206552D9F9077F831A3FCE7F15434DC116B3281D5C060300F1FFFFFFFF611CB060000000000000000000
(00.148355) can0 E3#4100050800800343CB9F6410
(00.151267) can0 DB#390F00156A18DA20FFFF7FCFFFFF3FFFFFFFFFFFFF62CEB6F100000000000000
(00.151651) can0 DC#39100016606CDFAE2A0AFADCF034280000000000FFFF61C8125E000000000000
(00.152034) can0 D9#39130015107ADD26A042CD2F4F1208F1FFFFFFFFFF6194AF6400000000000000
(00.153690) can0 2D#26DCE305C4090090709758226F5205000800A0FEFFFF7F4802D235FFFFFFFF00FEFF66EC027500000000000000000000
(00.154214) can0 D4#39040C050E0FF4FFFF3915011445F991EDF85FF5FFFFFFFFFE07009F2801FEFFFF390C140CFFFFFFFFFDFFFFFFFFFFFFFF000000000000000000000000000000
(00.158282) can0 E3#39060B080051511400C0CFFF39042208003BC67E782FFEFF
(00.161856) can0 18E19490#0288006464640100000095120EC3000000000000E800EB00BC04010001000100010000004D14BF058A058A1300000000B80C800C030F2C0D1311001505150000
(00.165940) can0 DB#390F01064C8504602019390E00209801DAF9077F831A3FD07FD5424DC116B3281D5C060300F1FFFFFFFF63C0F9A30000
(00.168316) can0 E3#41000508019EA3812A12CEA5
(00.171267) can0 DB#390F00158808DB20FFFF7FCFFFFF3FFFFFFFFFFFFF646DEEF900000000000000
(00.171739) can0 DC#391000166470E0AE2A0AFADCF034280000000000FFFF63BD6114000000000000
(00.172120) can0 D9#3913001594FBDE26A0430D304F1208F1FFFFFFFFFF63A102CB3913010B51BA38559500FE03BAFFEF0000000000000000
(00.173738) can0 2D#7BE3E405C4090090709758226F5205000800A0FEFFFF7F4802D235FFFFFFFF00FEFF68FCC94200000000000000000000
(00.185911) can0 DB#390E0020ED70DBF9F77E831A3FCE7F15434DC116B3281D5C060300F1FFFFFFFF654AD404000000000000000000000000
(00.191263) can0 DB#390F0015267ADC20FFFF7FCFFFFF3FFFFFFFFFFFFF66DCBC8C00000000000000
(00.191647) can0 DC#3910001640D8E1AE2A0AFADCF034280000000000FFFF650FB3F7000000000000
(00.192030) can0 D9#391300150401DF26A0428D2F4F1208F1FFFFFFFFFF6575F95400000000000000
(00.192410) can0 18E19490#030000930193010000000000000000010000000000000000000000000000000000B80C011000E40C00000000000054DA055316D50CC409001311001505150000
(00.193674) can0 2D#64EAE505C4090090709758226F5205000800A0FEFFFF7F4802D235FFFFFFFF00FEFF6AB1073B00000000000000000000
(00.001862) can0 DB#390E0020198763F9F77E831A3FCE7F15434DC116B3281D5C060300F1FFFFFFFF7535EFCF000000000000000000000000
(00.006940) can0 DB#390F00153D2F6420FFFF7FCFFFFF3FFFFFFFFFFFFF76604DA300000000000000
(00.007325) can0 D9#391300159B496727A0420D2F4F1208F1FFFFFFFFFF7580827500000000000000
(00.007704) can0 DC#39100016B4C169AE2A0AFADCF034280000000000FFFF75158BE9000000000000
(00.008086) can0 18E19490#030000990199010000000000000000020000000000000000000000000000000000B80C011000E40C00000000000054D9055316D40CC409001311001505150000
(00.009455) can0 2D#EE766D05C4090090709758626F5205000800A0FEFFFF7F4802D235FFFFFFFF00FEFF7A18E52400000000000000000000
(00.021862) can0 DB#390E002003AD64F9F77E831A3FCF7F15434DC116B3281D5C060300F1FFFFFFFF77653F44000000000000000000000000
(00.026932) can0 DB#390F0015DF3F6520FFFF7FCFFFFF3FFFFFFFFFFFFF783E777900000000000000
(00.027320) can0 DC#39100110153F413044001616119C002205F0FFF139100016F9296AAE2A0AFADCF034280000000000FFFF77CB33DC0000
(00.028623) can0 D9#3913001520506827A042CD2E4F1208F1FFFFFFFFFF778BD6BF00000000000000
(00.029466) can0 2D#CF6D6E05C4090090709758626F5205000800A0FEFFFF7F4802D235FFFFFFFF00FEFF7B08E1CF00000000000000000000
(00.037340) can0 18E19490#040300030003007E36ED0C430D2201FA000806010101010200000000000000000000000000000000000000000000000000000000000000001311001505150000
(00.039494) can0 E3#008000047367A804
(00.041691) can0 DB#390E0020615C65F9F77E831A3FCE7F15434DC116B3281D5C060300F1FFFFFFFF790DEC7A000000000000000000000000
(00.047128) can0 DB#390F0015F90E6620FFFF7FCFFFFF3FFFFFFFFFFFFF7A7E515500000000000000
(00.047514) can0 D9#3913001517F66927A0424D2F4F1208F1FFFFFFFFFF79B835F500000000000000
(00.047892) can0 DC#39100016E82C6BAE2A0AFADCF434280000000000FFFF79476BF7000000000000
(00.049498) can0 2D#D0646F05C4090090709758626F5205000800A0FEFFFF7F4802D235FFFFFFFF00FEFF7D83874B00000000000000000000
(00.050023) can0 D4#3904060434C3E589
(00.059515) can0 E3#4100050800800343CB9E7D080500000CF5FCFF0000000000819FBE7600000000
(00.061886) can0 DB#390E010F2C35FFFFFFFFFFFFFFEFD208BCFDFF390E00207D5A66F9077F831A3FCE7F15434DC116B3281D5C060300F1FFFFFFFF7BEC62F2000000000000000000
(00.066929) can0 DB#390F00151B1E6720FFFF7FCFFFFF3FFFFFFFFFFFFF7C6A115400000000000000
(00.067314) can0 D9#39130015F20C6A27A0428D304F1208F1FFFFFFFFFF7BFF754600000000000000
(00.067694) can0 DC#3910001642E96CAE2A0AFADCF034280000000000FFFF7BA4906C000000000000
(00.068076) can0 18E19490#000000A50000005001000000000000000000001A5A8E00000000010000000000000000004A4A4BEB00E9002001FE00F500F6004A4A49E4001311001505150000
(00.069470) can0 2D#85827005C4090090709758626F5205000800A0FEFFFF7F4802D235FFFFFFFF00FEFF7F65EA3300000000000000000000
(00.069994) can0 D4#39040C050E0FF4FFFF390C140CFFFFFFFFFDFFFFFFFFFFFFFF00000000000000
(00.074066) can0 E3#39060B080051511400C0CFFF39042208003B877E780FFAFF
(00.081882) can0 DB#390E00201FAB67F9077F831A3FCF7F15434DC116B3281D5C060300F1FFFFFFFF7D13A18E000000000000000000000000
(00.084112) can0 E3#4100050801E5935580BC62CF3980000C007FA090E0D1AFFE830666A900000000
(00.086955) can0 DB#390F0015A5EB6820FFFF7FCFFFFF3FFFFFFFFFFFFF7E35F9F800000000000000
(00.087343) can0 D9#39130015C5AA6B27A0420D314F1208F1FFFFFFFFFF7D547EBC3913010B51BA38559500FE03BAFFEF0000000000000000
(00.087856) can0 DC#3910001666416DAE2A0AFADCF034280000000000FFFF7DBD6B52000000000000
(00.089458) can0 2D#EC907105C4090090709758226F5205000800A0FEFFFF7F4802D235FFFFFFFF00FEFF81DA967100000000000000000000
(00.097368) can0 18E19490#0102003C0DF900800C0301BC02060600000000401F020000AC0D2E2B012003000002AE012A1200000202BF03B8380000AC0D401F0C4C1D4B1311001505150000
(00.101859) can0 DB#390E002084B568F9077F831A3FCE7F15434DC116B3281D5C060300F1FFFFFFFF7EFFFC21000000000000000000000000
(00.106939) can0 DB#390F001547FB6920FFFF7FCFFFFF3FFFFFFFFFFFFF7F534B1A00000000000000
(00.107325) can0 D9#391300157FA06C27A0430D304F1208F1FFFFFFFFFF7E24384300000000000000
(00.107704) can0 DC#391000162BA96EAE2A0AFADCF034280000000000FFFF7EF9F163000000000000
(00.109574) can0 2D#CD8B7205C4090090709758226F5205000800A0FEFFFF7F4802D235FFFFFFFF00FEFF83255E0100000000000000000000
(00.121861) can0 DB#390E0020462F69F9F77E831A3FCF7F15434DC116B3281D5C060300F1FFFFFFFF80D0644C000000000000000000000000
(00.126928) can0 DB#390F001561CA6A20FFFF7FCFFFFF3FFFFFFFFFFFFF816FD32B00000000000000
(00.127315) can0 DC#39100110153F413944001E12119C002205F0FFF1391000160F016FAE2A0AFADCF034280000000000FFFF80DC56730000
(00.127836) can0 18E19490#02880064646401000000A212D6A2000000000000E800EB00BC04010000000000000000004714B9058B05871300000000B80C800C410F2C0D1311001505150000
(00.128540) can0 D9#391300152E946D27A0430D2F4F1208F1FFFFFFFFFF80B8BCA500000000000000
(00.129466) can0 2D#D2827305C4090090709758226F5205000800A0FEFFFF7F4802D235FFFFFFFF00FEFF86CCDDDB00000000000000000000
(00.139504) can0 E3#00800004C711A904
(00.141636) can0 DB#390E0020ACFC6AF9077F831A3FCE7F15434DC116B3281D5C060300F1FFFFFFFF8288A80A000000000000000000000000
(00.143501) can0 44#04
(00.147127) can0 DB#390F001583DA6B20FFFF7FCFFFFF3FFFFFFFFFFFFF834125DD00000000000000
(00.147516) can0 D9#3913001569DE6E27A0420D2F4F1208F1FFFFFFFFFF819A622A00000000000000
(00.147893) can0 DC#391000161F5B70AE2A0AFADCF034280000000000FFFF82233FFF000000000000
(00.149486) can0 2D#F9A67405C4090090709758626F5205000800A0FEFFFF7F4802D235FFFFFFFF00FEFF88C3A43200000000000000000000
(00.150010) can0 D4#39040604E858E689
(00.157351) can0 18E19490#0300009F019F010000000000000000020000000000000000000000000000000000B80C011000E40C00000000000054D9055B16D80CC409001311001505150000
(00.161868) can0 DB#390E010F2C35FFFFFFFFFFFFFFEFD208BCFDFF390E002038D86BF9077F831A3FCE7F15434DC116B3281D5C060300F1FFFFFFFF84D84A6F000000000000000000
(00.164125) can0 E3#4100050800800343CB9E8803
(00.166938) can0 DB#390F00152DA86C20FFFF7FCFFFFF3FFFFFFFFFFFFF8537197400000000000000
(00.167325) can0 D9#3913001538EA6F27A0420D304F1208F1FFFFFFFFFF8352871500000000000000
(00.167703) can0 DC#391000163BF371AE2A0AFADCF034280000000000FFFF844822D7000000000000
(00.169485) can0 2D#90B47505C4090090709758226F5205000800A0FEFFFF7F4802D235FFFFFFFF00FEFF8A3298E100000000000000000000
(00.170008) can0 D4#39040C050E0FF4FFFF3915011445F991EDF85FF5FFFFFFFFFE07009F2801FEFFFF390C140CFFFFFFFFFDFFFFFFFFFFFFFF000000000000000000000000000000
(00.174095) can0 E3#39060B080051511400C0CFFF39042208003B867E780FFAFF
(00.174420) can0 4F#209E06A000499B9E
(00.181940) can0 DB#390F01064C8504602019390E0020D4276CF9077F831A3FCE7F15434DC116B3281D5C060300F1FFFFFFFF866D40B90000
(00.184110) can0 E3#41000508017D367F5BBB7FD4
(00.186938) can0 DB#390F0015CFB86D20FFFF7FCFFFFF3FFFFFFFFFFFFF87DAC04500000000000000
(00.187328) can0 D9#3913001527B47027A0428D304F1208F1FFFFFFFFFF85E463E83913010B51BA38559500FE03BAFFEF0000000000000000
(00.187842) can0 DC#39100016761B72AE2A0AFADCF034280000000000FFFF863BD4D9000000000000
(00.188222) can0 18E19490#040300030003007E36ED0C430D2201FA000806010101010200000000000000000000000000000000000000000000000000000000000000001311001505150000
(00.189458) can0 2D#B1AF7605C4090090709758226F5205000800A0FEFFFF7F4802D235FFFFFFFF00FEFF8C3F1B0C00000000000000000000
(00.189984) can0 DC085B#4003080400000000
(00.000597) can0 2D#990F0B05C4090090709758226F5205000800A0FEFFFF7F4802D235FFFFFFFF00FEFFB56BF60600000000000000000000
(00.001123) can0 D4#390406042C25D189
(00.008296) can0 18E19490#0300009F019F010000000000000000020000000000000000000000000000000000B80C011000E40C00000000000054DA055016D20CC409001311001505150000
(00.010626) can0 E3#4100050800800343CB9DB5B00500000CF5FCFF0000000000B906C2C400000000
(00.012998) can0 DB#390E010F2C35FFFFFFFFFFFFFFEFD208BCFDFF390E0020F67B02F9077F831A3FCF7F15434DC116B3281D5C060300F1FFFFFFFFB375C8C1000000000000000000
(00.018068) can0 DB#390F001595190320FFFF7FCFFFFF3FFFFFFFFFFFFFB448788B00000000000000
(00.018454) can0 D9#39130015AAAB0627A0428D2E4F1208F1FFFFFFFFFFB30112CC00000000000000
(00.018831) can0 DC#39100016ACA308AE2A0AFADCF034280000000000FFFFB30FF239000000000000
(00.020596) can0 2D#C4300C05C4090090709758226F5205000800A0FEFFFF7F4802D235FFFFFFFF00FEFFB7F5FDF800000000000000000000
(00.021125) can0 D4#39040C050E0FF4FFFF390C140CFFFFFFFFFDFFFFFFFFFFFFFF00000000000000
(00.025206) can0 E3#39060B080051511400C0CFFF39042208003B877E780FFAFF
(00.033029) can0 DB#390E0020625F03F9077F831A3FCF7F15434DC116B3281D5C060300F1FFFFFFFFB53C7543000000000000000000000000
(00.035230) can0 E3#4100050801578CB3ECA6EB993980000C00FF8190E2D1AFFEBBF3AF2600000000
(00.038094) can0 DB#390F00153B6B0420FFFF7FCFFFFF3FFFFFFFFFFFFFB65A8D0900000000000000
(00.038480) can0 D9#3913001529C00727A0438D2E4F1208F1FFFFFFFFFFB59B47EE3913010B51BA38559500FE03BAFFEF0000000000000000
(00.038993) can0 DC#39100016880B09AE2A0AFADCF034280000000000FFFFB5C9DE5D000000000000
(00.039374) can0 18E19490#040300030003008836EB0C430D2201F9000806010101010200000000000000000000000000000000000000000000000000000000000000001311001505150000
(00.040573) can0 2D#DB390D05C4090090709758226F5205000800A0FEFFFF7F4802D235FFFFFFFF00FEFFB936249300000000000000000000
(00.052972) can0 DB#390E0020D81E04F9F77E831A3FCE7F15434DC116B3281D5C060300F1FFFFFFFFB6BE6840000000000000000000000000
(00.058077) can0 DB#390F0015D97B0520FFFF7FCFFFFF3FFFFFFFFFFFFFB7A87DDD00000000000000
(00.058464) can0 D9#39130015F64E0827A0428D2E4F1208F1FFFFFFFFFFB6E3441D00000000000000
(00.058843) can0 DC#39100016C5E30AAE2A0AFADCF034280000000000FFFFB6B33CEF000000000000
(00.060578) can0 2D#FA220E05C4090090709758226F5205000800A0FEFFFF7F4802D235FFFFFFFF00FEFFBB6915D800000000000000000000
(00.068272) can0 18E19490#000000A50000005001000000000000000000001A5A8E00000000010000000000000000004A4A4BEA00E9002001FE00F500F7004A4A4A2A011311001505150000
(00.072972) can0 DB#390E00204C3A05F9F77E831A3FCE7F15434DC116B3281D5C060300F1FFFFFFFFB8DE2CC0000000000000000000000000
(00.078067) can0 DB#390F0015FF4A0620FFFF7FCFFFFF3FFFFFFFFFFFFFB916ACEC00000000000000
(00.078454) can0 DC#39100110153F413244007E06119C002205F0FFF139100016E14B0BAE2A0AFADCF034280000000000FFFFB81F9DF00000
(00.079293) can0 D9#39130015C1E80927A0420D2F4F1208F1FFFFFFFFFFB84F8FF400000000000000
(00.080672) can0 2D#93300F05C4090090709758626F5205000800A0FEFFFF7F4802D235FFFFFFFF00FEFFBEF588F200000000000000000000
(00.090609) can0 E3#008000041C729504
(00.092776) can0 DB#390E0020A6E906F9077F831A3FCF7F15434DC116B3281D5C060300F1FFFFFFFFBAB9D5AC000000000000000000000000
(00.094646) can0 44#04
(00.098155) can0 DC#391000167E230CAE2A0AFADCF034280000000000FFFFBAD45C4E000000000000
(00.098536) can0 DB#390F00151D5A0720FFFF7FCFFFFF3FFFFFFFFFFFFFBB4A459B00000000000000
(00.098922) can0 D9#39130015834E0A27A043CD2E4F1208F1FFFFFFFFFFB918566900000000000000
(00.099299) can0 18E19490#0102003C0DF900800C0301BC02060600000000401F020000AC0D2E2B012003000002AD012B1200000202BE03B8380000AC0D401F0C39214B1311001505150000
(00.100598) can0 2D#C6D61005C4090090709758626F5205000800A0FEFFFF7F4802D235FFFFFFFF00FEFFC063730C00000000000000000000
(00.101123) can0 D4#39040604F0BED289
(00.112981) can0 DB#390E010F2C35FFFFFFFFFFFFFFEFD208BCFDFF390E002092A607F9F77E831A3FCF7F15434DC116B3281D5C060300F1FFFFFFFFBC72D1A7000000000000000000
(00.115239) can0 E3#4100050800800343CB9DC0F3
(00.118078) can0 DB#390F0015A3AF0820FFFF7FCFFFFF3FFFFFFFFFFFFFBDF3D6F000000000000000
(00.118465) can0 D9#39130015A0900B27A0424D2E4F1208F1FFFFFFFFFFBBA1110A00000000000000
(00.118843) can0 DC#391000165A8B0DAE2A0AFADCF034280000000000FFFFBC0305EF000000000000
(00.120589) can0 2D#AFC41105C4090090709758226F5205000800A0FEFFFF7F4802D235FFFFFFFF00FEFFC28DD17D00000000000000000000
(00.121117) can0 D4#39040C050E0FF4FFFF3915011445F991E9F85FF5FFFFFFFFFE07009F2801FEFFFF390C140CFFFFFFFFFDFFFFFFFFFFFFFF000000000000000000000000000000
(00.125202) can0 E3#39060B080051511400C0CFFF39042208003B867E780FFAFF
(00.125515) can0 4F#208E02A000499B9C
(00.128363) can0 18E19490#028800646464010000009412BFD7000000000000E900EB00BF04010000000000000000004D14B9058A05881300000000B80C800C340F2C0D1311001505150000
(00.132985) can0 DB#390F01064C8504600019390E0020FF6D08F9F77E831A3FCF7F15434DC116B3281D5C060300F1FFFFFFFFBE3793400000
(00.135226) can0 E3#4100050801A62485A440E78B
(00.138076) can0 DB#390F001541BF0920FFFF7FCFFFFF3FFFFFFFFFFFFFBFB7082300000000000000
(00.138466) can0 D9#39130015DEB80C27A0420D2E4F1208F1FFFFFFFFFFBDF062B53913010B51BA38559500FE03BAFFEF0000000000000000
(00.138980) can0 DC#3910001617630EAE2A0AFADCF034280000000000FFFFBE2F02DB000000000000
(00.140588) can0 2D#F8C41205C4090090709758626F5205000800A0FEFFFF7F4802D235FFFFFFFF00FEFFC43BBA6200000000000000000000
(00.141114) can0 DC085B#4003080400000000
(00.152970) can0 DB#390E00203DF709F9077F831A3FCE7F15434DC116B3281D5C060300F1FFFFFFFFC167072E000000000000000000000000
(00.158076) can0 DB#390F0015678E0A20FFFF7FCFFFFF3FFFFFFFFFFFFFC16177C700000000000000
(00.158464) can0 D9#391300158D890D27A0434D2E4F1208F1FFFFFFFFFFC1A9209500000000000000
(00.158841) can0 DC#3910001633CB0FAE2A0AFADCF034280000000000FFFFC1A2DC50000000000000
(00.159225) can0 18E19490#030000A001A0010000000000000000020000000000000000000000000000000000B80C011000E40C00000000000054D9055916D70CC409001311001505150000
(00.160573) can0 2D#E7CD1305C4090090709758626F5205000800A0FEFFFF7F4802D235FFFFFFFF00FEFFC692980800000000000000000000
(00.173033) can0 DB#390E0020774F0AF9077F831A3FCF7F15434DC116B3281D5C060300F1FFFFFFFFC2B70FF9000000000000000000000000
(00.175487) can0 4F#28D902000A0C2BCB
(00.178065) can0 DB#390F0015859E0B20FFFF7FCFFFFF3FFFFFFFFFFFFFC3D8162B00000000000000
(00.178452) can0 DC#39100110153F418244008646119C002205F0FFF139100016239110AE2A0AFADCF034280000000000FFFFC37B0CDF0000
(00.179307) can0 D9#391300156F9A0E27A0420D2F4F1208F1FFFFFFFFFFC325323D00000000000000
(00.180571) can0 2D#CCE91405C4090090709758226F5205000800A0FEFFFF7F4802D235FFFFFFFF00FEFFC805312700000000000000000000
(00.181096) can0 E3#3A020004F4FFFFFF
(00.188288) can0 18E19490#040300030003008836ED0C430D2201F9000806010101010200000000000000000000000000000000000000000000000000000000000000001311001505150000
(00.190610) can0 E3#00800004C0E99604
(00.192773) can0 DB#390E002015BE0BF9077F831A3FCE7F15434DC116B3281D5C060300F1FFFFFFFFC49165C6000000000000000000000000
(00.198231) can0 DC#39100016073911AE2A0AFADCF034280000000000FFFFC5FC7590000000000000
(00.198614) can0 D9#39130015F8890F27A0420D2E4F1208F1FFFFFFFFFFC5A9579200000000000000
(00.198992) can0 DB#390F00152BEC0C20FFFF7FCFFFFF3FFFFFFFFFFFFFC5A9CC7A00000000000000
(00.001088) can0 2D#1A0A2D05C4090090709758226F5205000800A0FEFFFF7F4802D235FFFFFFFF00FEFFF96E2A0F00000000000000000000
(00.008280) can0 DC#39FE6F089401008001000000
(00.008478) can0 18E19490#000000A50000005001000000000000000000001A5A8E00000000010000000000000000004A4A4BEA00E9001E01FD00F500F6004A4A4B16011311001505150000
(00.013466) can0 DB#390E00208A7224F9077F831A3FCF7F15434DC116B3281D5C060300F1FFFFFFFFF6F2F745000000000000000000000000
(00.018374) can0 DC#39100110153F413044001616119C002205F0FFF139100016D1A52AAE2A0AFADCF034280000000000FFFFF6DE28D80000
(00.018893) can0 DB#390F0015DB472520FFFF7FCFFFFF3FFFFFFFFFFFFFF757A86900000000000000
(00.019606) can0 D9#39130015CBC22827A0420D2D4F1208F1FFFFFFFFFFF65BFDF600000000000000
(00.021102) can0 2D#3B112E05C4090090709758226F5205000800A0FEFFFF7F4802D235FFFFFFFF00FEFFFCDDF5C000000000000000000000
(00.031122) can0 E3#00800004D7D46804
(00.033461) can0 DB#390E0020D3ED25F9077F831A3FCD7F15434DC116B3281D5C060300F1FFFFFFFFF8EE6D4D000000000000000000000000
(00.038292) can0 DC#39100016F50D2BAE2A0AFADCF034280000000000FFFFF81A887B000000000000
(00.038674) can0 18E19490#0102003C0DF900800C0301BC02060600000000401F020000AC0D2E2B012003000002AE012F1200000202BE03A8380000AC0D401F0C0C224B1311001505150000
(00.039379) can0 D9#39130015593D2927A042CD2D4F1208F1FFFFFFFFFFF780498300000000000000
(00.039758) can0 DB#390F0015FD762620FFFF7FCFFFFF3FFFFFFFFFFFFFF98F10AB00000000000000
(00.041200) can0 2D#24182F05C4090090709758226F5205000800A0FEFFFF7F4802D235FFFFFFFF00FEFFFE1F553300000000000000000000
(00.041729) can0 D4#39040604A8ADA589
(00.051286) can0 E3#4100050800800343CB9BFEE10500000CF5FCFF0000000000014DBD2500000000
(00.053489) can0 DB#390E010F2C35FFFFFFFFFFFFFFEFD208BCFDFF390E00206F8026F9077F831A3FCD7F15434DC116B3281D5C060300F1FFFFFFFFFAAC1540000000000000000000
(00.058296) can0 DC#391000166A652CAE2A0AFADCF034280000000000FFFFFA1C201B000000000000
(00.058678) can0 DB#390F00151F662720FFFF7FCFFFFF3FFFFFFFFFFFFFFBC7802000000000000000
(00.059066) can0 D9#3913001530532A27A0428D2E4F1208F1FFFFFFFFFFF9FA48F100000000000000
(00.061106) can0 2D#71FE3005C4090090709758226F5205000800A0FEFFFF7F4802D235FFFFFFFF00FEFF00A0122200000000000000000000
(00.061634) can0 D4#39040C050E0FF4FFFF39FE1D085940B2084A020000390C140CFFFFFFFFFDFFFFFFFFFFFFFF0000000000000000000000
(00.065720) can0 E3#39060B080051511400C0CFFF39042208003B877E780FFAFF
(00.066026) can0 4F#20E709A000499B97
(00.068419) can0 18E19490#02880064646401000000B41209CB000000000000E900EB00BD04000001000000000000004A14CC058A05881300000000B80C800C070F2C0D1311001505150000
(00.073485) can0 DB#390E0020FBA427F9077F831A3FCD7F15434DC116B3281D5C060300F1FFFFFFFFFCD42592000000000000000000000000
(00.074006) can0 D9#39FE2808290000000000000039130015138D2B27A0430D2E4F1208F1FFFFFFFFFFFB9BE4430000000000000000000000
(00.075744) can0 E3#410005080184C26F468D7DD53980000C00FFAA90E6D1AFFE0393A9BC00000000
(00.078376) can0 DC#391000164ECD2DAE2A0AFADCF034280000000000FFFFFCE20235000000000000
(00.078758) can0 DB#390F0015A1932820FFFF7FCFFFFF3FFFFFFFFFFFFFFD5BD66900000000000000
(00.081103) can0 2D#6EF73105C4090090709758226F5205000800A0FEFFFF7F4802D235FFFFFFFF00FEFF023C06F300000000000000000000
(00.083830) can0 D9#3913010B51BA38559500FE03BAFFEF00
(00.093658) can0 DB#390E00205BD428F9077F831A3FCF7F15434DC116B3281D5C060300F1FFFFFFFFFF907619000000000000000000000000
(00.098282) can0 DC#3910001603252EAE2A0AFADCF034280000000000FFFFFF9E13AC000000000000
(00.098666) can0 D9#39130015E3342C27A0428D2D4F1208F1FFFFFFFFFFFFCB55DE00000000000000
(00.099043) can0 21C#1102010C0BB80B540A2809C407D005DC03E801F40000000000000000000000000000000000000000000000000000000000000000000000000000000000000000
(00.099737) can0 18E19490#030000950195010000000000000000020000000000000000000000000000000000B80C011000E40C00000000000054D9055316D10CC409001311001505150000
(00.100457) can0 DB#390F001543832920FFFF7FCFFFFF3FFFFFFFFFFFFFFF115C8000000000000000
(00.100846) can0 21D#304028
(00.101001) can0 21C#21000000000000000000000000000000000000000000000000000000000000000000000000000000000000000000000000000000000000000000000000000000
(00.101711) can0 2D#4FEC3205C4090090709758226F5205000800A0FEFFFF7F4802D235FFFFFFFF00FEFF04BE7BB300000000000000000000
(00.113465) can0 DB#390E0020024B29F9077F831A3FCD7F15434DC116B3281D5C060300F1FFFFFFFF00157A41000000000000000000000000
(00.116008) can0 4F#28D8090027DCDA2D
(00.118320) can0 DC#39100110153F413944001E12119C002205F0FFF139100016278D2FAE2A0AFADCF034280000000000FFFF0160ACF60000
(00.118840) can0 DB#390F001565B22A20FFFF7FCFFFFF3FFFFFFFFFFFFF012FC23000000000000000
(00.119944) can0 D9#3913001501242D27A0428D2D4F1208F1FFFFFFFFFF01E7037800000000000000
(00.121098) can0 2D#50E53305C4090090709758226F5205000800A0FEFFFF7F4802D235FFFFFFFF00FEFF064BA4CF00000000000000000000
(00.123754) can0 21C#22000000000000000000000000000000000000000000000000000000000000000000000000000000000000000000000000000000000000000000000000000000
(00.128346) can0 18E19490#040300030003008836F00C430D2201FA000806010101010200000000000000000000000000000000000000000000000000000000000000001311001505150000
(00.131126) can0 E3#0080000463A26904
(00.133718) can0 DB#39FE0B086100000001000000390E0020739D2AF9077F831A3FCF7F15434DC116B3281D5C060300F1FFFFFFFF029259DA
(00.135158) can0 44#04
(00.138368) can0 DC#3910001637D730AE2A0AFADCF034280000000000FFFF0332215F000000000000
(00.138751) can0 DB#390F001587A22B20FFFF7FCFFFFF3FFFFFFFFFFFFF0380FC3F00000000000000
(00.139140) can0 D9#39130015C8FF2E27A0424D2E4F1208F1FFFFFFFFFF03248A3400000000000000
(00.141129) can0 2D#0DDA3405C4090090709758226F5205000800A0FEFFFF7F4802D235FFFFFFFF00FEFF088E2B3000000000000000000000
(00.141654) can0 D4#390406047436A689
(00.148329) can0 DB#390E022A3E004A00650AB8C1177C010047403E49E0D16CC24C85D58D8C72F847CE43068867E9FFFFFFFF031BCEB40000
(00.153472) can0 DB#390E010F2435FFFFFFFFFFFFFFEFD208BCFDFF390E03082F825DF8FFFFFFFF00
(00.153864) can0 21C#23000000000000000000000000000000000000000000000000000000000000000000000000000000000000000000000000000000000000000000000000000000
(00.155758) can0 E3#4100050800800343CB9C0875
(00.158297) can0 DC#39100016137F31AE2A0AFADCF034280000000000FFFF0511BBEA000000000000
(00.158680) can0 D9#39130015FAB52F27A0420D2E4F1208F1FFFFFFFFFF055749B200000000000000
(00.159058) can0 DB#390E00202A022BF9077F831A3FCD7F15434DC116B3281D5C060300F1FFFFFFFF042DCC32390F001529D02C20FFFF7FCFFFFF3FFFFFFFFFFFFF05D02D19000000
(00.159717) can0 18E19490#000000A50000005001000000000000000000001A5A8E00000000020000000000000000004A4A4BE900E8001F01FD00F500F7004A4A4B26011311001505150000
(00.161106) can0 2D#12D33505C4090090709758226F5205000800A0FEFFFF7F4802D235FFFFFFFF00FEFF0AB1138C00000000000000000000
(00.161630) can0 D4#39040C050E0FF4FFFF3915011445F991E9F85FF5FFFFFFFFFE07009F2801FEFFFF390C140CFFFFFFFFFDFFFFFFFFFFFFFF000000000000000000000000000000
(00.165722) can0 E3#39060B080051511400C0CFFF39042208003B867E780FFAFF
(00.168432) can0 DB#390E04105CE30B4C24B4DBFFEF2D6C6DEBFFFFFF390F01064C850460641C0000
(00.173484) can0 DB#390E00200B462CF9077F831A3FCF7F15434DC116B3281D5C060300F1FFFFFFFF0619D426000000000000000000000000
(00.175826) can0 E3#4100050801334828AE042C3B
(00.178324) can0 DC#391000165E9732AE2A0AFADCF034280000000000FFFF07BE7001000000000000
(00.178710) can0 D9#391300150A013027A0424D2D4F1208F1FFFFFFFFFF07B8DB2C3913010B51BA38559500FE03BAFFEF0000000000000000
(00.179224) can0 DB#390F0015CBC02D20FFFF7FCFFFFF3FFFFFFFFFFFFF070B62B900000000000000
(00.181090) can0 2D#33C83605C4090090709758226F5205000800A0FEFFFF7F4802D235FFFFFFFF00FEFF0C4BAB5600000000000000000000
(00.183737) can0 21C#2400000000000000
(00.188344) can0 18E19490#0102003C0DFA00800C0301BC02060600000000401F020000AC0D2E2B012003000002AE012E1200000202BE03B0380000AC0D401F0C0D324B1311001505150000
(00.193464) can0 DB#390E002069B72DF9077F831A3FCE7F15434DC116B3281D5C060300F1FFFFFFFF09ABE450000000000000000000000000
(00.198360) can0 DC#391000167A3F33AE2A0AFADCF034280000000000FFFF09EF3E0A000000000000
(00.198743) can0 D9#3913001598FE3127A0428D2D4F1208F1FFFFFFFFFF09533E7100000000000000
(00.199120) can0 DB#390F0015EDF12E20FFFF7FCFFFFF3FFFFFFFFFFFFF0A45279400000000000000
