(00.003843) can0 DB#390E0020769CBAFD477F831A3F008055474DC114B3281D5C060300F1FFFFFFFF2426F055000000000000000000000000
(00.004555) can0 DC#3910001643CFBFAE2A0AFADCAC00280000000000FFFF23D20BC9000000000000
(00.004939) can0 18E19490#040300030003009236EE0C2B002201FD000806010101010200000000000000000000000000000000000000000000000000000000000000001311001505150000
(00.007831) can0 E3#4100050800800343CBD7263F
(00.009097) can0 DB#390F00158E4CBB20FFFF7FCFFFFF3FFFFFFFFFFFFF257FF67700000000000000
(00.013127) can0 2D#C9A5C404C409001000800020FA6004000800A0FEFFFF7FE001D239FFFFFFFF00FEFF284A3B4C00000000000000000000
(00.018832) can0 D9#39130015F853BE00A001C000D00F20F3FFFFFFFFFF2581859600000000000000
(00.023842) can0 DB#390E0020E2B8BBFD477F831A3F008055474DC114B3281D5C060300F1FFFFFFFF26A1F771000000000000000000000000
(00.024578) can0 DC#391000166F5FC0AE2A0AFADCAC00280000000000FFFF2444F0F7000000000000
(00.027779) can0 E3#4100050801D3B6FBFB487A48
(00.029087) can0 DB#390F0015203EBC20FFFF7FCFFFFF3FFFFFFFFFFFFF279E310D00000000000000
(00.033137) can0 2D#D6ACC504C409001000800020FA6004000800A0FEFFFF7FE001D239FFFFFFFF00FEFF2BA12CC500000000000000000000
(00.034507) can0 18E19490#000000A50000005001000000000000000000001A5A7D00000000010000000000000000004A4A4BEB00E8002E010401F700F9004B4A4B30011311001505150000
(00.037856) can0 E3#00800004AC055402
(00.040163) can0 D9#39130015BAF6BF00A0014000D00F20F3FFFFFFFFFF26F2408400000000000000
(00.043842) can0 DB#390E00200E47BCFD477F831A3F008055474DC114B3281D5C060300F1FFFFFFFF2736418B000000000000000000000000
(00.044652) can0 DC#39100110153F423046006E06109C002205F0FFF1391000164BF7C1AE2A0AFADCAC00280000000000FFFF26C5272B0000
(00.047174) can0 44#04
(00.049074) can0 DB#390F0015C22EBD20FFFF7FCFFFFF3FFFFFFFFFFFFF28F58B8000000000000000
(00.000003) can0 8A#F3724F4B
(00.003817) can0 D9#3913001551729BFF9F018000D00F20F3FFFFFFFFFFDF54BF3F00000000000000
(00.008879) can0 DB#390E00205A0798FD477F831A3F008055474DC114B3281D5C060300F1FFFFFFFFE0AD206C000000000000000000000000
(00.009602) can0 DC#391000163EC99DAE2A0AFADCAC00280000000000FFFFDF69AA0A000000000000
(00.012806) can0 E3#41000508013D553B3B9E6017
(00.014123) can0 DB#390F001548519920FFFF7FCFFFFF3FFFFFFFFFFFFFE1E45F2400000000000000
(00.018154) can0 2D#C8C7A204C409001000800020FA6004000800A0FEFFFF7FE001D239FFFFFFFF00FEFFE578E99900000000000000000000
(00.022793) can0 E3#008000047CED4D02
(00.024812) can0 D9#39130015FF009CFF9F018000D00F20F3FFFFFFFFFFE1B09DC200000000000000
(00.028879) can0 DB#390E0020CE2399FD477F831A3F008055474DC114B3281D5C060300F1FFFFFFFFE26C6414000000000000000000000000
(00.029544) can0 DC#39100110153F423246003646119C002205F0FFF13910001673219EAE2A0AFADCAC00280000000000FFFFE1F8CF3A0000
(00.030061) can0 18E19490#02880064646401000000B012BA19000000000000E900EC00BD04010001000100000000004814C105CB04851300000000B50C800C4D0F2C0D1311001505150000
(00.034109) can0 DB#390F00156E609A20FFFF7FCFFFFF3FFFFFFFFFFFFFE38848D600000000000000
(00.038181) can0 2D#D7CEA304C409001000800020FA6004000800A0FEFFFF7FE001D239FFFFFFFF00FEFFE74EB4E700000000000000000000
(00.038716) can0 D4#39040604590C8A84
(00.044077) can0 D9#391300150C049D00A0018000D00F20F3FFFFFFFFFFE379E5A400000000000000
(00.048168) can0 E3#0500000CF5FCFF0000000000E95DF1AC
(00.048913) can0 DB#390E010F7C00FFFFFFFFFFFFFFDFD208BCFDFF390E0020724E9AFD477F831A3F008055474DC114B3281D5C060300F1FFFFFFFFE4F9791F000000000000000000
(00.049577) can0 DC#3910001657899FAE2A0AFADCAC00280000000000FFFFE333D61D000000000000
(00.002748) can0 D9#39130015B1BA7500A0028000D00F20F3FFFFFFFFFF91FFC5C700000000000000
(00.006864) can0 E3#0500000CF5FCFF0000000000990DA960
(00.007600) can0 DB#390E010F7C00FFFFFFFFFFFFFFDFD208BCFDFF390E0020AD6472FD477F831A3F008055474DC114B3281D5C060300F1FFFFFFFF93397643000000000000000000
(00.008261) can0 DC#391000169F5A77AE2A0AFADCAC00280000000000FFFF92119D4F000000000000
(00.008643) can0 18E19490#0102001C00FD00800C0701BC02060600000000401F020000AC0D302B012003000002AD012C1200000202BD033A310000AC0D401F0C620C4B1311001505150000
(00.012798) can0 DB#390F001592437320FFFF7FCFFFFF3FFFFFFFFFFFFF9426420700000000000000
(00.016838) can0 2D#04807C04C409001000800020FA6004000800A0FEFFFF7FE001D239FFFFFFFF00FEFF993713B400000000000000000000
(00.017374) can0 D4#39040C050E0FF4FFFF39FE1D085940B20800000000390C140CFFFFFFFFFDFFFFFFFFFFFFFF0000000000000000000000
(00.021469) can0 E3#39060B080051511800C0CFFF39042208003B877E780FFAFF3980000C007F627E43EFAFFE9B82C1610000000000000000
(00.021992) can0 4F#201805A000499C2D
(00.022840) can0 D9#39130015F54876FF9F01C000D00F20F3FFFFFFFFFF931CD69C00000000000000
(00.027638) can0 DB#390E0020394073FD477F831A3F008055474DC114B3281D5C060300F1FFFFFFFF953B2E84000000000000000000000000
(00.028162) can0 DC#39100016852378AE2A0AFADCAC00280000000000FFFF94163FB4000000000000
(00.032798) can0 DB#390F00153C317420FFFF7FCFFFFF3FFFFFFFFFFFFF96D79C5600000000000000
(00.036971) can0 2D#1B897D04C409001000800020FA6004000800A0FEFFFF7FE001D239FFFFFFFF00FEFF9B124BBC00000000000000000000
(00.037865) can0 D9#39FE2808290000000000000039130015C70277FF9F018000D00F20F3FFFFFFFFFF956EE9840000000000000000000000
(00.038397) can0 18E19490#028800646464010000002A122943000000000000EA00EC00BD04010000000000000000004D14C105CB048B1300000000B50C800C1C0F2C0D1311001505150000
(00.047474) can0 DB#390E0020D5BF74FD477F831A3F008055474DC114B3281D5C060300F1FFFFFFFF97CE5D45000000000000000000000000
(00.047996) can0 D9#3913010B520008558500FE03BAFFEF00
(00.048224) can0 DC#39100016A18B79AE2A0AFADCAC00280000000000FFFF9651102C000000000000
(00.000481) can0 DB#390E00206F6947FD477F831A3F008055474DC114B3281D5C060300F1FFFFFFFF3E0AA2CA000000000000000000000000
(00.001002) can0 DC#3910001649C64CAE2A0AFADCAC00280000000000FFFF3DC3966F000000000000
(00.004427) can0 E3#4100050800800343CBD6415D
(00.005729) can0 DB#390F0015A7D74820FFFF7FCFFFFF3FFFFFFFFFFFFF3F36BEA300000000000000
(00.009735) can0 2D#5ED65104C409001000800020FA6004000800A0FEFFFF7FE001D239FFFFFFFF00FEFF4309F3C200000000000000000000
(00.015311) can0 D9#391300152C0B4BFF9F014000D00F20F3FFFFFFFFFF3F43432000000000000000
(00.020480) can0 DB#390E002002A248FD477F831A3F008055474DC114B3281D5C060300F1FFFFFFFF401B2884000000000000000000000000
(00.021002) can0 DC#391000166D6E4DAE2A0AFADCAC00280000000000FFFF3FD0C565000000000000
(00.021384) can0 18E19490#030000970197010000000000000000020000000000000000000000000000000000B50C102700E40C00000000000054D8055016D70CC409001311001505150000
(00.024386) can0 E3#4100050801A5ECF5E995A087410000080057314B414635453204000CEFABDA53670700F0423B5D4F0000000000000000
(00.025747) can0 DB#390F001545C74920FFFF7FCFFFFF3FFFFFFFFFFFFF4176449B00000000000000
(00.029728) can0 2D#7FCD5204C409001000800020FA6004000800A0FEFFFF7FE001D239FFFFFFFF00FEFF45AD013100000000000000000000
(00.036599) can0 D9#39130015768B4CFE9F010000D00F20F3FFFFFFFFFF4161255600000000000000
(00.039782) can0 E3#0080000409AF3D02410000080142315052313138
(00.040600) can0 DB#390E0020968649FD477F831A3F008055474DC114B3281D5C060300F1FFFFFFFF42A9AB0A000000000000000000000000
(00.041119) can0 DC#39100110153F42004600B652119C002205F0FFF13910001620864EAE2A0AFADCAC00280000000000FFFF4157CE460000
(00.045711) can0 DB#390F001563F64A20FFFF7FCFFFFF3FFFFFFFFFFFFF43D60DF900000000000000
(00.003594) can0 DB#390E0020D62B26FD477F831A3F008055474DC114B3281D5C060300F1FFFFFFFFFBFD6271000000000000000000000000
(00.004116) can0 DC#39100110153F423246007E06119C002205F0FFF139100016EA642BAE2A0AFADCAC00280000000000FFFFFA8BBA310000
(00.006805) can0 44#04
(00.008773) can0 DB#390F00151F662720FFFF7FCFFFFF3FFFFFFFFFFFFFFCC966AB00000000000000
(00.012808) can0 2D#028B3004C409001000800020FA6004000800A0FEFFFF7FE001D239FFFFFFFF00FEFF0162535300000000000000000000
(00.013342) can0 D4#3904060463607384
(00.018577) can0 D9#39130015A9A42A00A0018000D00F20F3FFFFFFFFFFFBA5F61B00000000000000
(00.023555) can0 DB#390E010F7800FFFFFFFFFFFFFFDFD208BCFDFF390E0020420F27FD477F831A3F008055474DC114B3281D5C060300F1FFFFFFFFFD075C2A000000000000000000
(00.024219) can0 DC#39100016750C2CAE2A0AFADCAC00280000000000FFFFFC078A78000000000000
(00.024604) can0 18E19490#0102001C00FC00800C0701BC02060600000000401F020000AC0D302B012003000002AC012E1200000202BD034B310000AC0D401F0C530C4B1311001505150000
(00.028775) can0 DB#390F0015A1932820FFFF7FCFFFFF3FFFFFFFFFFFFFFED7A79E00000000000000
(00.032798) can0 2D#1D823104C409001000800020FA6004000800A0FEFFFF7FE001D239FFFFFFFF00FEFF03EA754500000000000000000000
(00.033333) can0 D4#39040C050E0FF4FFFF3915011443019201F85FF5FFFFFFFFFE07009F2801FEFFFF390C140CFFFFFFFFFDFFFFFFFFFFFFFF000000000000000000000000000000
(00.037417) can0 E3#39060B080051511800C0CFFF39042208003B867E780FFAFF
(00.037730) can0 4F#20CC02A000499C2C
(00.038534) can0 D9#39130015D5942BFF9F02C0FFCF0F20F3FFFFFFFFFFFD4115DC00000000000000
(00.043572) can0 DB#390F01064C8504600000390E00202FC428FD477F831A3F008055474DC114B3281D5C060300F1FFFFFFFFFFFD50920000
(00.044087) can0 DC#3910001651A42DAE2A0AFADCAC00280000000000FFFFFE6A6F24000000000000
(00.048787) can0 DB#390F001543832920FFFF7FCFFFFF3FFFFFFFFFFFFF00E52C9300000000000000
(00.001630) can0 E3#008000048F963002
(00.003425) can0 D9#391300158D2A0BFF9F010001D00F20F3FFFFFFFFFFBFA634CA00000000000000
(00.007690) can0 DB#390E00202B1608FD477F831A3F008055474DC114B3281D5C060300F1FFFFFFFFC027E003000000000000000000000000
(00.008215) can0 DC#39100110153F423246004E16109C002205F0FFF13910001645E20DAE2A0AFADCAC00280000000000FFFFBF3F45430000
(00.010948) can0 44#04
(00.012920) can0 DB#390F001541BF0920FFFF7FCFFFFF3FFFFFFFFFFFFFC15F5F0700000000000000
(00.016947) can0 2D#FDAA1204C409001000800020FA6004000800A0FEFFFF7FE001D239FFFFFFFF00FEFFC432D18600000000000000000000
(00.017483) can0 D4#390406049ED96D84
(00.022688) can0 D9#39130015942D0C00A002C000D00F20F3FFFFFFFFFFC10D687000000000000000
(00.027699) can0 DB#390E010F7800FFFFFFFFFFFFFFDFD208BCFDFF390E0020BF3209FD477F831A3F008055474DC114B3281D5C060300F1FFFFFFFFC29E7A27000000000000000000
(00.028364) can0 DC#39100016080A0EAE2A0AFADCAC00280000000000FFFFC13DC1BA000000000000
(00.028750) can0 18E19490#0102001C00FD00800C0701BC02060600000000401F020000AC0D302B012003000002AE012B1200000202BD0342310000AC0D401F0C4D024B1311001505150000
(00.031493) can0 D4#39040C050E0FF4FFFF3915011443019201F85FF5FFFFFFFFFE07009F2801FEFFFF000000000000000000000000000000
(00.032035) can0 D4#390C083CFE7400800000086C35B82C83FF7BDF017007C501A02CE07C8FB30400009E053C400B5AD08216B4A0052D68C70000FE7F19E000FFC9FFFFFF833EE4FF
(00.032966) can0 DB#390F0015678E0A20FFFF7FCFFFFF3FFFFFFFFFFFFFC3C3DDB800000000000000
(00.036932) can0 2D#E2A31304C409001000800020FA6004000800A0FEFFFF7FE001D239FFFFFFFF00FEFFC6CEB15800000000000000000000
(00.041554) can0 D4#390C140CFFFFFFFFFDFFFFFFFFFFFFFF390C1608FFFFFFFFFFFFFFFF00000000
(00.041947) can0 E3#39060B080051511800C0CFFF39042208003B867E780FFAFF
(00.042570) can0 D9#39130015D6880D00A0024000D00F20F3FFFFFFFFFFC38FECAD00000000000000
(00.047767) can0 DB#390F01064C8504600000390E0020035F0AFD477F831A3F008055474DC114B3281D5C060300F1FFFFFFFFC4273A680000
(00.048281) can0 DC#391000162CA20FAE2A0AFADCAC00280000000000FFFFC3757B7C000000000000
(00.001875) can0 2D#8423F004C409001000800020FA6004000800A0FEFFFF7FE001D239FFFFFFFF00FEFF8189B31D00000000000000000000
(00.002409) can0 D4#39040C050E0FF4FFFF390C140CFFFFFFFFFDFFFFFFFFFFFFFF00000000000000
(00.002800) can0 18E19490#030000950195010000000000000000020000000000000000000000000000000000B50C102700E40C00000000000054D9055E16D70CC409001311001505150000
(00.006430) can0 E3#39060B080051511800C0CFFF39042208003B877E780FFAFF410002080101B9A313EA808E000000000000000000000000
(00.007385) can0 D9#39130015A52CEA00A0018000D00F20F3FFFFFFFFFF7D0E7A5C00000000000000
(00.012636) can0 DB#390E002018C3E7FD477F831A3F008055474DC114B3281D5C060300F1FFFFFFFF7E9E2CF4000000000000000000000000
(00.013157) can0 DC#391000162C88ECAE2A0AFADCAC00280000000000FFFF7D98C032000000000000
(00.016446) can0 E3#3980000C007F6B7E43EFAFFE83CEAB7D410000080306381AE14D000000000000
(00.017822) can0 DB#390F0015AD1BE820FFFF7FCFFFFF3FFFFFFFFFFFFF7FBC8A6100000000000000
(00.021821) can0 2D#9B2AF104C409001000800020FA6004000800A0FEFFFF7FE001D239FFFFFFFF00FEFF83978CAD00000000000000000000
(00.026430) can0 E3#41000208024F7A620E3CA429
(00.027449) can0 D9#39130015E789EB00A0010000D00F20F3FFFFFFFFFF7F65E7E83913010B520008558500FE03BAFFEF0000000000000000
(00.032562) can0 DB#390E00207508E8FD477F831A3F008055474DC114B3281D5C060300F1FFFFFFFF80388F7E000000000000000000000000
(00.033083) can0 DC#391000160820EDAE2A0AFADCAC00280000000000FFFF7F2F598E000000000000
(00.033468) can0 18E19490#040300030003009236EE0C2B002201FE000806010101010200000000000000000000000000000000000000000000000000000000000000001311001505150000
(00.036482) can0 E3#4100050800800343CBD583A9
(00.037814) can0 DB#390F00154F0BE920FFFF7FCFFFFF3FFFFFFFFFFFFF8135791000000000000000
(00.041789) can0 2D#BA31F204C409001000800020FA6004000800A0FEFFFF7FE001D239FFFFFFFF00FEFF85BBBB5D00000000000000000000
(00.047264) can0 D9#39130015D4E3ECFF9F01C0FFCF0F20F3FFFFFFFFFF8116E99800000000000000
(00.001621) can0 DB#390E00208835C6FD477F831A3F008055474DC114B3281D5C060300F1FFFFFFFF3A199545000000000000000000000000
(00.002141) can0 DC#39100016A7A6CBAE2A0AFADCAC00280000000000FFFF3AB5AFD0000000000000
(00.005489) can0 E3#4100050801A74868BB5ABB4A
(00.005745) can0 4F#28010E0009A4DBEF
(00.006866) can0 DB#390F001511D2C720FFFF7FCFFFFF3FFFFFFFFFFFFF3BD9A08400000000000000
(00.010855) can0 2D#4510D004C409001000800020FA6004000800A0FEFFFF7FE001D239FFFFFFFF00FEFF41083FC900000000000000000000
(00.015485) can0 E3#3A020004F4FFFFFF00800004F4162302
(00.017634) can0 D9#39130015A710CA00A0018000D00F20F3FFFFFFFFFF3D60030000000000000000
(00.021621) can0 DB#390E00201C11C7FD477F831A3F008055474DC114B3281D5C060300F1FFFFFFFF3E762CA6000000000000000000000000
(00.022142) can0 DC#39100110153F42004600E6420C9C002205F0FFF53910001638CECCAE2A0AFADCAC00280000000000FFFF3CC5748D0000
(00.022661) can0 18E19490#028800646464010000006812A4EB000000000000E900EC00BD04010000000000FFFF00004814C205CC048A1300000000B50C800C380F2C0D1311001505150000
(00.026850) can0 DB#390F0015AF27C820FFFF7FCFFFFF3FFFFFFFFFFFFF3FE7741200000000000000
(00.030860) can0 2D#5A19D104C409001000800020FA6004000800A0FEFFFF7FE001D239FFFFFFFF00FEFF43C6B68700000000000000000000
(00.031392) can0 D4#3904060418E06084
(00.031555) can0 E3#02800008680B1C0183331883
(00.036542) can0 D9#3913001590B6CB00A0010001D00F20F3FFFFFFFFFF3F99386000000000000000
(00.040850) can0 E3#0500000CF5FCFF000000000045722FF0
(00.041642) can0 DB#390E010F7C00FFFFFFFFFFFFFFDFD208BCFDFF390E002071DAC8FD477F831A3F008055474DC114B3281D5C060300F1FFFFFFFF401DF04C000000000000000000
(00.042306) can0 DC#391000161C66CDAE2A0AFADCAC00280000000000FFFF3F617917000000000000
(00.046852) can0 DB#390F00154D37C920FFFF7FCFFFFF3FFFFFFFFFFFFF4154D62900000000000000
(00.001696) can0 D9#39130015D4D4A8FF9F010000D00F20F3FFFFFFFFFFF97BDC8300000000000000
(00.006998) can0 DB#390E010F7C00FFFFFFFFFFFFFFDFD208BCFDFF390E0020193EA5FD477F831A3F008055474DC114B3281D5C060300F1FFFFFFFFFA991D5A000000000000000000
(00.007661) can0 DC#39100016BFC4AAAE2A0AFADCAC00280000000000FFFFF9289991000000000000
(00.010768) can0 D4#39040C050E0FF4FFFF3915011443019201F85FF5FFFFFFFFFE07009F2801FEFFFF000000000000000000000000000000
(00.011322) can0 D4#390C083CFE7400800000086C35B82B83FF7BDF017007C501A02CE07C8FB30400009E053C400B5AD08216B4A0052D68C70000FE7F19E000FFC9FFFFFF833EE4FF
(00.012265) can0 DB#390F0015F586A620FFFF7FCFFFFF3FFFFFFFFFFFFFFB2C3FE100000000000000
(00.016208) can0 2D#53A2AF04C409001000800020FA6004000800A0FEFFFF7FE001D239FFFFFFFF00FEFFFEE1038000000000000000000000
(00.020837) can0 D4#390C140CFFFFFFFFFDFFFFFFFFFFFFFF390C1608FFFFFFFFFFFFFFFF00000000
(00.021230) can0 E3#39060B080051511800C0CFFF39042208003B867E780FFAFF
(00.021689) can0 D9#391300158765A900A0018000D00F20F3FFFFFFFFFFFBEC8DF000000000000000
(00.027015) can0 DB#390F01064C8504605400390E0020A553A6FD477F831A3F008055474DC114B3281D5C060300F1FFFFFFFFFC2A11BF0000
(00.027526) can0 DC#391000169B6CABAE2A0AFADCAC00280000000000FFFFFBD0D4BA000000000000
(00.027909) can0 18E19490#000000A50000005001000000000000000000001A5A7D00000000010000000000000000004A4A4BEB00EC002C010301F700F9004B4A4B23011311001505150000
(00.032218) can0 DB#390F00151796A720FFFF7FCFFFFF3FFFFFFFFFFFFFFD22185200000000000000
(00.036212) can0 2D#0644B004C409001000800020FA6004000800A0FEFFFF7FE001D239FFFFFFFF00FEFF00E31ABC00000000000000000000
(00.041769) can0 D9#39130015A154AA00A0018000D00F20F3FFFFFFFFFFFDEF3C7A3913010B520008558500FE03BAFFEF0000000000000000
(00.046986) can0 DB#390E00203177A7FD477F831A3F008055474DC114B3281D5C060300F1FFFFFFFFFE9C528D000000000000000000000000
(00.047507) can0 DC#391000160404ACAE2A0AFADCAC00280000000000FFFFFDDAA6D7000000000000
(00.000222) can0 E3#4100000802343937B5BA3A650500000CF5FCFF0000000000B967527700000000
(00.000979) can0 DC#39100016D8BB87AE2A0AFADCAC00280000000000FFFFB359AEFC000000000000
(00.001361) can0 DB#390E010F7C00FFFFFFFFFFFFFFDFD208BCFDFF390E0020F11382FD477F831A3F008055474DC114B3281D5C060300F1FFFFFFFFB4FA0E1F000000000000000000
(00.002027) can0 18E19490#0102001C00FD00800C0701BC02060600000000401F020000AC0D302B012003000002AD012B1200000202BD034B310000AC0D401F0C32214B1311001505150000
(00.006203) can0 DB#390F00159DE98320FFFF7FCFFFFF3FFFFFFFFFFFFFB540789A00000000000000
(00.010174) can0 2D#B38A8C04C409001000800020FA6004000800A0FEFFFF7FE001D239FFFFFFFF00FEFFB9DFA6FB00000000000000000000
(00.010709) can0 D4#39040C050E0FF4FFFF390C140CFFFFFFFFFDFFFFFFFFFFFFFF00000000000000
(00.014798) can0 E3#39060B080051511800C0CFFF39042208003B877E780FFAFF
(00.015629) can0 D9#39130015F9DA86FF9F024000D00F20F3FFFFFFFFFFB5A95B4400000000000000
(00.020976) can0 DC#39100016C2C288AE2A0AFADCAC00280000000000FFFFB572AF16000000000000
(00.021357) can0 DB#390E0020653783FD477F831A3F008055474DC114B3281D5C060300F1FFFFFFFFB6A14E87000000000000000000000000
(00.024831) can0 E3#3980000C00FF407E43EFAFFEBB57418B4100000803EE8600A0F0000000000000
(00.026226) can0 DB#390F0015339B8420FFFF7FCFFFFF3FFFFFFFFFFFFFB79FE44B00000000000000
(00.030208) can0 2D#AC838D04C409001000800020FA6004000800A0FEFFFF7FE001D239FFFFFFFF00FEFFBB7D40A600000000000000000000
(00.031110) can0 18E19490#0288006464640100000092128F43000000000000EA00EB00BD04000000000000010000004514C105CD04871300000000B50C800C140F2C0D1311001505150000
(00.035519) can0 D9#391300150ADE8700A0024000D00F20F3FFFFFFFFFFB7D82CD73913010B520008558500FE03BAFFEF0000000000000000
(00.040971) can0 DB#390E002089C884FD477F831A3F008055474DC114B3281D5C060300F1FFFFFFFFB8EFB91B000000000000000000000000
(00.041491) can0 DC#39100016E66A89AE2A0AFADCAC00280000000000FFFFB7381CA6000000000000
(00.044871) can0 E3#4100050800800343CBD4BB96
(00.046220) can0 DB#390F0015D18B8520FFFF7FCFFFFF3FFFFFFFFFFFFFB94D880B00000000000000
(00.004515) can0 DB#390F0015B56C6020FFFF7FCFFFFF3FFFFFFFFFFFFF6E253C5A00000000000000
(00.008496) can0 2D#973C6904C409001000800020FA6004000800A0FEFFFF7FE001D239FFFFFFFF00FEFF73350D4C00000000000000000000
(00.009029) can0 D4#39040C050E0FF4FFFF3915011443019201F85FF5FFFFFFFFFE07009F2801FEFFFF390C140CFFFFFFFFFDFFFFFFFFFFFFFF000000000000000000000000000000
(00.009710) can0 18E19490#030000810181010000000000000000020000000000000000000000000000000000B50C102700E40C00000000000054D9055716D50CC409001311001505150000
(00.013113) can0 E3#39060B080051511800C0CFFF39042208003B867E780FFAFF
(00.013435) can0 4F#20310AA000499C28
(00.014182) can0 D9#391300158AFD6300A0010001D00F20F3FFFFFFFFFF6D52611100000000000000
(00.019281) can0 DC#39100016FC3965AE2A0AFADCAC00280000000000FFFF6E050809000000000000
(00.019666) can0 DB#390F01064C8504600000390E0020874460FD477F831A3F008055474DC114B3281D5C060300F1FFFFFFFF6F8DFF6F0000
(00.024515) can0 DB#390F0015577C6120FFFF7FCFFFFF3FFFFFFFFFFFFF707E48EB00000000000000
(00.028472) can0 2D#B6276A04C409001000800020FA6004000800A0FEFFFF7FE001D239FFFFFFFF00FEFF752A233900000000000000000000
(00.033805) can0 D9#3913001593FA64FF9F02C000D00F20F3FFFFFFFFFF6F50B0653913010B520008558500FE03BAFFEF0000000000000000
(00.039201) can0 DC#39100016B1D166AE2A0AFADCAC00280000000000FFFF701C8976000000000000
(00.039583) can0 DB#390E0020136061FD477F831A3F008055474DC114B3281D5C060300F1FFFFFFFF71B7570D000000000000000000000000
(00.040103) can0 18E19490#040300030003009236ED0C2B002201FD000806010101010200000000000000000000000000000000000000000000000000000000000000001311001505150000
(00.043178) can0 E3#4100050800800343CBD475BC
(00.044533) can0 DB#390F0015714D6220FFFF7FCFFFFF3FFFFFFFFFFFFF71227F9F00000000000000
(00.048479) can0 2D#A92E6B04C409001000800020FA6004000800A0FEFFFF7FE001D239FFFFFFFF00FEFF774B337A00000000000000000000
(00.000921) can0 E3#008000044BEB0702
(00.002998) can0 D9#3913001592603EFF9F028000D00F20F3FFFFFFFFFF2591A26B00000000000000
(00.006958) can0 DC#39100110153F423046000606119C002205F0FFF1391000161E5740AE2A0AFADCAC00280000000000FFFF2532AFF00000
(00.007478) can0 DB#390E002091C03BFD477F831A3F008055474DC114B3281D5C060300F1FFFFFFFF2640CDED000000000000000000000000
(00.012325) can0 DB#390F001528CE3C20FFFF7FCFFFFF3FFFFFFFFFFFFF27CEFA4900000000000000
(00.016316) can0 2D#D2634504C409001000800020FA6004000800A0FEFFFF7FE001D239FFFFFFFF00FEFF2BFED37900000000000000000000
(00.016849) can0 D4#39040604A71D4484
(00.017008) can0 18E19490#040300030003009236ED0C2C002201FD000806010101010200000000000000000000000000000000000000000000000000000000000000001311001505150000
(00.022090) can0 D9#3913001570703FFF9F028000D00F20F3FFFFFFFFFF278691BF00000000000000
(00.026285) can0 E3#0500000CF5FCFF00000000002DB2CD02
(00.027008) can0 DC#391000163AFF41AE2A0AFADCAC00280000000000FFFF278C1FAD000000000000
(00.027393) can0 DB#390E010F7C00FFFFFFFFFFFFFFDFD208BCFDFF390E00207D3F3CFD477F831A3F008055474DC114B3281D5C060300F1FFFFFFFF28EFB052000000000000000000
(00.032325) can0 DB#390F0015CADE3D20FFFF7FCFFFFF3FFFFFFFFFFFFF2931757300000000000000
(00.036281) can0 2D#F3784604C409001000800020FA6004000800A0FEFFFF7FE001D239FFFFFFFF00FEFF2DD46AE100000000000000000000
(00.036813) can0 D4#39040C050E0FF4FFFF390C140CFFFFFFFFFDFFFFFFFFFFFFFF00000000000000
(00.040912) can0 E3#39060B080051511800C0CFFF39042208003B877E781FFAFF3980000C007F727E43EFAFFE2FB61BA40000000000000000
(00.041930) can0 D9#39130015B93040FF9F024000D00F20F3FFFFFFFFFF29EC434100000000000000
(00.046948) can0 DC#39100016771742AE2A0AFADCAC00280000000000FFFF2930D667000000000000
(00.047329) can0 DB#390E0020E91B3DFD477F831A3F008055474DC114B3281D5C060300F1FFFFFFFF2AB13101000000000000000000000000
(00.047849) can0 18E19490#000000A50000005001000000000000000000001A5A7D00000000010000000000000000004A4A4BEB00E9002D010301F600F9004B4A4B20011311001505150000
(00.000001) can0 B24922C#FFFFFF
(00.009788) can0 D9#3913010B520008558500FE03BAFFEF00
(00.010016) can0 DB#390E0020D09016FD477F831A3F008055474DC114B3281D5C060300F1FFFFFFFFDB18BA7D000000000000000000000000
(00.010538) can0 DC#39100016F4011BAE2A0AFADCAC00280000000000FFFFDAC358AE000000000000
(00.010920) can0 18E19490#040300030003009236ED0C2B002201FD000806010101010200000000000000000000000000000000000000000000000000000000000000001311001505150000
(00.013952) can0 E3#4100050800800343CBD3DF2F
(00.015173) can0 21C#110201037574795C7C7C7F38832087D08BB88FA09388000000000000000000000000000000000000000000000000000000000000000000000000000000000000
(00.015869) can0 DB#390F00151C441720FFFF7FCFFFFF3FFFFFFFFFFFFFDBCA8F2500000000000000
(00.016255) can0 21D#304028
(00.016410) can0 21C#21000000000000000000000000000000000000000000000000000000000000000000000000000000000000000000000000000000000000000000000000000000
(00.019269) can0 2D#F21A2004C409001000800020FA6004000800A0FEFFFF7FE001D239FFFFFFFF00FEFFE14F908100000000000000000000
(00.024483) can0 D9#391300157ADC1A00A001C000D00F20F3FFFFFFFFFFDBC87C7300000000000000
(00.029864) can0 DC#391000166B691CAE2A0AFADCAC00280000000000FFFFDC2A28CC000000000000
(00.030263) can0 DB#390E002044B417FD477F831A3F008055474DC114B3281D5C060300F1FFFFFFFFDCC9903B000000000000000000000000
(00.033914) can0 E3#41000508016602C3F6BE634C
(00.034179) can0 4F#281607002778438A
(00.035337) can0 DB#390F0015A2B11820FFFF7FCFFFFF3FFFFFFFFFFFFFDDDCB18A00000000000000
(00.039325) can0 2D#ED132104C409001000800020FA6004000800A0FEFFFF7FE001D239FFFFFFFF00FEFFE3EB24DE00000000000000000000
(00.039861) can0 DC085B#4001000400000000
(00.040149) can0 18E19490#000000A50000005001000000000000000000001A5A7D00000000010000000000000000004A4A4BEB00E9002D010301F700F9004B4A4B20011311001505150000
(00.040865) can0 21C#22000000000000000000000000000000000000000000000000000000000000000000000000000000000000000000000000000000000000000000000000000000
(00.043905) can0 E3#0080000466BA0002
(00.045498) can0 D9#3913001548961B00A0018000D00F20F3FFFFFFFFFFDFAEE2EB00000000000000
(00.003375) can0 DB#390F0015F0E0F620FFFF7FCFFFFF3FFFFFFFFFFFFF9B39A48E00000000000000
(00.007332) can0 2D#2154FF04C409001000800020FA6004000800A0FEFFFF7FE001D239FFFFFFFF00FEFF9E63484D00000000000000000000
(00.007866) can0 D4#39040604BAB23684
(00.012545) can0 D9#39130015E0C0F9FF9F02C000D00F20F3FFFFFFFFFF9BC328ED00000000000000
(00.017320) can0 E3#0500000CF5FCFF0000000000A1418D57
(00.017898) can0 DC#39100016B9C3FBAE2A0AFADCAC00280000000000FFFF9B344FB9000000000000
(00.018281) can0 DB#390E010F8000FFFFFFFFFFFFFFDFD208BCFDFF390E00208E8EF6FD477F831A3F008055474DC114B3281D5C060300F1FFFFFFFF9C77BEBC000000000000000000
(00.023374) can0 DB#390F001512F0F720FFFF7FCFFFFF3FFFFFFFFFFFFF9DAD757D00000000000000
(00.027422) can0 2D#33290004C409001000800020FA6004000800A0FEFFFF7FE001D239FFFFFFFF00FEFFA02993F300000000000000000000
(00.027957) can0 D4#39040C050E0FF4FFFF390C140CFFFFFFFFFDFFFFFFFFFFFFFF00000000000000
(00.028349) can0 18E19490#030000950195010000000000000000020000000000000000000000000000000000B50C102700E40C00000000000054D9055716D40CC409001311001505150000
(00.031949) can0 E3#39060B080051511800C0CFFF39042208003B877E780FFAFF3980000C007F727E43EFAFFEA3A37D5B0000000000000000
(00.032624) can0 D9#391300156090FAFF9F010001D00F20F3FFFFFFFFFF9DF4137A00000000000000
(00.037942) can0 DC#3910001626ABFCAE2A0AFADCAC00280000000000FFFF9D1F0553000000000000
(00.038327) can0 DB#390E00201AAAF7FD477F831A3F008055474DC114B3281D5C060300F1FFFFFFFF9E8DBA11000000000000000000000000
(00.043374) can0 DB#390F0015AC05F820FFFF7FCFFFFF3FFFFFFFFFFFFF9F3B6FC900000000000000
(00.047306) can0 2D#2C200104C409001000800020FA6004000800A0FEFFFF7FE001D239FFFFFFFF00FEFFA24505D200000000000000000000
(00.003740) can0 D9#3913001500ECD8FF9F02C000D00F20F3FFFFFFFFFF592B05E43913010B520008558500FE03BAFFEF0000000000000000
(00.008872) can0 DC#39100016892DDAAE2A0AFADCAC00280000000000FFFF596D2AB2000000000000
(00.009253) can0 DB#390E00203631D5FD477F831A3F008055474DC114B3281D5C060300F1FFFFFFFF5AD1DC1B000000000000000000000000
(00.013079) can0 E3#4100050800800343CBD35D7E
(00.014474) can0 DB#390F0015F2DCD620FFFF7FCFFFFF3FFFFFFFFFFFFF5B6D4CDD00000000000000
(00.018401) can0 2D#E067DF04C409001000800020FA6004000800A0FEFFFF7FE001D239FFFFFFFF00FEFF5F88E2CE00000000000000000000
(00.018939) can0 18E19490#0102001C00FC00800C0701BC02060600000000401F020000AC0D302B012003000002AD012C1200000202BD034B310000AC0D401F0C0F274B1311001505150000
(00.023548) can0 D9#39130015803FD900A0018000D00F20F3FFFFFFFFFF5B2C4DFF00000000000000
(00.028935) can0 DC#39100016AD85DBAE2A0AFADCAC00280000000000FFFF5B9B6382000000000000
(00.029318) can0 DB#390E00208A5CD6FD477F831A3F008055474DC114B3281D5C060300F1FFFFFFFF5C259604000000000000000000000000
(00.033034) can0 E3#410005080136DD44FE5B8C81
(00.034468) can0 DB#390F001510CCD720FFFF7FCFFFFF3FFFFFFFFFFFFF5DB0151B00000000000000
(00.038385) can0 2D#74B2E004C409001000800020FA6004000800A0FEFFFF7FE001D239FFFFFFFF00FEFF6190E7F700000000000000000000
(00.043031) can0 E3#00800004F7BEF302
(00.044545) can0 D9#3913001517AFDAFF9F010000D00F20F3FFFFFFFFFF5D1936DA00000000000000
(00.048892) can0 DC#39100110153F423046006606119C002205F0FFF13910001632EDDCAE2A0AFADCAC00280000000000FFFF5DA734E70000
(00.049410) can0 DB#390E00201E78D7FD477F831A3F008055474DC114B3281D5C060300F1FFFFFFFF5EAA54F7000000000000000000000000
(00.001030) can0 DC#39100016E276B6AE2A0AFADCAC00280000000000FFFF10441ED0000000000000
(00.001527) can0 DB#390E00204BC5B1FD477F831A3F008055474DC114B3281D5C060300F1FFFFFFFF11DAB8F0000000000000000000000000
(00.006696) can0 DB#390F00157CDBB220FFFF7FCFFFFF3FFFFFFFFFFFFF1242099B00000000000000
(00.010648) can0 2D#DF17BB04C409001000800020FA6004000800A0FEFFFF7FE001D239FFFFFFFF00FEFF17C2CF7600000000000000000000
(00.011185) can0 D9#39FE2808290000000000000039130015918BB500A002C0FFCF0F20F3FFFFFFFFFF11C0DDD80000000000000000000000
(00.011716) can0 18E19490#028800646464010000006412AD62000000000000E900EB00BD04000001000000000000004814C005CD04871300000000B50C800C760F2C0D1311001505150000
(00.021133) can0 DC#39100016C6DEB7AE2A0AFADCAC00280000000000FFFF12BC8E4E000000000000
(00.021514) can0 D9#3913010B520008558500FE03BAFFEF00
(00.021743) can0 DB#390E0020F7A8B2FD477F831A3F008055474DC114B3281D5C060300F1FFFFFFFF133500FC000000000000000000000000
(00.025321) can0 E3#4100050800800343CBD31743
(00.026563) can0 21C#1102010205D802B401A100E700810058004A0041003B059D027D017B00D1007700510044003C003705610246015400BC006D004B003E00370032051E02210139
(00.027228) can0 21D#304028
(00.027347) can0 DB#390F00159ECBB320FFFF7FCFFFFF3FFFFFFFFFFFFF13015D8700000000000000
(00.027743) can0 21C#2100AF00690049003D0036003204DA01FB011E00A100650047003B0034003104BE01ED0117009E00620046003B00340030048701D2010A0097005E0044003900
(00.030619) can0 2D#8228BC04C409001000800020FA6004000800A0FEFFFF7FE001D239FFFFFFFF00FEFF19BDDFDF00000000000000000000
(00.035745) can0 D9#391300153BB6B600A0020000D00F20F3FFFFFFFFFF1300C7D300000000000000
(00.041040) can0 DC#39100016DCA7B8AE2A0AFADCAC00280000000000FFFF14FDD3AF000000000000
(00.041422) can0 18E19490#030000970197010000000000000000020000000000000000000000000000000000B50C102700E40C00000000000054D9055E16D20CC409001311001505150000
(00.042142) can0 DB#390E0020638CB3FD477F831A3F008055474DC114B3281D5C060300F1FFFFFFFF14A741EC000000000000000000000000
(00.045253) can0 E3#4100050801ED133B0FBACBD0
(00.045546) can0 4F#2845030027798168
(00.046712) can0 DB#390F001530B9B420FFFF7FCFFFFF3FFFFFFFFFFFFF15D30A0100000000000000
(00.000399) can0 2D#012D9A04C409001000800020FA6004000800A0FEFFFF7FE001D239FFFFFFFF00FEFFD484E6B000000000000000000000
(00.000934) can0 18E19490#000000A50000005001000000000000000000001A5A7D00000000010000000000000000004A4A4BEA00E9002D010301F600F9004B4A4B0C011311001505150000
(00.005029) can0 E3#00800004C982E502
(00.005477) can0 D9#391300155D1E9400A0028000D00F20F3FFFFFFFFFFD13862DF00000000000000
(00.010845) can0 DC#39100110153F42004600F6420C9C002205F0FFF539100016F63096AE2A0AFADCAC00280000000000FFFFD13D917E0000
(00.011364) can0 DB#390E00204F1791FD477F831A3F008055474DC114B3281D5C060300F1FFFFFFFFD29ABC01000000000000000000000000
(00.016483) can0 DB#390F00157EE79220FFFF7FCFFFFF3FFFFFFFFFFFFFD3F10CFE00000000000000
(00.020408) can0 2D#1E249B04C409001000800020FA6004000800A0FEFFFF7FE001D239FFFFFFFF00FEFFD6506C9600000000000000000000
(00.020943) can0 D4#39040604EC632284
(00.025597) can0 D9#391300157D7895FF9F014000D00F20F3FFFFFFFFFFD35C080E00000000000000
(00.030418) can0 E3#0500000CF5FCFF0000000000D9D92A21
(00.030760) can0 DC#39100016D29897AE2A0AFADCAC00280000000000FFFFD3559A55000000000000
(00.031141) can0 18E19490#0102001C00FD00800C0701BC02060600000000401F020000AC0D302B012003000002AD01281200000202BC0342310000AC0D401F0C02034B1311001505150000
(00.031848) can0 DB#390E010F8000FFFFFFFFFFFFFFDFD208BCFDFF390E0020F37A92FD477F831A3F008055474DC114B3281D5C060300F1FFFFFFFFD45F6F2A000000000000000000
(00.036484) can0 DB#390F00159CF79320FFFF7FCFFFFF3FFFFFFFFFFFFFD58D83CB00000000000000
(00.040397) can0 2D#431B9C04C409001000800020FA6004000800A0FEFFFF7FE001D239FFFFFFFF00FEFFD89E455A00000000000000000000
(00.040931) can0 D4#39040C050E0FF4FFFF390C140CFFFFFFFFFDFFFFFFFFFFFFFF00000000000000
(00.045027) can0 E3#39060B080051511800C0CFFF39042208003B877E780FFAFF3980000C007FA07E43EFAFFEDB9929CA0000000000000000
(00.045548) can0 D9#39130015FBFC96FF9F01C000D00F20F3FFFFFFFFFFD5D2BD6D00000000000000
(00.002339) can0 2D#78A47804C409001000800020FA6004000800A0FEFFFF7FE001D239FFFFFFFF00FEFF919B91FE00000000000000000000
(00.002874) can0 D4#3904060472BC1B84
(00.007632) can0 D9#39130015AE6972FF9F020000D00F20F3FFFFFFFFFF8DEB716100000000000000
(00.012646) can0 DC#39100016D2B274AE2A0AFADCAC00280000000000FFFF8DFFC3A5000000000000
(00.013237) can0 DB#390E010F8000FFFFFFFFFFFFFFDFD208BCFDFF390E0020EA8F6FFD477F831A3F008055474DC114B3281D5C060300F1FFFFFFFF8E388C01000000000000000000
(00.018416) can0 DB#390F0015B4727020FFFF7FCFFFFF3FFFFFFFFFFFFF8FBE68E300000000000000
(00.022342) can0 2D#67AD7904C409001000800020FA6004000800A0FEFFFF7FE001D239FFFFFFFF00FEFF93F4509200000000000000000000
(00.022876) can0 D4#39040C050E0FF4FFFF3915011443019201F85FF5FFFFFFFFFE07009F2801FEFFFF390C140CFFFFFFFFFDFFFFFFFFFFFFFF000000000000000000000000000000
(00.023557) can0 18E19490#030000970197010000000000000000020000000000000000000000000000000000B50C102700E40C00000000000054D7055916D70CC409001311001505150000
(00.026929) can0 E3#39060B080051511800C0CFFF39042208003BC67E782FFEFF
(00.027471) can0 D9#391300155D6D7300A0020000D00F20F3FFFFFFFFFF8F5020E400000000000000
(00.032707) can0 DC#39100016F61A75AE2A0AFADCAC00280000000000FFFF8FC3B19B000000000000
(00.033255) can0 DB#390F01064C8504608C02390E0020852D70FD477F831A3F008055474DC114B3281D5C060300F1FFFFFFFF9001EDED0000
(00.038418) can0 DB#390F001556627120FFFF7FCFFFFF3FFFFFFFFFFFFF915AB70100000000000000
(00.042314) can0 2D#46B67A04C409001000800020FA6004000800A0FEFFFF7FE001D239FFFFFFFF00FEFF95CEC90F00000000000000000000
(00.047482) can0 D9#3913001523457400A0024000D00F20F3FFFFFFFFFF91483A623913010B530008558500FE03BAFFEF0000000000000000
(00.003270) can0 D9#39130015C68B4F00A0020000D00F20F3FFFFFFFFFF454B763D00000000000000
(00.007973) can0 E3#0500000CF5FCFF00000000004D4F4FAC
(00.008300) can0 DC#3910001630DC51AE2A0AFADCAC00280000000000FFFF46E67255000000000000
(00.008875) can0 DB#390E010F8000FFFFFFFFFFFFFFDFD208BCFDFF390E002052304CFD477F831A3F008055474DC114B3281D5C060300F1FFFFFFFF4708158F000000000000000000
(00.014055) can0 DB#390F0015CD844D20FFFF7FCFFFFF3FFFFFFFFFFFFF4806B3F900000000000000
(00.017951) can0 2D#03E95604C409001000800020FA6004000800A0FEFFFF7FE001D239FFFFFFFF00FEFF4DD8BF6D00000000000000000000
(00.018487) can0 D4#39040C050E0FF4FFFF39FE1D085940B20800000000390C140CFFFFFFFFFDFFFFFFFFFFFFFF0000000000000000000000
(00.022596) can0 E3#39060B080051511800C0CFFF39042208003B877E780FFAFF3980000C00FF817E43EFAFFE4F01CF7E0000000000000000
(00.023120) can0 4F#20560FA000499C22
(00.023286) can0 D9#39130015A93A5000A0024000D00F20F3FFFFFFFFFF47B68D3F00000000000000
(00.028205) can0 DC#391000167D3452AE2A0AFADCAC00280000000000FFFF48EED83B000000000000
(00.028588) can0 18E19490#000000A50000005001000000000000000000001A5A7D00000000020000000000000000004A4A4BEA00E9002C010301F700F9004B4A4B16011311001505150000
(00.029303) can0 DB#390E0020C6144DFD477F831A3F008055474DC114B3281D5C060300F1FFFFFFFF49D7A5DA000000000000000000000000
(00.034053) can0 DB#390F0015EBB54E20FFFF7FCFFFFF3FFFFFFFFFFFFF4A1399BE00000000000000
(00.037944) can0 2D#1CE05704C409001000800020FA6004000800A0FEFFFF7FE001D239FFFFFFFF00FEFF4F9D2B3E00000000000000000000
(00.038480) can0 D9#39FE2808290000000000000039130015E8A75100A0014000D00F20F3FFFFFFFFFF49D6F54B0000000000000000000000
(00.048224) can0 DC#39100016599C53AE2A0AFADCAC00280000000000FFFF4A240ED8000000000000
(00.048607) can0 D9#3913010B530008558500FE03BAFFEF00
(00.048835) can0 DB#390E00207A794EFD477F831A3F008055474DC114B3281D5C060300F1FFFFFFFF4B64CD16000000000000000000000000
(00.000942) can0 D9#39130015FF7A2900A0014000D00F20F3FFFFFFFFFFFBA530743913010B530008558500FE03BAFFEF0000000000000000
(00.006191) can0 DC#39100016EA642BAE2A0AFADCAC00280000000000FFFFFBF04FA4000000000000
(00.006576) can0 18E19490#040300030003008836EE0C2C002201FD000806010101010200000000000000000000000000000000000000000000000000000000000000001311001505150000
(00.007303) can0 DB#390E0020A2EA26FD477F831A3F008015474DC114B3281D5C060300F1FFFFFFFFFC6E8C9A000000000000000000000000
(00.010668) can0 E3#4100050800800343CBD1FF0D
(00.012098) can0 DB#390F00151F662720FFFF7FCFFFFF3FFFFFFFFFFFFFFD5D0BA700000000000000
(00.015967) can0 2D#028B3004C409001000800020FA6004000800A0FEFFFF7FE001D239FFFFFFFF00FEFF01736CCA00000000000000000000
(00.020934) can0 D9#391300150A292A00A0028000D00F20F3FFFFFFFFFFFDB2EC9B00000000000000
(00.026170) can0 DC#39100016750C2CAE2A0AFADCAC00280000000000FFFFFDC1B9A5000000000000
(00.026845) can0 DB#390E002036CE27FD477F831A3F008015474DC114B3281D5C060300F1FFFFFFFFFE42974F000000000000000000000000
(00.030621) can0 E3#4100050801A24BA617DEC7B1
(00.032094) can0 DB#390F0015A1932820FFFF7FCFFFFF3FFFFFFFFFFFFFFF5D437100000000000000
(00.035979) can0 2D#1D823104C409001000800020FA6004000800A0FEFFFF7FE001D239FFFFFFFF00FEFF03CCBCC600000000000000000000
(00.036514) can0 18E19490#000000A50000005001000000000000000000001A5A7D00000000010000000000000000004A4A4BEB00E9002D010301F700F9004B4A4B09011311001505150000
(00.040602) can0 E3#008000046512D002
(00.041929) can0 D9#39130015CC912B01A0028000D00F20F3FFFFFFFFFFFF4B41BD00000000000000
(00.046258) can0 DC#39100110153F423246004E16109C002205F0FFF13910001651A42DAE2A0AFADCAC00280000000000FFFFFF2F72D90000
(00.046891) can0 DB#390E00205B0528FD477F831A3F008015474DC114B3281D5C060300F1FFFFFFFF00E4EB20000000000000000000000000
(00.001163) can0 E3#0500000CF5FCFF0000000000C1FA26E3
(00.001399) can0 DC#39100016FE220BAE2A0AFADCAC00280000000000FFFFBB550A07000000000000
(00.002097) can0 DB#390E010F7C00FFFFFFFFFFFFFFDFD208BCFDFF390E0020A63806FD477F831A3F008015474DC114B3281D5C060300F1FFFFFFFFBC51C1E1000000000000000000
(00.007278) can0 DB#390F00151D5A0720FFFF7FCFFFFF3FFFFFFFFFFFFFBD341EAE00000000000000
(00.011236) can0 18E19490#030000920192010000000000000000020000000000000000000000000000000000B50C102700E40C00000000000054DA055516D70CC409001311001505150000
(00.011955) can0 2D#C3B81004C409001000800020FA6004000800A0FEFFFF7FE001D239FFFFFFFF00FEFFC11A0FB400000000000000000000
(00.012493) can0 D4#39040C050E0FF4FFFF390C140CFFFFFFFFFDFFFFFFFFFFFFFF00000000000000
(00.015799) can0 E3#39060B080051511800C0CFFF39042208003B877E780FFAFF3980000C007FA27E43EFAFFEC389B99D0000000000000000
(00.016319) can0 D9#391300157BC20A00A001C000D00F20F3FFFFFFFFFFBD28B63100000000000000
(00.021371) can0 DC#39100016614A0CAE2A0AFADCAC00280000000000FFFFBDDD151D000000000000
(00.022195) can0 DB#390E0020321C07FD477F831A3F008015474DC114B3281D5C060300F1FFFFFFFFBE8F366B000000000000000000000000
(00.025798) can0 E3#3E800108C30200C0B711E0FF
(00.027183) can0 DB#390F0015A3AF0820FFFF7FCFFFFF3FFFFFFFFFFFFFBF9ADB8E00000000000000
(00.031150) can0 2D#DCB11104C409001000800020FA6004000800A0FEFFFF7FE001D239FFFFFFFF00FEFFC32784F400000000000000000000
(00.036099) can0 D9#391300159AEA0B00A0024000D00F20F3FFFFFFFFFFBF9EDBBA3913010B530008558500FE03BAFFEF0000000000000000
(00.041318) can0 DC#3910001645E20DAE2A0AFADCAC00280000000000FFFFBF39C889000000000000
(00.041701) can0 18E19490#040300030003008836ED0C2C002201FD000806010101010200000000000000000000000000000000000000000000000000000000000000001311001505150000
(00.042427) can0 DB#390E00205FD708FD477F831A3F008015474DC114B3281D5C060300F1FFFFFFFFC085EABC000000000000000000000000
(00.045848) can0 E3#4100050800800343CBD1C38C
(00.047295) can0 DB#390F001541BF0920FFFF7FCFFFFF3FFFFFFFFFFFFFC1D0DD3D00000000000000
(00.002190) can0 DC#391000169748EAAE2A0AFADCAC00280000000000FFFF7930DE01000000000000
(00.003110) can0 DB#390E0020444BE5FD477F831A3F008015474DC114B3281D5C060300F1FFFFFFFF7A72D990000000000000000000000000
(00.006793) can0 E3#4100050800800343CBD17CA8
(00.008142) can0 DB#390F0015F1FEE620FFFF7FCFFFFF3FFFFFFFFFFFFF7B7309AC00000000000000
(00.012095) can0 2D#D1C5EF04C409001000800020FA6004000800A0FEFFFF7FE001D239FFFFFFFF00FEFF7E9769AF00000000000000000000
(00.012628) can0 18E19490#0102001C00FC00800C0701BC02060600000000401F020000AC0D302B012003000002AD012C1200000202BE0353310000AC0D401F0C440A4B1311001505150000
(00.017040) can0 D9#391300159131E9FF9F020000D00F20F3FFFFFFFFFF7B7D4FF200000000000000
(00.022241) can0 DC#39100016B3E0EBAE2A0AFADCAC00280000000000FFFF7AC73CFA000000000000
(00.022930) can0 DB#390E0020F826E6FD477F831A3F008015474DC114B3281D5C060300F1FFFFFFFF7C5226F2000000000000000000000000
(00.026719) can0 E3#4100050801A4C83567A62495
(00.028228) can0 DB#390F001513EEE720FFFF7FCFFFFF3FFFFFFFFFFFFF7DA436B300000000000000
(00.032082) can0 2D#8423F004C409001000800020FA6004000800A0FEFFFF7FE001D239FFFFFFFF00FEFF8114990500000000000000000000
(00.032617) can0 DC#39FE6F089401008000000000
(00.036727) can0 E3#008000041E92C302
(00.038451) can0 D9#391300156462EAFF9F01C000D00F20F3FFFFFFFFFF7C6148DC00000000000000
(00.042197) can0 DC#39100110153F42004600E642109C002205F0FFF5391000162C88ECAE2A0AFADCAC00280000000000FFFF7CE82BA00000
(00.042717) can0 18E19490#02880064646401000000571250EC000000000000EA00EC00BD04010001000000000000004814BF05CF048A1300000000B50C800C490F2C0D1311001505150000
(00.043423) can0 DB#390E00206C02E7FD477F831A3F008015474DC114B3281D5C060300F1FFFFFFFF7D9BD27C000000000000000000000000
(00.048216) can0 DB#390F0015AD1BE820FFFF7FCFFFFF3FFFFFFFFFFFFF7E3546AC00000000000000
(00.002720) can0 DC#39100016A7A6CBAE2A0AFADCAC00280000000000FFFF3BD6C67C000000000000
(00.003103) can0 18E19490#000000A50000005001000000000000000000001A5A7D00000000010000000000000000004A4A4BEB00E9002C010301F700F9004B4A4B1D011311001505150000
(00.003818) can0 DB#390F01064C8504600000390E0020FCF4C6FD477F831A3F008015474DC114B3281D5C060300F1FFFFFFFF3C8A20E30000
(00.008763) can0 DB#390F001511D2C720FFFF7FCFFFFF3FFFFFFFFFFFFF3D04ED5700000000000000
(00.012711) can0 2D#4510D004C409001000800020FA6004000800A0FEFFFF7FE001D239FFFFFFFF00FEFF41A82BB200000000000000000000
(00.017752) can0 D9#39130015A710CA00A0018000D00F20F3FFFFFFFFFF3DD5D8D83913010B530008558500FE03BAFFEF0000000000000000
(00.022752) can0 DC#3910001638CECCAE2A0AFADCAC00280000000000FFFF3D78D284000000000000
(00.023736) can0 DB#390E002068D0C7FD477F831A3F008015474DC114B3281D5C060300F1FFFFFFFF3E8D7CF8000000000000000000000000
(00.027427) can0 E3#4100050800800343CBD14189
(00.028782) can0 DB#390F0015AF27C820FFFF7FCFFFFF3FFFFFFFFFFFFF3FE94A9D00000000000000
(00.032705) can0 18E19490#0102001C00FD00800C0701BC02060600000000401F020000AC0D302B012003000002AD012A1200000202BD035B310000AC0D401F0C3E324B1311001505150000
(00.033410) can0 2D#5A19D104C409001000800020FA6004000800A0FEFFFF7FE001D239FFFFFFFF00FEFF43B5F55000000000000000000000
(00.037749) can0 D9#39130015E5B5CB00A0010000D00F20F3FFFFFFFFFF3F43216400000000000000
(00.042818) can0 DC#391000161C66CDAE2A0AFADCAC00280000000000FFFF3FD3A908000000000000
(00.043661) can0 DB#390E0020051BC8FD477F831A3F008015474DC114B3281D5C060300F1FFFFFFFF405384E8000000000000000000000000
(00.047353) can0 E3#4100050801B5241BE11DB92C
(00.048770) can0 DB#390F00154D37C920FFFF7FCFFFFF3FFFFFFFFFFFFF41476EE800000000000000
(00.004486) can0 DC#3910001620ACADAE2A0AFADCAC00280000000000FFFFFF63B1D4000000000000
(00.004869) can0 18E19490#000000A50000005001000000000000000000001A5A7D00000000010000000000000000004A4A4BEA00E9002C010301F700F9004B4A4B0C011311001505150000
(00.005584) can0 DB#390F01064C8504600000390E0020287DA8FD477F831A3F008015474DC114B3281D5C060300F1FFFFFFFF006D7B730000
(00.010591) can0 DB#390F00154B73A920FFFF7FCFFFFF3FFFFFFFFFFFFF0104DC7000000000000000
(00.014536) can0 2D#3856B204C409001000800020FA6004000800A0FEFFFF7FE001D239FFFFFFFF00FEFF057FCA4F00000000000000000000
(00.019542) can0 D9#391300158688ACFF9F018000F00F20F3FFFFFFFFFF013C3B833913010B530008558500FE03BAFFEF0000000000000000
(00.024496) can0 DC#391000166D44AEAE2A0AFADCAC00280000000000FFFF01E1F089000000000000
(00.025505) can0 DB#390E0020BC59A9FD477F831A3F008015474DC114B3281D5C060300F1FFFFFFFF026E834E000000000000000000000000
(00.029235) can0 E3#4100050800800343CBD10599
(00.030604) can0 DB#390F00156D42AA20FFFF7FCFFFFF3FFFFFFFFFFFFF0335D90600000000000000
(00.034472) can0 18E19490#0102001C00FD00800C0701BC02060600000000401F020000AC0D302B012003000002AE012B1200000202BD035B310000AC0D401F0C38284B1311001505150000
(00.035177) can0 2D#275FB304C409001000800020FA6004000800A0FEFFFF7FE001D239FFFFFFFF00FEFF074F85E700000000000000000000
(00.039534) can0 D9#39130015A5D6AD00A001C000F00F20F3FFFFFFFFFF03EAB65800000000000000
(00.044585) can0 DC#3910001649ECAFAE2A0AFADCAC00280000000000FFFF036B2B13000000000000
(00.045476) can0 DB#390E00200034AAFD477F831A3F008015474DC114B3281D5C060300F1FFFFFFFF04FB29B2000000000000000000000000
(00.049188) can0 E3#4100050801740FD1E1B93E98
(00.003942) can0 E3#00800004FE84AF02
(00.004994) can0 D9#39130015501286FF9F018000F00F20F3FFFFFFFFFFB590AC1F00000000000000
(00.009196) can0 DC#39100110153F423846004606109C002205F0FFF139100016C2C288AE2A0AFADCAC00280000000000FFFFB4CD29370000
(00.010265) can0 DB#390E002011F683FD477F831A3F008015474DC114B3281D5C060300F1FFFFFFFFB55891F0000000000000000000000000
(00.015275) can0 DB#390F0015339B8420FFFF7FCFFFFF3FFFFFFFFFFFFFB693352C00000000000000
(00.019315) can0 2D#AC838D04C409001000800020FA6004000800A0FEFFFF7FE001D239FFFFFFFF00FEFFBBBC918F00000000000000000000
(00.019848) can0 D4#390406041272EC84
(00.024321) can0 D9#39130015C2ED87FF9F014000F00F20F3FFFFFFFFFFB540847700000000000000
(00.029086) can0 DC#39100016E66A89AE2A0AFADCAC00280000000000FFFFB665D8A0000000000000
(00.029468) can0 E3#0500000CF5FCFF0000000000BD93AC4D
(00.029702) can0 18E19490#0102001C00FD00800C0701BC02060600000000401F020000AC0D302B012003000002AE01271200000202BD0363310000AC0D401F0C310E4B1311001505150000
(00.030406) can0 DB#390E010F7C00FFFFFFFFFFFFFFDFD208BCFDFF390E0020FD0984FD477F831A3F008015474DC114B3281D5C060300F1FFFFFFFFB72D7BEC000000000000000000
(00.035275) can0 DB#390F0015D18B8520FFFF7FCFFFFF3FFFFFFFFFFFFFB85CBA8900000000000000
(00.039218) can0 2D#8D988E04C409001000800020FA6004000800A0FEFFFF7FE001D239FFFFFFFF00FEFFBD964B9500000000000000000000
(00.039750) can0 D4#39040C050E0FF4FFFF39FE1D085940B20800000000390C140CFFFFFFFFFDFFFFFFFFFFFFFF0000000000000000000000
(00.043847) can0 E3#39060B080051511800C0CFFF39042208003B877E780FFAFF3980000C007FAB7E43EFAFFEBFCBE2620000000000000000
(00.044370) can0 4F#203707A000499C1E
(00.044537) can0 D9#391300151DE38800A0018000F00F20F3FFFFFFFFFFB7C4B13400000000000000
(00.049100) can0 DC#39100016AB828AAE2A0AFADCAC00280000000000FFFFB824399E000000000000
(00.002819) can0 D9#39130015CC5967FF9F014000F00F20F3FFFFFFFFFF77C8535800000000000000
(00.007810) can0 DC#39100016ABA869AE2A0AFADCAC00280000000000FFFF779847D2000000000000
(00.008926) can0 DB#390E0020A31764FD477F831A3F008015474DC114B3281D5C060300F1FFFFFFFF784CE954000000000000000000000000
(00.012648) can0 E3#4100050801DC5FC9F8871EBC
(00.014072) can0 DB#390F0015DF3F6520FFFF7FCFFFFF3FFFFFFFFFFFFF798188F000000000000000
(00.017842) can0 18E19490#000000A50000005001000000000000000000001A5A7D00000000020000000000000000004A4A4BEA00E9002C010301F700F9004B4A4B16011311001505150000
(00.018557) can0 2D#CA036E04C409001000800020FA6004000800A0FEFFFF7FE001D239FFFFFFFF00FEFF7C736DC600000000000000000000
(00.022642) can0 E3#0080000467A3A902
(00.024209) can0 D9#39130015024368FF9F018000F00F20F3FFFFFFFFFF79C040CE00000000000000
(00.027919) can0 DC#39100110153F423046001616119C002205F0FFF139100016E6406AAE2A0AFADCAC00280000000000FFFF79A7E8FE0000
(00.029037) can0 DB#390E0020373365FD477F831A3F008015474DC114B3281D5C060300F1FFFFFFFF7A42E7D0000000000000000000000000
(00.034062) can0 DB#390F0015F90E6620FFFF7FCFFFFF3FFFFFFFFFFFFF7B2436E500000000000000
(00.038015) can0 2D#D50A6F04C409001000800020FA6004000800A0FEFFFF7FE001D239FFFFFFFF00FEFF7E23FDA200000000000000000000
(00.038551) can0 D4#39040604B91AE684
(00.042850) can0 D9#39130015300969FF9F01C000F00F20F3FFFFFFFFFF7BE4486200000000000000
(00.047809) can0 DC#39100016C2E86BAE2A0AFADCAC00280000000000FFFF7BDCF6AE000000000000
(00.048190) can0 E3#0500000CF5FCFF0000000000815F7EBD
(00.048427) can0 18E19490#0102001C00FC00800C0701BC02060600000000401F020000AC0D302B012003000002AD012E1200000202BD035B310000AC0D401F0C2B044B1311001505150000
(00.049133) can0 DB#390E010F7800FFFFFFFFFFFFFFDFD208BCFDFF390E00208B5E66FD477F831A3F008015474DC114B3281D5C060300F1FFFFFFFF7C4A29CA000000000000000000
(00.003781) can0 DC#39100016F2064AAE2A0AFADCAC00280000000000FFFF39EB6667000000000000
(00.004163) can0 18E19490#040300030003008836ED0C2C002201FD000806010101010200000000000000000000000000000000000000000000000000000000000000001311001505150000
(00.004961) can0 DB#390E002033E145FD477F831A3F008015474DC114B3281D5C060300F1FFFFFFFF3A4DE709000000000000000000000000
(00.008716) can0 E3#4100050800800343CBD03D98
(00.010113) can0 DB#390F0015FB324620FFFF7FCFFFFF3FFFFFFFFFFFFF3BD5764500000000000000
(00.014030) can0 2D#14394F04C409001000800020FA6004000800A0FEFFFF7FE001D239FFFFFFFF00FEFF3F9903CB00000000000000000000
(00.018906) can0 D9#39130015928049FF9F014000F00F20F3FFFFFFFFFF3B9B13FD00000000000000
(00.023773) can0 DC#39100016D6AE4BAE2A0AFADCAC00280000000000FFFF3B7B414C000000000000
(00.024963) can0 DB#390E00208F8C46FD477F831A3F008015474DC114B3281D5C060300F1FFFFFFFF3CC63D48000000000000000000000000
(00.028678) can0 E3#4100050801B6A423D999CD41
(00.030109) can0 DB#390F001519224720FFFF7FCFFFFF3FFFFFFFFFFFFF3D6C919B00000000000000
(00.033835) can0 18E19490#000000A50000005001000000000000000000001A5A7D00000000010000000000000000004A4A4BEB00E9002C010201F700F9004B4A4B19011311001505150000
(00.034551) can0 2D#41DF5004C409001000800020FA6004000800A0FEFFFF7FE001D239FFFFFFFF00FEFF41D0099000000000000000000000
(00.038756) can0 E3#00800004CCCBA302
(00.040214) can0 D9#3913001514044AFF9F01C000F00F20F3FFFFFFFFFF3DA8827900000000000000
(00.043884) can0 DC#39100110153F42004600E642109C002205F0FFF53910001649C64CAE2A0AFADCAC00280000000000FFFF3DC405BB0000
(00.045104) can0 DB#390E00201BA847FD477F831A3F008015474DC114B3281D5C060300F1FFFFFFFF3E63368A000000000000000000000000
(00.001695) can0 DB#390F001575352220FFFF7FCFFFFF3FFFFFFFFFFFFFF2C5034300000000000000
(00.005514) can0 D9#39FE28082900000000000000391300151BC02500A0020001F00F20F3FFFFFFFFFFF1CF0FDD0000000000000000000000
(00.006048) can0 2D#2B492B04C409001000800020FA6004000800A0FEFFFF7FE001D239FFFFFFFF00FEFFF7026D5100000000000000000000
(00.015286) can0 DC#39100016BDF527AE2A0AFADCAC00280000000000FFFFF2AAF03D000000000000
(00.015670) can0 D9#3913010B530008558500FE03BAFFEF00
(00.016559) can0 DB#390E0020F27822FD477F831A3F008015474DC114B3281D5C060300F1FFFFFFFFF35C573C000000000000000000000000
(00.020304) can0 E3#4100050800800343CBCFF7D3
(00.021536) can0 21C#1102010E000001F405DC09380FA01388189C1C3E21E8254427100000000000000000000000000000000000000000000000000000000000000000000000000000
(00.022471) can0 DB#390F001597252320FFFF7FCFFFFF3FFFFFFFFFFFFFF313669100000000000000
(00.025388) can0 18E19490#0102001C00FD00800C0701BC02060600000000401F020000AC0D302B012003000002AE012C1200000202BD035B310000AC0D401F0C1D154B1311001505150000
(00.026095) can0 2D#76762C04C409001000800020FA6004000800A0FEFFFF7FE001D239FFFFFFFF00FEFFF9143DC000000000000000000000
(00.030456) can0 D9#391300159B902600A001C000F00F20F3FFFFFFFFFFF3B9025400000000000000
(00.035348) can0 DC#39100016A78C28AE2A0AFADCAC00280000000000FFFFF422F1A7000000000000
(00.035755) can0 21D#304028
(00.035908) can0 21C#21000000000000000000000000000000000000000000000000000000000000000000000000000000000000000000000000000000000000000000000000000000
(00.036754) can0 DB#390E0020665C23FD477F831A3F008015474DC114B3281D5C060300F1FFFFFFFFF464B315000000000000000000000000
(00.040261) can0 E3#4100050801CF05281460E8FE
(00.040526) can0 4F#289C0300277F3F2B
(00.041707) can0 DB#390F001539572420FFFF7FCFFFFF3FFFFFFFFFFFFFF565E53C00000000000000
(00.045612) can0 2D#697F2D04C409001000800020FA6004000800A0FEFFFF7FE001D239FFFFFFFF00FEFFFBABF8B600000000000000000000
(00.046148) can0 DC085B#4001000400000000
(00.003649) can0 D9#39130015CF720500A0010000F00F20F3FFFFFFFFFFB34F972600000000000000
(00.008408) can0 DC#39100016A9B307AE2A0AFADCAC00280000000000FFFFB3930DFA000000000000
(00.008792) can0 E3#0500000CF5FCFF0000000000B9BC7EAB
(00.009701) can0 DB#390E010F7C00FFFFFFFFFFFFFFDFD208BCFDFF390E0020F6AA02FD477F831A3F008015474DC114B3281D5C060300F1FFFFFFFFB4938A91000000000000000000
(00.014827) can0 DB#390F001595190320FFFF7FCFFFFF3FFFFFFFFFFFFFB555C7F700000000000000
(00.018734) can0 2D#B7450C04C409001000800020FA6004000800A0FEFFFF7FE001D239FFFFFFFF00FEFFB8348B0500000000000000000000
(00.019269) can0 D4#39040C050E0FF4FFFF390C140CFFFFFFFFFDFFFFFFFFFFFFFF00000000000000
(00.023370) can0 E3#39060B080051511800C0CFFF39042208003B877E780FFAFF3980000C00FF807E43EFAFFEBB034CDC0000000000000000
(00.023894) can0 D9#3913001599AC0600A001C000F00F20F3FFFFFFFFFFB554AEF000000000000000
(00.028321) can0 DC#39100016B3CA08AE2A0AFADCAC00280000000000FFFFB540FD20000000000000
(00.028706) can0 18E19490#000000A50000005001000000000000000000001A5A7D00000000010000000000000000004A4A4BEB00E9002C010301F600F9004B4A4B05011311001505150000
(00.029708) can0 DB#390E0020628E03FD477F831A3F008015474DC114B3281D5C060300F1FFFFFFFFB61578B3000000000000000000000000
(00.034827) can0 DB#390F00153B6B0420FFFF7FCFFFFF3FFFFFFFFFFFFFB753C54400000000000000
(00.038728) can0 2D#A84C0D04C409001000800020FA6004000800A0FEFFFF7FE001D239FFFFFFFF00FEFFBA87CDC100000000000000000000
(00.043385) can0 D9#391300156AA807FF9F01C000F00F20F3FFFFFFFFFFB79B1E5E3913010B530008558500FE03BAFFEF0000000000000000
(00.048347) can0 DC#39100016976209AE2A0AFADCAC00280000000000FFFFB722C73C000000000000
(00.002313) can0 18E19490#02880064646401000000E112ED2F000000000000E900EC00BD04000001000000FDFF00004414B805CF04821300000000B50C800C450F2C0D1311001505150000
(00.003015) can0 2D#B2E8EA04C409001000800020FA6004000800A0FEFFFF7FE001D239FFFFFFFF00FEFF7509EC6E00000000000000000000
(00.007408) can0 D9#39130015727DE401A0010001F00F20F3FFFFFFFFFF71A18ED73913010B530008558500FE03BAFFEF0000000000000000
(00.012246) can0 DC#39100016C0D9E6AE2A0AFADCAC00280000000000FFFF71789B2F000000000000
(00.013594) can0 DB#390E002014D9E1FD477F831A3F008015474DC114B3281D5C060300F1FFFFFFFF725B6172000000000000000000000000
(00.017332) can0 E3#4100050800800343CBCF7587
(00.018744) can0 DB#390F001579BDE220FFFF7FCFFFFF3FFFFFFFFFFFFF7342B93F00000000000000
(00.022629) can0 2D#ADE1EB04C409001000800020FA6004000800A0FEFFFF7FE001D239FFFFFFFF00FEFF7717AFB400000000000000000000
(00.027590) can0 D9#391300154037E501A0014001F00F20F3FFFFFFFFFF7342B9D500000000000000
(00.032120) can0 DC#39100016E471E7AE2A0AFADCAC00280000000000FFFF738BA619000000000000
(00.032501) can0 18E19490#030000A801A8010000000000000000020000000000000000000000000000000000B50C102700E40C00000000000054DB055916D50CC409001311001505150000
(00.033595) can0 DB#390E0020A8B4E2FD477F831A3F008015474DC114B3281D5C060300F1FFFFFFFF741F2AE5000000000000000000000000
(00.037279) can0 E3#4100050801383A70DE511047
(00.038755) can0 DB#390F00159BADE320FFFF7FCFFFFF3FFFFFFFFFFFFF7505BC2A00000000000000
(00.042622) can0 2D#F0DEEC04C409001000800020FA6004000800A0FEFFFF7FE001D239FFFFFFFF00FEFF79F635C900000000000000000000
(00.047267) can0 E3#00800004B0B38F02
(00.048712) can0 D9#391300159718E600A001C000F00F20F3FFFFFFFFFF75792DC600000000000000
(00.000941) can0 DB#390E00203842C3FD477F831A3F008015474DC114B3281D5C060300F1FFFFFFFF361BF3F4000000000000000000000000
(00.004671) can0 E3#4100050800800343CBCF395A
(00.006093) can0 DB#390F001537E3C420FFFF7FCFFFFF3FFFFFFFFFFFFF37288CA800000000000000
(00.009973) can0 2D#2EE4CD04C409001000800020FA6004000800A0FEFFFF7FE001D239FFFFFFFF00FEFF3BF995EE00000000000000000000
(00.014713) can0 D9#3913001507DBC700A0010000F00F20F3FFFFFFFFFF3798959C00000000000000
(00.019407) can0 DC#39100016CEE6C9AE2A0AFADCAC00280000000000FFFF371299D4000000000000
(00.019789) can0 18E19490#0300008C018C010000000000000000020000000000000000000000000000000000B50C102700E40C00000000000054D9054E16D20CC409001311001505150000
(00.020943) can0 DB#390E0020D4BDC4FD477F831A3F008015474DC114B3281D5C060300F1FFFFFFFF3854763E000000000000000000000000
(00.024624) can0 E3#4100050801409F4C28E9D6C8410000080057314B414635453204000C2B3AC853670700F03AC13A000000000000000000
(00.026110) can0 DB#390F0015D5F3C520FFFF7FCFFFFF3FFFFFFFFFFFFF396564E200000000000000
(00.029965) can0 2D#0FFFCE04C409001000800020FA6004000800A0FEFFFF7FE001D239FFFFFFFF00FEFF3DD9807D00000000000000000000
(00.035944) can0 D9#39130015199BC800A0018000F00F20F3FFFFFFFFFF39A1CF9B00000000000000
(00.039445) can0 DC#39100110153F4230460016160D9C002205F0FFF139100016830ECAAE2A0AFADCAC00280000000000FFFF3904C75B0000
(00.040041) can0 E3#0080000429948902410000080142315052313138
(00.041061) can0 DB#390E00204099C5FD477F831A3F008015474DC114B3281D5C060300F1FFFFFFFF3A2E694B000000000000000000000000
(00.046079) can0 DB#390F0015F3C2C620FFFF7FCFFFFF3FFFFFFFFFFFFF3B7C805000000000000000
(00.000344) can0 DB#390F01064C8504602800390E0020F9DBA4FD477F831A3F008015474DC114B3281D5C060300F1FFFFFFFFF75AF6870000
(00.005452) can0 DB#390F0015D3B7A520FFFF7FCFFFFF3FFFFFFFFFFFFFF8E1592900000000000000
(00.008907) can0 18E19490#02880064646401000000E312B154000000000000E900EB00BD04010001000000000000005114A905CF04871300000000B50C800C140F2C0D1311001505150000
(00.009611) can0 2D#4CABAE04C409001000800020FA6004000800A0FEFFFF7FE001D239FFFFFFFF00FEFFFD9B84A400000000000000000000
(00.013881) can0 D9#39130015CA69A800A0010001F00F20F3FFFFFFFFFFF7AE63463913010B530008558500FE03BAFFEF0000000000000000
(00.018813) can0 DC#39100016BFC4AAAE2A0AFADCAC00280000000000FFFFF8794ACA000000000000
(00.020315) can0 DB#390E00206DFFA5FD477F831A3F008015474DC114B3281D5C060300F1FFFFFFFFF9E435D4000000000000000000000000
(00.024020) can0 E3#4100050800800343CBCEFD5D
(00.025465) can0 DB#390F0015F586A620FFFF7FCFFFFF3FFFFFFFFFFFFFF9C0F9FA00000000000000
(00.029334) can0 2D#53A2AF04C409001000800020FA6004000800A0FEFFFF7FE001D239FFFFFFFF00FEFFFFD0536000000000000000000000
(00.033877) can0 D9#391300155E42A900A0028000F00F20F3FFFFFFFFFFF990227F00000000000000
(00.038719) can0 DC#391000169B6CABAE2A0AFADCAC00280000000000FFFFFAC309B2000000000000
(00.039101) can0 18E19490#030000960196010000000000000000020000000000000000000000000000000000B50C102700E40C00000000000054D9055316D10CC409001311001505150000
(00.040366) can0 DB#390E0020D192A6FD477F831A3F008015474DC114B3281D5C060300F1FFFFFFFFFAF98269000000000000000000000000
(00.043985) can0 E3#410005080189C4D2DEECD6C4
(00.044246) can0 4F#28ED0E0009B0C461
(00.045462) can0 DB#390F00151796A720FFFF7FCFFFFF3FFFFFFFFFFFFFFBE60C9C00000000000000
(00.049345) can0 2D#0644B004C409001000800020FA6004000800A0FEFFFF7FE001D239FFFFFFFF00FEFF0144741200000000000000000000
(00.000579) can0 DC#3910001647D380AE2A0AFADCAC00280000000000FFFFA576C036000000000000
(00.002207) can0 DB#390E010F7C00FFFFFFFFFFFFFFDFD208BCFDFF390E0020CCB57BFD477F831A3F008015474DC114B3281D5C060300F1FFFFFFFFA6153F05000000000000000000
(00.007334) can0 DB#390F00152CB67C20FFFF7FCFFFFF3FFFFFFFFFFFFFA78ABF0000000000000000
(00.011215) can0 2D#54CB8504C409001000800020FA6004000800A0FEFFFF7FE001D239FFFFFFFF00FEFFAB4026C000000000000000000000
(00.011750) can0 D4#39040C050E0FF4FFFF3915011444019201F85FF5FFFFFFFFFE07009F2801FEFFFF390C140CFFFFFFFFFDFFFFFFFFFFFFFF000000000000000000000000000000
(00.015752) can0 D9#39130015BF037F00A0020000F00F20F3FFFFFFFFFFA70C762400000000000000
(00.016137) can0 E3#39060B080051511800C0CFFF39042208003BC67E782FFEFF
(00.020519) can0 DC#39100016637B81AE2A0AFADCAC00280000000000FFFFA7B68C89000000000000
(00.020901) can0 18E19490#000000A50000005001000000000000000000001A5A7D00000000010000000000000000004A4A4BEB00E9002C010301F700F9004B4A4B2A011311001505150000
(00.022277) can0 DB#390F01064C8504600000390E0020204A7CFD477F831A3F008015474DC114B3281D5C060300F1FFFFFFFFA8887D7D0000
(00.027334) can0 DB#390F0015CEA67D20FFFF7FCFFFFF3FFFFFFFFFFFFFA9865F3700000000000000
(00.031197) can0 2D#75D08604C409001000800020FA6004000800A0FEFFFF7FE001D239FFFFFFFF00FEFFAD9FDA3200000000000000000000
(00.035710) can0 D9#391300156C9F80FF9F014000F00F20F3FFFFFFFFFFA9CA3E7F3913010B530008558500FE03BAFFEF0000000000000000
(00.040518) can0 DC#391000162E9382AE2A0AFADCAC00280000000000FFFFA9CC73FD000000000000
(00.042195) can0 DB#390E0020B46E7DFD477F831A3F008015474DC114B3281D5C060300F1FFFFFFFFAAC985C4000000000000000000000000
(00.045896) can0 E3#4100050800800343CBCEAD26
(00.047346) can0 DB#390F0015E8977E20FFFF7FCFFFFF3FFFFFFFFFFFFFAB240AB400000000000000
(00.006349) can0 DC#391000160E0D5FAE2A0AFADCAC00280000000000FFFF62315DA0000000000000
(00.006755) can0 D9#3913010B530008558500FE03BAFFEF00
(00.008013) can0 DB#390E00205C435AFD477F831A3F008015474DC114B3281D5C060300F1FFFFFFFF63526CB1000000000000000000000000
(00.011701) can0 E3#4100050800800343CBCE6788
(00.012991) can0 21C#1102010C0BB80B540A2809C407D005DC03E801F40000000000000000000000000000000000000000000000000000000000000000000000000000000000000000
(00.013693) can0 21D#304028
(00.013926) can0 DB#390F001580F85B20FFFF7FCFFFFF3FFFFFFFFFFFFF63DA544B00000000000000
(00.014324) can0 21C#21000000000000000000000000000000000000000000000000000000000000000000000000000000000000000000000000000000000000000000000000000000
(00.017020) can0 2D#0C596404C409001000800020FA6004000800A0FEFFFF7FE001D239FFFFFFFF00FEFF6941052500000000000000000000
(00.021642) can0 D9#391300158C4D5E00A001C000F00F20F3FFFFFFFFFF63085BE100000000000000
(00.026279) can0 DC#391000160A1160AE2A0AFADCAC00280000000000FFFF64EEC5E0000000000000
(00.026663) can0 18E19490#030000A701A7010000000000000000020000000000000000000000000000000000B50C102700E40C00000000000054D9055916D80CC409001311001505150000
(00.028185) can0 DB#390E0020C8675BFD477F831A3F008015474DC114B3281D5C060300F1FFFFFFFF6495A793000000000000000000000000
(00.031663) can0 E3#4100050801C6FFB34DD81E2D
(00.031934) can0 4F#28AD0B0027857750
(00.033162) can0 DB#390F00152E8A5C20FFFF7FCFFFFF3FFFFFFFFFFFFF656B4A4700000000000000
(00.037010) can0 2D#13506504C409001000800020FA6004000800A0FEFFFF7FE001D239FFFFFFFF00FEFF6B78962800000000000000000000
(00.037544) can0 DC085B#4001000400000000
(00.038205) can0 21C#22000000000000000000000000000000000000000000000000000000000000000000000000000000000000000000000000000000000000000000000000000000
(00.041657) can0 E3#00800004E2327402
(00.042947) can0 D9#39130015AF135FFF9F018000F00F20F3FFFFFFFFFF65CCD32400000000000000
(00.046339) can0 DC#39100110153F423046006E06109C002205F0FFF1391000162EB961AE2A0AFADCAC00280000000000FFFF66D1DDE10000
(00.048113) can0 DB#39FE0B086100000000000000390E002024985CFD477F831A3F008015474DC114B3281D5C060300F1FFFFFFFF6816DB76
(00.001796) can0 D9#39130015B8433F00A0018000F00F20F3FFFFFFFFFF2723880A3913010B530008558500FE03BAFFEF0000000000000000
(00.006645) can0 DC#391000163AFF41AE2A0AFADCAC00280000000000FFFF27753DD1000000000000
(00.008372) can0 DB#390E002009FE3CFD477F831A3F008015474DC114B3281D5C060300F1FFFFFFFF2873F5AD000000000000000000000000
(00.012052) can0 E3#4100050800800343CBCE2A05
(00.013529) can0 DB#390F0015CADE3D20FFFF7FCFFFFF3FFFFFFFFFFFFF29AC81E300000000000000
(00.017360) can0 2D#F3784604C409001000800020FA6004000800A0FEFFFF7FE001D239FFFFFFFF00FEFF2C161B6A00000000000000000000
(00.021789) can0 D9#3913001571034000A0014000F00F20F3FFFFFFFFFF292A75DE00000000000000
(00.026580) can0 DC#39100016771742AE2A0AFADCAC00280000000000FFFF28E5C25D000000000000
(00.026961) can0 18E19490#0300009E019E010000000000000000020000000000000000000000000000000000B50C102700E40C00000000000054D9055516D70CC409001311001505150000
(00.028423) can0 DB#390E00209DDA3DFD477F831A3F008015474DC114B3281D5C060300F1FFFFFFFF2A73C367000000000000000000000000
(00.032015) can0 E3#41000508012BA98246C9C643
(00.033520) can0 DB#390F0015ECEF3E20FFFF7FCFFFFF3FFFFFFFFFFFFF2B89CF7B00000000000000
(00.037359) can0 2D#EC714704C409001000800020FA6004000800A0FEFFFF7FE001D239FFFFFFFF00FEFF2F58FF2600000000000000000000
(00.041999) can0 E3#00800004EE416E02
(00.042787) can0 D9#3913001593134100A0014000F00F20F3FFFFFFFFFF2B6A509900000000000000
(00.046637) can0 DC#39100110153F423946003E06109C002205F0FFF13910001653BF43AE2A0AFADCAC00280000000000FFFF2A0E61880000
(00.048463) can0 DB#390E002021B73EFD477F831A3F008015474DC114B3281D5C060300F1FFFFFFFF2B52B026000000000000000000000000
(00.004113) can0 D9#3913001524F621FF9F01C000F00F20F3FFFFFFFFFFEB35B6043913010B530008558500FE03BAFFEF0000000000000000
(00.008940) can0 DC#391000166F7523AE2A0AFADCAC00280000000000FFFFEB56BE29000000000000
(00.010728) can0 DB#390E002025651EFD477F831A3F008015474DC114B3281D5C060300F1FFFFFFFFEC7DCD50000000000000000000000000
(00.014416) can0 E3#4100050800800343CBCDEF85
(00.015881) can0 DB#390F00150CC31F20FFFF7FCFFFFF3FFFFFFFFFFFFFEDB6D38900000000000000
(00.019711) can0 2D#0A522804C409001000800020FA6004000800A0FEFFFF7FE001D239FFFFFFFF00FEFFF135F38300000000000000000000
(00.024107) can0 D9#39130015A27222FF9F014000F00F20F3FFFFFFFFFFED2AAA7E00000000000000
(00.028856) can0 DC#39100016F01D24AE2A0AFADCAC00280000000000FFFFEDEAC401000000000000
(00.029240) can0 18E19490#030000960196010000000000000000020000000000000000000000000000000000B50C102700E40C00000000000054D9055B16D20CC409001311001505150000
(00.030730) can0 DB#390E0020B1411FFD477F831A3F008015474DC114B3281D5C060300F1FFFFFFFFEEB0F6DE000000000000000000000000
(00.034363) can0 E3#41000508013590634D335313
(00.035876) can0 DB#390F0015B1142020FFFF7FCFFFFF3FFFFFFFFFFFFFEF374F5400000000000000
(00.039706) can0 2D#155B2904C409001000800020FA6004000800A0FEFFFF7FE001D239FFFFFFFF00FEFFF280B46300000000000000000000
(00.044351) can0 E3#0080000477666802
(00.045095) can0 D9#3913001522A12300A0020000F00F20F3FFFFFFFFFFEF09F88800000000000000
(00.048931) can0 DC#39100110153F423046000E16119C002205F0FFF139100016D4B525AE2A0AFADCAC00280000000000FFFFEF6AF5F20000
(00.002248) can0 D9#39130015701402FF9F010000F00F20F3FFFFFFFFFFADC5B3C600000000000000
(00.002632) can0 E3#39060B080051511800C0CFFF39042208003B877E780FFAFF410002080101B9A313EAB07B000000000000000000000000
(00.006754) can0 DC#39100016E45B04AE2A0AFADCAC00280000000000FFFFAD2971E6000000000000
(00.008708) can0 DB#390E002063FCFFFD477F831A3F0080D5464DC114B3281D5C060300F1FFFFFFFFAE1D2DB3000000000000000000000000
(00.012315) can0 E3#3980000C007FE07E43EFAFFEB3584E334100000803B1AF646FB2000000000000
(00.013846) can0 DB#390F0015B3280020FFFF7FCFFFFF3FFFFFFFFFFFFFAF1B32F500000000000000
(00.017006) can0 18E19490#028800646464010000009312C845000000000000E900EC00BC04010000000000000000004B14CA05D204871300000000B60C800CCA0E2C0D1311001505150000
(00.017813) can0 2D#D4680904C409001000800020FA6004000800A0FEFFFF7FE001D239FFFFFFFF00FEFFB33F7FC800000000000000000000
(00.022033) can0 D9#3913001583100300A0010000F00F20F3FFFFFFFFFFAF3F47B43913010B530008558500FE03BAFFEF0000000000000000
(00.022557) can0 E3#41000208028A15EC9F2C5E71
(00.026854) can0 DC#39100016C0F305AE2A0AFADCAC00280000000000FFFFAF4CEAAB000000000000
(00.028685) can0 DB#390E0020524000FD477F831A3F0080D5464DC114B3281D5C060300F1FFFFFFFFB06128BC000000000000000000000000
(00.032367) can0 E3#4100050800800343CBCDB3BD
(00.033839) can0 DB#390F001551380120FFFF7FCFFFFF3FFFFFFFFFFFFFB13849BD00000000000000
(00.037660) can0 2D#F5730A04C409001000800020FA6004000800A0FEFFFF7FE001D239FFFFFFFF00FEFFB58D1A8B00000000000000000000
(00.042029) can0 D9#391300155D8D0400A001C000F00F20F3FFFFFFFFFFB13FA94800000000000000
(00.046735) can0 DC#391000168D1B06AE2A0AFADCAC00280000000000FFFFB1E1C444000000000000
(00.047118) can0 18E19490#0300009B019B010000000000000000020000000000000000000000000000000000B60C102700E40C00000000000054D9055016D20CC409001311001505150000
(00.048688) can0 DB#390E0020C66401FD477F831A3F0080D5464DC114B3281D5C060300F1FFFFFFFFB20795C5000000000000000000000000
(00.000319) can0 2D#B2E8EA04C409001000800020FA6004000800A0FEFFFF7FE001D239FFFFFFFF00FEFF75BA00A300000000000000000000
(00.000852) can0 D4#39040C050E0FF4FFFF390C140CFFFFFFFFFDFFFFFFFFFFFFFF00000000000000
(00.004665) can0 D9#3913001547C1E4FF9F010001F00F20F3FFFFFFFFFF71BCDE5C00000000000000
(00.005051) can0 E3#39060B080051511800C0CFFF39042208003B877E780FFAFF3980000C00FFC17E41EFAFFE7742A9400000000000000000
(00.009357) can0 DC#39100016C0D9E6AE2A0AFADCAC00280000000000FFFF71D102B6000000000000
(00.011374) can0 DB#390E0020987AE1FD477F831A3F0080D5464DC114B3281D5C060300F1FFFFFFFF72678050000000000000000000000000
(00.014966) can0 E3#3E800108C30200C0B711E0FF
(00.016489) can0 DB#390F001579BDE220FFFF7FCFFFFF3FFFFFFFFFFFFF737F947400000000000000
(00.019553) can0 18E19490#02880064646401000000951234EE000000000000E900EC00BD04000001000000010000004E14CB05D1048A1300000000B60C800C030F2C0D1311001505150000
(00.020321) can0 2D#ADE1EB04C409001000800020FA6004000800A0FEFFFF7FE001D239FFFFFFFF00FEFF772D7AE600000000000000000000
(00.024820) can0 D9#3913001554CFE5FE9F018000F00F20F3FFFFFFFFFF732C384D3913010B530008558500FE03BAFFEF0000000000000000
(00.029416) can0 DC#39100016E471E7AE2A0AFADCAC00280000000000FFFF73A4F5D2000000000000
(00.031401) can0 DB#390E00202417E2FD477F831A3F0080D5464DC114B3281D5C060300F1FFFFFFFF747616C7000000000000000000000000
(00.035006) can0 E3#4100050800800343CBCD776E
(00.036502) can0 DB#390F00159BADE320FFFF7FCFFFFF3FFFFFFFFFFFFF753BFD8A00000000000000
(00.040317) can0 2D#F0DEEC04C409001000800020FA6004000800A0FEFFFF7FE001D239FFFFFFFF00FEFF79D6864700000000000000000000
(00.044818) can0 D9#391300157AEFE6FF9F01C0FFEF0F20F3FFFFFFFFFF7512EBC200000000000000
(00.049364) can0 DC#39100016FE08E8AE2A0AFADCAC00280000000000FFFF753B0869000000000000
(00.002671) can0 DC#39100016830ECAAE2A0AFADCAC00280000000000FFFF38CFBBC4000000000000
(00.003054) can0 18E19490#030000980198010000000000000000020000000000000000000000000000000000B60C102700E40C00000000000054D9055516D20CC409001311001505150000
(00.004861) can0 DB#390E00206B1EC5FD377F831A3F0080D5464DC114B3281D5C060300F1FFFFFFFF3884A66F000000000000000000000000
(00.008282) can0 E3#4100050801A7479F333BF432
(00.008569) can0 4F#28C9050027850F1E
(00.009836) can0 DB#390F0015F3C2C620FFFF7FCFFFFF3FFFFFFFFFFFFF3973833000000000000000
(00.013644) can0 2D#10F6CF04C409001000800020FA6004000800A0FEFFFF7FE001D239FFFFFFFF00FEFF3F7612BF00000000000000000000
(00.014178) can0 DC085B#4001000400000000
(00.018291) can0 E3#00800004C4E85602
(00.019619) can0 D9#39130015EA9FC9FF9F018000F00F20F3FFFFFFFFFF3992E22700000000000000
(00.022722) can0 DC#39100110153F423246007E06119C002205F0FFF139100016A7A6CBAE2A0AFADCAC00280000000000FFFF3A45B0520000
(00.024838) can0 DB#39FE0B086100000000000000390E0020D773C6FD377F831A3F0080D5464DC114B3281D5C060300F1FFFFFFFF3C1082FE
(00.025364) can0 21C#22000000000000000000000000000000000000000000000000000000000000000000000000000000000000000000000000000000000000000000000000000000
(00.026084) can0 21D#300228
(00.026241) can0 21C#23000000000000000000000000000000000000000000000000000000000000000000000000000000000000000000000000000000000000000000000000000000
(00.027717) can0 44#04
(00.029840) can0 DB#390F001511D2C720FFFF7FCFFFFF3FFFFFFFFFFFFF3D7E80F200000000000000
(00.032722) can0 18E19490#040300030003008836ED0C2B002201FC000806010101010200000000000000000000000000000000000000000000000000000000000000001311001505150000
(00.033682) can0 2D#4510D004C409001000800020FA6004000800A0FEFFFF7FE001D239FFFFFFFF00FEFF418F894F00000000000000000000
(00.034216) can0 D4#3904060489E49384
(00.038052) can0 D9#39130015BC41CAFF9F014000F00F20F3FFFFFFFFFF3D722DDD00000000000000
(00.039620) can0 DB#390E022A3E004A00650AB0811778010047403E49E0D16CC24C85D44D8C72F847CE43068867E9FFFFFFFF3D12DE320000
(00.042759) can0 DC#3910001638CECCAE2A0AFADCAC00280000000000FFFF3D14E1CB000000000000
(00.044696) can0 DB#390E010F8000FFFFFFFFFFFFFFDFD208BCFDFF390E030865FFDBF8FFFFFFFF00
(00.000130) can0 D9#391300150BA4AA00A001C000F00F20F3FFFFFFFFFFFD69E6AD00000000000000
(00.004664) can0 DC#391000160404ACAE2A0AFADCAC00280000000000FFFFFC2AF952000000000000
(00.005049) can0 18E19490#030000970197010000000000000000020000000000000000000000000000000000B60C102700E40C00000000000054D9055716D50CC409001311001505150000
(00.006747) can0 DB#390E00206E31A7FD377F831A3F0080D5464DC114B3281D5C060300F1FFFFFFFFFE147A76000000000000000000000000
(00.010336) can0 E3#4100050801395B41D023AAC0
(00.011895) can0 DB#390F0015A963A820FFFF7FCFFFFF3FFFFFFFFFFFFFFF2351D000000000000000
(00.015698) can0 2D#194DB104C409001000800020FA6004000800A0FEFFFF7FE001D239FFFFFFFF00FEFF0346DAB100000000000000000000
(00.020341) can0 E3#008000045DCF5002
(00.021431) can0 D9#39130015E9B4AB00A001C000F00F20F3FFFFFFFFFFFFD8104C00000000000000
(00.024718) can0 DC#39100110153F423245004E16109C002205F0FFF13910001620ACADAE2A0AFADCAC00280000000000FFFFFE09DB0D0000
(00.026838) can0 DB#390E002003FAA8FD377F831A3F0080D5464DC114B3281D5C060300F1FFFFFFFFFF8E13F4000000000000000000000000
(00.029750) can0 44#04
(00.031884) can0 DB#390F00154B73A920FFFF7FCFFFFF3FFFFFFFFFFFFF0049AB4A00000000000000
(00.034717) can0 18E19490#040300030003008836ED0C2B002201FD000806010101010200000000000000000000000000000000000000000000000000000000000000001311001505150000
(00.035730) can0 2D#3856B204C409001000800020FA6004000800A0FEFFFF7FE001D239FFFFFFFF00FEFF05671D4E00000000000000000000
(00.036264) can0 D4#39040604745D8D84
(00.040060) can0 D9#39130015C3DBAC01A0014000F00F20F3FFFFFFFFFFFF83A5DF00000000000000
(00.044737) can0 DC#391000166D44AEAE2A0AFADCAC00280000000000FFFF00800682000000000000
(00.046758) can0 DB#390E010F8000FFFFFFFFFFFFFFDFD208BCFDFF390E002030FAA9FD477F831A3F0080D5464DC114B3281D5C060300F1FFFFFFFF01AC061A000000000000000000
(00.000905) can0 E3#008000048D274902
(00.001497) can0 D9#391300157C1888FF9F014000F00F20F3FFFFFFFFFFB99EE82C00000000000000
(00.005295) can0 DC#39100110153F423045001616119C002205F0FFF139100016AB828AAE2A0AFADCAC00280000000000FFFFB939FE9A0000
(00.007334) can0 DB#390E0020E58E85FD477F831A3F0080D5464DC114B3281D5C060300F1FFFFFFFFBA7DDF9A000000000000000000000000
(00.012472) can0 DB#390F0015F7BA8620FFFF7FCFFFFF3FFFFFFFFFFFFFBBCBC44300000000000000
(00.016298) can0 2D#92918F04C409001000800020FA6004000800A0FEFFFF7FE001D239FFFFFFFF00FEFFBF46012100000000000000000000
(00.016832) can0 D4#390406046B438684
(00.020540) can0 D9#391300154E5289FF9F010000F00F20F3FFFFFFFFFFBBC49B5700000000000000
(00.025181) can0 DC#391000168F2A8BAE2A0AFADCAC00280000000000FFFFBB26D000000000000000
(00.025564) can0 18E19490#0102001C00FC00800C0701BC02060600000000401F020000AC0D312B012003000002AE012B1200000202BC0373310000AC0D401F0C302E4B1311001505150000
(00.026323) can0 E3#0500000CF5FCFF0000000000C18E0991
(00.027346) can0 DB#390E010F8000FFFFFFFFFFFFFFDFD208BCFDFF390E0020FEC786FD377F831A3F0080D5464DC114B3281D5C060300F1FFFFFFFFBCE8FE7B000000000000000000
(00.032472) can0 DB#390F001515AA8720FFFF7FCFFFFF3FFFFFFFFFFFFFBD1C319800000000000000
(00.036285) can0 2D#C7779004C409001000800020FA6004000800A0FEFFFF7FE001D239FFFFFFFF00FEFFC14CA96400000000000000000000
(00.036820) can0 D4#39040C050E0FF4FFFF390C140CFFFFFFFFFDFFFFFFFFFFFFFF00000000000000
(00.040540) can0 D9#3913001568638AFF9F010000F00F20F3FFFFFFFFFFBD11016C00000000000000
(00.040923) can0 E3#39060B080051511800C0CFFF39042208003B877E781FFAFF3980000C007FE27E41EFAFFEC33271850000000000000000
(00.045218) can0 DC#3910001610428CAE2A0AFADCAC00280000000000FFFFBDBA5F8C000000000000
(00.047404) can0 DB#390E00206AE387FD377F831A3F0080D5464DC114B3281D5C060300F1FFFFFFFFBE5BE528000000000000000000000000
(00.000708) can0 DB#390F001547FB6920FFFF7FCFFFFF3FFFFFFFFFFFFF8089C56500000000000000
(00.004511) can0 2D#BEFE7204C409001000800020FA6004000800A0FEFFFF7FE001D239FFFFFFFF00FEFF8440814C00000000000000000000
(00.005048) can0 D4#39040C050E0FF4FFFF390C140CFFFFFFFFFDFFFFFFFFFFFFFF00000000000000
(00.008736) can0 D9#39130015EBFB6C00A0014000F00F20F3FFFFFFFFFF80A3FC8E00000000000000
(00.009121) can0 E3#39060B080051511800C0CFFF39042208003B877E780FFAFF
(00.013408) can0 DC#3910001634C06EAE2A0AFADCAC00280000000000FFFF80FE270F000000000000
(00.015590) can0 DB#390E0020CD1269FD377F831A3F0080D5464DC114B3281D5C060300F1FFFFFFFF81CFA4FA000000000000000000000000
(00.019143) can0 E3#3980000C007FE27E41EFAFFE87E5B62941000008032010E9EF5A000000000000
(00.020729) can0 DB#390F001561CA6A20FFFF7FCFFFFF3FFFFFFFFFFFFF82C180D600000000000000
(00.023493) can0 18E19490#02880064646401000000F0122D46000000000000E900EC00BD04000001000000000000004E14CD05D304841300000000B60C800C0B0F2C0D1311001505150000
(00.024517) can0 2D#A1F77304C409001000800020FA6004000800A0FEFFFF7FE001D239FFFFFFFF00FEFF862E4F7400000000000000000000
(00.028710) can0 D9#39130015D9B16D00A0010000F00F20F3FFFFFFFFFF82637A843913010B530008558500FE03BAFFEF0000000000000000
(00.033456) can0 DC#3910001610686FAE2A0AFADCAC00280000000000FFFF82F03C2C000000000000
(00.035569) can0 DB#390E0020717F6AFD377F831A3F0080D5464DC114B3281D5C060300F1FFFFFFFF83BB4341000000000000000000000000
(00.039205) can0 E3#4100050800800343CBCC862C
(00.040721) can0 DB#390F001583DA6B20FFFF7FCFFFFF3FFFFFFFFFFFFF847DCE6200000000000000
(00.044505) can0 2D#FCC87404C409001000800020FA6004000800A0FEFFFF7FE001D239FFFFFFFF00FEFF88E17FCC00000000000000000000
(00.048704) can0 D9#39130015EE946EFF9F010000F00F20F3FFFFFFFFFF8493C86100000000000000
(00.001004) can0 DB#390E0020302F47FD377F831A3F0080D5464DC114B3281D5C060300F1FFFFFFFF3CBFCDF7000000000000000000000000
(00.004634) can0 E3#4100050800800343CBCC40E6
(00.006155) can0 DB#390F0015A7D74820FFFF7FCFFFFF3FFFFFFFFFFFFF3CFA5E2F00000000000000
(00.009936) can0 2D#5ED65104C409001000800020FA6004000800A0FEFFFF7FE001D239FFFFFFFF00FEFF4219B2AD00000000000000000000
(00.014093) can0 D9#39130015E4384B00A0024000F00F20F3FFFFFFFFFF3CA13EF700000000000000
(00.018753) can0 DC#391000166D6E4DAE2A0AFADCAC00280000000000FFFF3DBF5E73000000000000
(00.021055) can0 DB#390E00205DE448FD377F831A3F0080D5464DC114B3281D5C060300F1FFFFFFFF3D127553000000000000000000000000
(00.024572) can0 E3#410005080185310AE0D4F3BE
(00.024839) can0 4F#2804000009B7121D
(00.026152) can0 DB#390F001545C74920FFFF7FCFFFFF3FFFFFFFFFFFFF3E48DA2A00000000000000
(00.028813) can0 18E19490#000000A50000005001000000000000000000001A5A7D00000000010000000000000000004A4A4BEB00E9002C010201F600F9004B4A4B26011311001505150000
(00.029954) can0 2D#7FCD5204C409001000800020FA6004000800A0FEFFFF7FE001D239FFFFFFFF00FEFF44F7671E00000000000000000000
(00.034569) can0 E3#3A020004F4FFFFFF
(00.035138) can0 D9#3913001528894CFF9F010000F00F20F3FFFFFFFFFF3EA0A20A00000000000000
(00.038849) can0 DC#39100110153F42004600B652119C002205F0FFF13910001620864EAE2A0AFADCAC00280000000000FFFF3FAB83CD0000
(00.039992) can0 E3#0080000409AF3D02
(00.041024) can0 DB#390E0020C9C049FD377F831A3F0080D5464DC114B3281D5C060300F1FFFFFFFF415F4A90000000000000000000000000
(00.046142) can0 DB#390F001563F64A20FFFF7FCFFFFF3FFFFFFFFFFFFF4247706E00000000000000
(00.001626) can0 DC#391000161C4C2EAE2A0AFADCAC00280000000000FFFF002A15D6000000000000
(00.002009) can0 18E19490#040300030003008836EE0C2B002201FD000806010101010200000000000000000000000000000000000000000000000000000000000000001311001505150000
(00.003990) can0 DB#390E0020E4A629FD377F831A3F0080D5464DC114B3281D5C060300F1FFFFFFFF014B7557000000000000000000000000
(00.007613) can0 E3#4100050800800343CBCC037B
(00.009142) can0 DB#390F001565B22A20FFFF7FCFFFFF3FFFFFFFFFFFFF02FFE7B400000000000000
(00.012909) can0 2D#23903304C409001000800020FA6004000800A0FEFFFF7FE001D239FFFFFFFF00FEFF059A02BF00000000000000000000
(00.017037) can0 D9#39130015B9DE2DFF9F010001F00F20F3FFFFFFFFFF02D9B95900000000000000
(00.021633) can0 DC#3910001638E42FAE2A0AFADCAC00280000000000FFFF01DA6EBC000000000000
(00.023992) can0 DB#390E002058CB2AFD377F831A3F0080D5464DC114B3281D5C060300F1FFFFFFFF0396FE00000000000000000000000000
(00.027558) can0 E3#4100050801ACE90B1F25E7E5
(00.029138) can0 DB#390F001587A22B20FFFF7FCFFFFF3FFFFFFFFFFFFF04EE626300000000000000
(00.031707) can0 DC#39FE6F089401008000000000
(00.031907) can0 18E19490#000000A50000005001000000000000000000001A5A7E00000000010000000000000000004A4A4BEA00E9002B010201F600F9004B4A4A20011311001505150000
(00.032920) can0 2D#7EAF3404C409001000800020FA6004000800A0FEFFFF7FE001D239FFFFFFFF00FEFF085CEFEF00000000000000000000
(00.037926) can0 D9#391300158B172E00A001C000F00F20F3FFFFFFFFFF0430F0EC00000000000000
(00.041772) can0 DC#39100110153F418245008646119C002205F0FFF13910001628BE30AE2A0AFADCAC00280000000000FFFF03C4CAD20000
(00.042968) can0 E3#00800004A2C73702
(00.044010) can0 DB#390E0020CCEF2BFD377F831A3F0080D5464DC114B3281D5C060300F1FFFFFFFF041709EE000000000000000000000000
(00.049127) can0 DB#390F001529D02C20FFFF7FCFFFFF3FFFFFFFFFFFFF05D1AAE500000000000000
(00.001342) can0 D9#391300151BD40F00A0010000F00F20F3FFFFFFFFFFC6A3B26500000000000000
(00.005653) can0 DC#39100016185011AE2A0AFADCAC00280000000000FFFFC69B8B07000000000000
(00.008072) can0 DB#390E002024C20CFD377F831A3F0080D5464DC114B3281D5C060300F1FFFFFFFFC705AEC0000000000000000000000000
(00.011636) can0 E3#41000508017EC2CA28331191
(00.013222) can0 DB#390F0015C9FC0D20FFFF7FCFFFFF3FFFFFFFFFFFFFC8C2431500000000000000
(00.015777) can0 18E19490#000000A50000005001000000000000000000001A5A7D00000000010000000000000000004A4A4BEB00EA002C010301F700F9004B4A4B19011311001505150000
(00.016996) can0 2D#818E1604C409001000800020FA6004000800A0FEFFFF7FE001D239FFFFFFFF00FEFFCB4E30C000000000000000000000
(00.022615) can0 D9#3913001507B21000A0020000F00F20F3FFFFFFFFFFC8285B2100000000000000
(00.025795) can0 DC#39100110153F423046005612119C002205F0FFF13910001655B812AE2A0AFADCAC00280000000000FFFFC8BFCC380000
(00.027044) can0 E3#008000043BE03102
(00.028184) can0 DB#390E0020B0E60DFD377F831A3F0080D5464DC114B3281D5C060300F1FFFFFFFFC9A3C050000000000000000000000000
(00.033210) can0 DB#390F0015EFCD0E20FFFF7FCFFFFF3FFFFFFFFFFFFFCAC7A16800000000000000
(00.037013) can0 2D#9E871704C409001000800020FA6004000800A0FEFFFF7FE001D239FFFFFFFF00FEFFCDA450E800000000000000000000
(00.037547) can0 D4#3904060442426E84
(00.041355) can0 D9#3913001535F81100A0024000F00F20F3FFFFFFFFFFCA06A6BD00000000000000
(00.045653) can0 DC#39100016711013AE2A0AFADCAC00280000000000FFFFCAE79A09000000000000
(00.046036) can0 18E19490#0102001C00FD00800C0701BC02060600000000401F020000AC0D312B012003000002AE012C1200000202BD037B310000AC0D401F0C18064B1311001505150000
(00.047010) can0 E3#0500000CF5FCFF0000000000D132B2E1
(00.048084) can0 DB#390E010F7C00FFFFFFFFFFFFFFDFD208BCFDFF390E00200C8B0EFD377F831A3F0080D5464DC114B3281D5C060300F1FFFFFFFFCBAD5D36000000000000000000
(00.002032) can0 DB#390F00152558EC20FFFF7FCFFFFF3FFFFFFFFFFFFF86CAB1A300000000000000
(00.004488) can0 18E19490#030000940194010000000000000000020000000000000000000000000000000000B60C102700E40C00000000000054D9055916D20CC409001311001505150000
(00.005827) can0 2D#E70EF504C409001000800020FA6004000800A0FEFFFF7FE001D239FFFFFFFF00FEFF8AF9C21000000000000000000000
(00.006362) can0 D4#39040C050E0FF4FFFF3915011444019201F85FF5FFFFFFFFFE07009F2801FEFFFF390C140CFFFFFFFFFDFFFFFFFFFFFFFF000000000000000000000000000000
(00.009877) can0 D9#391300156063EF00A0010001F00F20F3FFFFFFFFFF869BEB0000000000000000
(00.010442) can0 E3#39060B080051511800C0CFFF39042208003BC67E782FFEFF
(00.014546) can0 DC#391000165592F1AE2A0AFADCAC00280000000000FFFF863F58FD000000000000
(00.016922) can0 DB#390F01064C8504600000390E00207ADCECFD377F831A3F0080D5464DC114B3281D5C060300F1FFFFFFFF870C69900000
(00.022032) can0 DB#390F0015C748ED20FFFF7FCFFFFF3FFFFFFFFFFFFF8842223400000000000000
(00.025795) can0 2D#C615F604C409001000800020FA6004000800A0FEFFFF7FE001D239FFFFFFFF00FEFF8C4F6EFE00000000000000000000
(00.030032) can0 D9#391300153793F0FF9F01C0FFEF0F20F3FFFFFFFFFF888302353913010B530008558500FE03BAFFEF0000000000000000
(00.034428) can0 DC#39100016187AF2AE2A0AFADCAC00280000000000FFFF88DC43C4000000000000
(00.034809) can0 18E19490#040300030003008836ED0C2B002201FD000806010101010200000000000000000000000000000000000000000000000000000000000000001311001505150000
(00.036943) can0 DB#390E0020EEF8EDFD377F831A3F0080D5464DC114B3281D5C060300F1FFFFFFFF891050DC000000000000000000000000
(00.040500) can0 E3#4100050800800343CBCB8C67
(00.042045) can0 DB#390F0015E179EE20FFFF7FCFFFFF3FFFFFFFFFFFFF8ABF5E1600000000000000
(00.045797) can0 2D#D91CF704C409001000800020FA6004000800A0FEFFFF7FE001D239FFFFFFFF00FEFF8EC1D57500000000000000000000
(00.001541) can0 E3#4100050800800343CBCB3BD6
(00.003107) can0 DB#390F0015F3C2C620FFFF7FCFFFFF3FFFFFFFFFFFFF3A7A499200000000000000
(00.006846) can0 2D#10F6CF04C409001000800020FA6004000800A0FEFFFF7FE001D239FFFFFFFF00FEFF3D0ECEE800000000000000000000
(00.011046) can0 D9#391300153F29C9FF9F010001F00F20F3FFFFFFFFFF3A7E718500000000000000
(00.015440) can0 DC#39100016A7A6CBAE2A0AFADCAC00280000000000FFFF394DFAA4000000000000
(00.015822) can0 18E19490#030000950195010000000000000000020000000000000000000000000000000000B60C102700E40C00000000000054D9055516D20CC409001311001505150000
(00.017955) can0 DB#390E0020D773C6FD377F831A3F0080D5464DC114B3281D5C060300F1FFFFFFFF3BFA31E1000000000000000000000000
(00.021504) can0 E3#4100050801676D668B11E8B9
(00.023104) can0 DB#390F001511D2C720FFFF7FCFFFFF3FFFFFFFFFFFFF3CD6C53F00000000000000
(00.025437) can0 DC#39FE6F089401008000000000
(00.026848) can0 2D#4510D004C409001000800020FA6004000800A0FEFFFF7FE001D239FFFFFFFF00FEFF4059426C00000000000000000000
(00.032267) can0 D9#39130015A8B9CA00A0018001F00F20F3FFFFFFFFFF3C88036200000000000000
(00.035450) can0 DC#39100110153F42004600E642109C002205F0FFF53910001638CECCAE2A0AFADCAC00280000000000FFFF3BC2ADA90000
(00.036945) can0 E3#00800004F4162302
(00.038066) can0 DB#390E00204357C7FD377F831A3F0080D5464DC114B3281D5C060300F1FFFFFFFF3C315D04000000000000000000000000
(00.043093) can0 DB#390F0015AF27C820FFFF7FCFFFFF3FFFFFFFFFFFFF3D7E97AF00000000000000
(00.045485) can0 18E19490#040300030003008836EE0C2B002201FC000806010101010200000000000000000000000000000000000000000000000000000000000000001311001505150000
(00.046974) can0 2D#5A19D104C409001000800020FA6004000800A0FEFFFF7FE001D239FFFFFFFF00FEFF422817B300000000000000000000
(00.047507) can0 D4#3904060418E06084
(00.002309) can0 D9#39130015CA69A800A0010001F00F20F3FFFFFFFFFFF899845700000000000000
(00.006752) can0 DC#39100016BFC4AAAE2A0AFADCAC00280000000000FFFFF8126B43000000000000
(00.007136) can0 18E19490#0102001C00FC00800C0701BC02060600000000401F020000AC0D312B012003000002AE012C1200000202BC0383310000AC0D401F0C032E4B1311001505150000
(00.009349) can0 DB#390E010F7800FFFFFFFFFFFFFFDFD208BCFDFF390E00204678A5FD377F831A3F0080D5464DC114B3281D5C060300F1FFFFFFFFF95B2EC8000000000000000000
(00.014475) can0 DB#390F0015F586A620FFFF7FCFFFFF3FFFFFFFFFFFFFFA44DE2800000000000000
(00.018237) can0 2D#53A2AF04C409001000800020FA6004000800A0FEFFFF7FE001D239FFFFFFFF00FEFFFE3DC4AA00000000000000000000
(00.018772) can0 D4#39040C050E0FF4FFFF3915011444019201F85FF5FFFFFFFFFE07009F2801FEFFFF390C140CFFFFFFFFFDFFFFFFFFFFFFFF000000000000000000000000000000
(00.022222) can0 D9#391300158E18A900A002C000F00F20F3FFFFFFFFFFFA4177C300000000000000
(00.022871) can0 E3#39060B080051511800C0CFFF39042208003B867E780FFAFF
(00.026754) can0 DC#391000169B6CABAE2A0AFADCAC00280000000000FFFFFA1F75C2000000000000
(00.029367) can0 DB#390F01064C8504600000390E0020FA15A6FD377F831A3F0080D5464DC114B3281D5C060300F1FFFFFFFFFB5A7A020000
(00.034476) can0 DB#390F00151796A720FFFF7FCFFFFF3FFFFFFFFFFFFFFC4D48D600000000000000
(00.036859) can0 18E19490#028800646464010000008612D531000000000000E900EC00BD04000001000000010000004A14CD05D4048B1300000000B60C800CEB0E2C0D1311001505150000
(00.038238) can0 2D#0644B004C409001000800020FA6004000800A0FEFFFF7FE001D239FFFFFFFF00FEFF0075DEAA00000000000000000000
(00.042379) can0 D9#391300156967AAFF9F028000F00F20F3FFFFFFFFFFFC4539193913010B530008558500FE03BAFFEF0000000000000000
(00.046797) can0 DC#391000160404ACAE2A0AFADCAC00280000000000FFFFFC09DF3A000000000000
(00.049389) can0 DB#390E00206E31A7FD377F831A3F0080D5464DC114B3281D5C060300F1FFFFFFFFFD36FBB1000000000000000000000000
(00.000392) can0 2D#B38A8C04C409001000800020FA6004000800A0FEFFFF7FE001D239FFFFFFFF00FEFFB855CA6400000000000000000000
(00.000925) can0 D4#39040C050E0FF4FFFF390C140CFFFFFFFFFDFFFFFFFFFFFFFF00000000000000
(00.004346) can0 D9#39130015F0A786FF9F010000F00F20F3FFFFFFFFFFB4A86BAF00000000000000
(00.005097) can0 E3#39060B080051511800C0CFFF39042208003B877E780FFAFF3E800108C30200C0B711E0FF000000000000000000000000
(00.008883) can0 DC#39100016C2C288AE2A0AFADCAC00280000000000FFFFB448EAE8000000000000
(00.011513) can0 DB#390E00203A7183FD377F831A3F0080D5464DC114B3281D5C060300F1FFFFFFFFB5895DBB000000000000000000000000
(00.015023) can0 E3#3980000C007F327F41EFAFFEBBCE8447
(00.016640) can0 DB#390F0015339B8420FFFF7FCFFFFF3FFFFFFFFFFFFFB6D4C9CA00000000000000
(00.020371) can0 2D#AC838D04C409001000800020FA6004000800A0FEFFFF7FE001D239FFFFFFFF00FEFFBAB6C43900000000000000000000
(00.024323) can0 D9#391300159EBB87FF9F01C0FFEF0F20F3FFFFFFFFFFB698976C3913010B530008558500FE03BAFFEF0000000000000000
(00.028818) can0 DC#39100016E66A89AE2A0AFADCAC00280000000000FFFFB6B63D5F000000000000
(00.029201) can0 18E19490#040300030003008836EB0C2B002201FD000806010101010200000000000000000000000000000000000000000000000000000000000000001311001505150000
(00.031543) can0 DB#390E0020D68E84FD377F831A3F0080D5464DC114B3281D5C060300F1FFFFFFFFB757375F000000000000000000000000
(00.035065) can0 E3#4100050800800343CBCABAB8
(00.036645) can0 DB#390F0015D18B8520FFFF7FCFFFFF3FFFFFFFFFFFFFB8D1A05C00000000000000
(00.040373) can0 2D#8D988E04C409001000800020FA6004000800A0FEFFFF7FE001D239FFFFFFFF00FEFFBC1772A600000000000000000000
(00.044422) can0 D9#39130015AC4288FF9F010000F00F20F3FFFFFFFFFFB889027200000000000000
(00.048797) can0 DC#39100016AB828AAE2A0AFADCAC00280000000000FFFFB8BC125C000000000000
(00.000166) can0 18E19490#0300009A019A010000000000000000020000000000000000000000000000000000B60C102700E40C00000000000054DA055516D70CC409001311001505150000
(00.001667) can0 2D#CA036E04C409001000800020FA6004000800A0FEFFFF7FE001D239FFFFFFFF00FEFF7CABCF4500000000000000000000
(00.002201) can0 D4#39040C050E0FF4FFFF39FE1D085940B20800000000390C140CFFFFFFFFFDFFFFFFFFFFFFFF0000000000000000000000
(00.005598) can0 D9#39130015024368FF9F018000F00F20F3FFFFFFFFFF768E879100000000000000
(00.006293) can0 E3#39060B080051511800C0CFFF39042208003B877E780FFAFF
(00.006598) can0 4F#201207A000499C0E
(00.010097) can0 DC#39100016E6406AAE2A0AFADCAC00280000000000FFFF77792557000000000000
(00.012799) can0 DB#390E0020687565FD377F831A3F008095464DC114B3281D5C060300F1FFFFFFFF78AB0E2F000000000000000000000000
(00.016302) can0 E3#3980000C007F327F41EFAFFE7FC198BE
(00.017927) can0 DB#390F0015F90E6620FFFF7FCFFFFF3FFFFFFFFFFFFF79C6215900000000000000
(00.020782) can0 D9#39FE280829000000000000003913001590BC69FF9F014000F00F20F3FFFFFFFFFF78506BB30000000000000000000000
(00.021659) can0 2D#D50A6F04C409001000800020FA6004000800A0FEFFFF7FE001D239FFFFFFFF00FEFF7EB6017C00000000000000000000
(00.030053) can0 DC#39100016F7456BAE2A0AFADCA800280000000000FFFF7977018F000000000000
(00.030436) can0 18E19490#040300030003008836EE0C2B002201FC000806010101010200000000000000000000000000000000000000000000000000000000000000001311001505150000
(00.031163) can0 D9#3913010B530008558500FE03BAFFEF00
(00.032781) can0 DB#390E0020D41866FD377F831A3F008095464DC114B3281D5C060300F1FFFFFFFF7A86D686000000000000000000000000
(00.036341) can0 E3#4100050800800343CBCA7EFF
(00.037758) can0 21C#11020107000001F405DC09380FA01388189C1C3E21E8254427100000000000000000000000000000000000000000000000000000000000000000000000000000
(00.038818) can0 DB#390F00151B1E6720FFFF7FCFFFFF3FFFFFFFFFFFFF7A705A2500000000000000
(00.041661) can0 2D#80EC7004C409001000800020FA6004000800A0FEFFFF7FE001D239FFFFFFFF00FEFF80D266F500000000000000000000
(00.045564) can0 D9#3913001565EF6AFF9F028000F00F20F3FFFFFFFFFF7AE4293000000000000000
(00.000450) can0 DB#390E0020784A0EFD377F831A3F008095464DC114B3281D5C060300F1FFFFFFFFCB8DAE5B000000000000000000000000
(00.003335) can0 44#04
(00.005569) can0 DB#390F00150DDD0F20FFFF7FCFFFFF3FFFFFFFFFFFFFCC513FE200000000000000
(00.009301) can0 2D#3BF01804C409001000800020FA6004000800A0FEFFFF7FE001D239FFFFFFFF00FEFFD0CF7C3A00000000000000000000
(00.009839) can0 D4#390406043C8B3B84
(00.013139) can0 D9#39130015151D1200A0010001F00F20F3FFFFFFFFFFCCBAE7F300000000000000
(00.017461) can0 DC#39100016DBD514AE2A0AFADCA800280000000000FFFFCCE202B0000000000000
(00.017844) can0 18E19490#0102001B00FC00800C0701BC02060600000000401F020000AC0D312B012003000002AE012B1200000202BD0393310000AC0D401F0C4A2F4B1311001505150000
(00.020442) can0 DB#390E010F7800FFFFFFFFFFFFFFDFD208BCFDFF390E0020EC6E0FFD377F831A3F008095464DC114B3281D5C060300F1FFFFFFFFCD5127C0000000000000000000
(00.025569) can0 DB#390F0015B2361020FFFF7FCFFFFF3FFFFFFFFFFFFFCEBF2D8600000000000000
(00.029288) can0 2D#24F91904C409001000800020FA6004000800A0FEFFFF7FE001D239FFFFFFFF00FEFFD2481D1900000000000000000000
(00.029823) can0 D4#39040C050E0FF4FFFF3915011444019201F85FF5FFFFFFFFFE07009F2801FEFFFF390C140CFFFFFFFFFDFFFFFFFFFFFFFF000000000000000000000000000000
(00.033137) can0 D9#39130015F2E11300A001C000F00F20F3FFFFFFFFFFCED32C5200000000000000
(00.033923) can0 E3#39060B080051511800C0CFFF39042208003B867E780FFAFF
(00.037474) can0 DC#39100016FF7D15AE2A0AFADCA800280000000000FFFFCE257E37000000000000
(00.040458) can0 DB#390F01064C8504604800390E002083CC10FD377F831A3F008095464DC114B3281D5C060300F1FFFFFFFFCFA614A20000
(00.045569) can0 DB#390F001550261120FFFF7FCFFFFF3FFFFFFFFFFFFFD0DB45B000000000000000
(00.047709) can0 18E19490#02880064646401000000A212B317000000000000EA00EB00BD04000001000100000000004B14CF05D504871300000000B60C800C550F2C0D1311001505150000
(00.049287) can0 2D#05E21A04C409001000800020FA6004000800A0FEFFFF7FE001D239FFFFFFFF00FEFFD48D5B4800000000000000000000
(00.003023) can0 DC#3910001654CDEFAE2A0AFADCA800280000000000FFFF8154EEEF000000000000
(00.006042) can0 DB#390E002076C6EAFD377F831A3F008095464DC114B3281D5C060300F1FFFFFFFF819167F9000000000000000000000000
(00.009489) can0 E3#41000508010E1688B672E246
(00.009744) can0 4F#283B020009BA5F7B
(00.011141) can0 DB#390F00158B2AEB20FFFF7FCFFFFF3FFFFFFFFFFFFF820B919700000000000000
(00.014848) can0 2D#F807F404C409001000800020FA6004000800A0FEFFFF7FE001D239FFFFFFFF00FEFF889825B500000000000000000000
(00.019490) can0 E3#3A020004F4FFFFFF008000040674F702
(00.020286) can0 D9#39130015363EEEFF9F014000F00F20F3FFFFFFFFFF8269A25B00000000000000
(00.022995) can0 DC#39100110153F428245008646119C002205F0FFF1391000164497F0AE2A0AFADCA800280000000000FFFF836F2F020000
(00.023514) can0 18E19490#028800646464010000007512C347000000000000E900EC00BD04000001000100010000004D14CF05D5048A1300000000B60C800C450F2C0D1311001505150000
(00.026084) can0 DB#390E0020E2E2EBFD377F831A3F008095464DC114B3281D5C060300F1FFFFFFFF869A18F9000000000000000000000000
(00.031131) can0 DB#390F00152558EC20FFFF7FCFFFFF3FFFFFFFFFFFFF8700C7E200000000000000
(00.034871) can0 2D#E70EF504C409001000800020FA6004000800A0FEFFFF7FE001D239FFFFFFFF00FEFF8ABF640400000000000000000000
(00.035406) can0 D4#39040604D25F3484
(00.038715) can0 D9#39130015D42EEFFF9F014000F00F20F3FFFFFFFFFF87CEF7DC00000000000000
(00.039521) can0 E3#02800008F7F4FE0183331883
(00.042955) can0 DC#39100016603FF1AE2A0AFADCA800280000000000FFFF87A7BAFC000000000000
(00.044846) can0 E3#0500000CF5FCFF00000000008DFCC53C
(00.046003) can0 DB#390E010F7800FFFFFFFFFFFFFFDFD208BCFDFF390E00200E1DECFD377F831A3F008095464DC114B3281D5C060300F1FFFFFFFF88CA1FC2000000000000000000
(00.000765) can0 DB#390F0015E345CE20FFFF7FCFFFFF3FFFFFFFFFFFFF491BB7A600000000000000
(00.004567) can0 2D#182FD704C409001000800020FA6004000800A0FEFFFF7FE001D239FFFFFFFF00FEFF4E15643700000000000000000000
(00.005102) can0 D4#39040604DE2C2E84
(00.008315) can0 D9#39130015FEEAD1FF9F014001F00F20F3FFFFFFFFFF48D3FA0600000000000000
(00.012525) can0 DC#391000161D39D3AE2A0AFADCA800280000000000FFFF49036C93000000000000
(00.015687) can0 DB#390E010F7800FFFFFFFFFFFFFFDFD208BCFDFF390E00202286CEFD377F831A3F008095464DC114B3281D5C060300F1FFFFFFFF4A30A937000000000000000000
(00.019132) can0 E3#0500000CF5FCFF000000000051E21545
(00.020764) can0 DB#390F00150155CF20FFFF7FCFFFFF3FFFFFFFFFFFFF4B2C378900000000000000
(00.022687) can0 18E19490#030000950195010000000000000000020000000000000000000000000000000000B60C102700E40C00000000000054D9055916D20CC409001311001505150000
(00.024574) can0 2D#BD58D804C409001000800020FA6004000800A0FEFFFF7FE001D239FFFFFFFF00FEFF5025E2AB00000000000000000000
(00.025107) can0 D4#39040C050E0FF4FFFF39FE1D085940B20800000000390C140CFFFFFFFFFDFFFFFFFFFFFFFF0000000000000000000000
(00.028227) can0 D9#39130015D8DBD2FF9F014001F00F20F3FFFFFFFFFF4AFF164100000000000000
(00.029097) can0 E3#39060B080051511800C0CFFF39042208003B877E780FFAFF
(00.029403) can0 4F#209701A000499C0B
(00.032598) can0 DC#391000168251D4AE2A0AFADCA800280000000000FFFF4BDF82B6000000000000
(00.035646) can0 DB#390E0020B6A2CFFD377F831A3F008095464DC114B3281D5C060300F1FFFFFFFF4C4D4A0F000000000000000000000000
(00.039116) can0 E3#3980000C007F607F41EFAFFE53E67CE4
(00.040774) can0 DB#390F0015BEBED020FFFF7FCFFFFF3FFFFFFFFFFFFF4DAA265700000000000000
(00.043444) can0 D9#39FE2808290000000000000039130015CE39D3FE9F010001F00F20F3FFFFFFFFFF4C799FE70000000000000000000000
(00.044474) can0 2D#A251D904C409001000800020FA6004000800A0FEFFFF7FE001D239FFFFFFFF00FEFF5282AE0900000000000000000000
(00.000492) can0 E3#008000049320EB02
(00.002153) can0 DB#390F0015B8FAB020FFFF7FCFFFFF3FFFFFFFFFFFFF0F867FCE00000000000000
(00.005848) can0 2D#E105B904C409001000800020FA6004000800A0FEFFFF7FE001D239FFFFFFFF00FEFF125DA3AC00000000000000000000
(00.006382) can0 D4#39040604470B2884
(00.009808) can0 D9#39130015E939B3FF9F01C000F00F20F3FFFFFFFFFF0FA1927200000000000000
(00.013835) can0 DC#391000169A33B5AE2A0AFADCA800280000000000FFFF0FDAC856000000000000
(00.017009) can0 DB#390E010F7400FFFFFFFFFFFFFFDFD208BCFDFF390E0020F466B0FD377F831A3F008095464DC114B3281D5C060300F1FFFFFFFF10ADF280000000000000000000
(00.020494) can0 E3#0500000CF5FCFF000000000015B15905
(00.022135) can0 DB#390F00155AEAB120FFFF7FCFFFFF3FFFFFFFFFFFFF11DE80B300000000000000
(00.023995) can0 18E19490#030000900190010000000000000000020000000000000000000000000000000000B60C102700E40C00000000000054D9055B16D20CC409001311001505150000
(00.025892) can0 2D#C01EBA04C409001000800020FA6004000800A0FEFFFF7FE001D239FFFFFFFF00FEFF140708EA00000000000000000000
(00.026427) can0 D4#39040C050E0FF4FFFF390C140CFFFFFFFFFDFFFFFFFFFFFFFF00000000000000
(00.029567) can0 D9#3913001542A7B4FF9F010001F00F20F3FFFFFFFFFF11067C7800000000000000
(00.030464) can0 E3#39060B080051511800C0CFFF39042208003B877E780FFAFF
(00.033905) can0 DC#39100016D7DBB6AE2A0AFADCA800280000000000FFFF11A83EE0000000000000
(00.037018) can0 DB#390E00206042B1FD377F831A3F008095464DC114B3281D5C060300F1FFFFFFFF12E89B0C000000000000000000000000
(00.040478) can0 E3#3980000C007F607F41EFAFFE176040B4
(00.042146) can0 DB#390F00157CDBB220FFFF7FCFFFFF3FFFFFFFFFFFFF13AE0F2B00000000000000
(00.045826) can0 2D#DF17BB04C409001000800020FA6004000800A0FEFFFF7FE001D239FFFFFFFF00FEFF16969B8200000000000000000000
(00.001914) can0 DC#39100016E73597AE2A0AFADCA800280000000000FFFFD34AF11C000000000000
(00.005151) can0 DB#390E010F7400FFFFFFFFFFFFFFDFD208BCFDFF390E0020D8FD92FD377F831A3F008095464DC114B3281D5C060300F1FFFFFFFFD4B44500000000000000000000
(00.008638) can0 E3#0500000CF5FCFF0000000000D958CD68
(00.010276) can0 DB#390F00159CF79320FFFF7FCFFFFF3FFFFFFFFFFFFFD535893200000000000000
(00.012073) can0 18E19490#0300009A019A010000000000000000020000000000000000000000000000000000B60C102700E40C00000000000054DA055E16D40CC409001311001505150000
(00.013977) can0 2D#431B9C04C409001000800020FA6004000800A0FEFFFF7FE001D239FFFFFFFF00FEFFD90DB8F900000000000000000000
(00.014511) can0 D4#39040C050E0FF4FFFF390C140CFFFFFFFFFDFFFFFFFFFFFFFF00000000000000
(00.017850) can0 D9#3913001521E396FF9F014000F00F20F3FFFFFFFFFFD541274900000000000000
(00.018677) can0 E3#39060B080051511800C0CFFF39042208003B877E780FFAFF
(00.021984) can0 DC#39100016FD4C98AE2A0AFADCA800280000000000FFFFD5BFA0AA000000000000
(00.025160) can0 DB#390E00204CD993FD377F831A3F008095464DC114B3281D5C060300F1FFFFFFFFD6DDE925000000000000000000000000
(00.028614) can0 E3#3980000C007F607F41EFAFFEDB74704441000108000D07000000000000000000
(00.030298) can0 DB#390F001532859420FFFF7FCFFFFF3FFFFFFFFFFFFFD7B216E800000000000000
(00.033957) can0 2D#5C129D04C409001000800020FA6004000800A0FEFFFF7FE001D239FFFFFFFF00FEFFDB18F30B00000000000000000000
(00.037646) can0 D9#39130015D1DF9700A002C000F00F20F3FFFFFFFFFFD78326873913010B540018558500FE03BAFFEF0000000000000000
(00.041920) can0 DC#39100016D9E499AE2A0AFADCA800280000000000FFFFD7D350A3000000000000
