date 2025-01-01 00:00:00.000
base hex  timestamps absolute
no internal events logged

0.0029547 1 D4x Rx d 13 39 0C 14 0C FF FF FF FF FD FF FF FF FF [FD BRS]
0.0033471 1 E3x Rx d 12 39 06 0B 08 00 51 51 18 00 C0 CF FF [FD BRS]
0.0040822 1 DBx Rx d 14 39 0F 01 06 4E 85 04 60 00 00 39 0E 00 20 [FD BRS]
0.0055344 1 DCx Rx d 14 39 10 01 10 15 3F 42 39 47 00 1E 12 0D 9C [FD BRS]
0.0073218 1 D9x Rx d 13 39 13 00 15 ED A5 CE 00 A0 03 80 00 D0 [FD BRS]
0.0092719 1 DBx Rx d 13 39 0F 00 15 C5 74 CD 20 FF FF 7F CF FF [FD BRS]
0.0183701 1 2Dx Rx d 14 07 26 D6 04 C4 09 00 10 00 80 00 20 FA 60 [FD BRS]
0.0239772 1 DBx Rx d 14 39 0E 00 20 EF 8C CD F9 F7 7E 83 1A 3F 00 [FD BRS]
0.0254604 1 DCx Rx d 13 39 10 00 16 65 7C D0 AE 2A 0A FA DC AC [FD BRS]
0.0258427 1 18E19490x Rx d 15 01 02 00 1C 00 06 01 80 0C 0C 01 BC 02 06 06 [FD BRS]
0.0270890 1 D9x Rx d 13 39 13 00 15 BE 14 CF FF 9F 03 00 00 D0 [FD BRS]
0.0292772 1 DBx Rx d 13 39 0F 00 15 E3 45 CE 20 FF FF 7F CF FF [FD BRS]
0.0383154 1 2Dx Rx d 14 18 2F D7 04 C4 09 00 10 00 80 00 20 FA 60 [FD BRS]
0.0439755 1 DBx Rx d 14 39 0E 00 20 53 E1 CE F9 F7 7E 83 1A 3F 00 [FD BRS]
0.0454577 1 DCx Rx d 13 39 10 00 16 41 D4 D1 AE 2A 0A FA DC AC [FD BRS]
0.0469890 1 D9x Rx d 14 39 13 00 15 79 01 D0 FE 9F 03 80 FF CF 0F [FD BRS]
0.0492722 1 DBx Rx d 13 39 0F 00 15 01 55 CF 20 FF FF 7F CF FF [FD BRS]
0.0004513 1 D9x Rx d 13 39 13 00 15 5E 0F AA FF 9F 03 C0 FF CF [FD BRS]
0.0017725 1 DBx Rx d 13 39 0F 00 15 4B 73 A9 20 FF FF 7F CF FF [FD BRS]
0.0054767 1 E3x Rx d 9 41 00 05 08 01 B9 1E 8B DC [FD BRS]
0.0108211 1 2Dx Rx d 14 38 56 B2 04 C4 09 00 10 00 80 00 20 FA 60 [FD BRS]
0.0113544 1 D4x Rx d 13 39 04 0C 05 0E 0F F4 FF FF 39 0C 14 0C [FD BRS]
0.0154538 1 E3x Rx d 15 39 06 0B 08 00 51 51 18 00 C0 CF FF 39 04 22 [FD BRS]
0.0166239 1 DBx Rx d 14 39 0E 00 20 92 78 A9 F9 F7 7E 83 1A 3F 00 [FD BRS]
0.0179031 1 DCx Rx d 14 39 10 01 10 15 3F 42 00 47 00 E6 42 0C 9C [FD BRS]
0.0184265 1 18E19490x Rx d 15 02 84 00 64 64 64 01 00 00 00 94 12 02 00 00 [FD BRS]
0.0198248 1 D9x Rx d 13 39 13 00 15 AD 0B AB 00 A0 03 C0 FF CF [FD BRS]
0.0217730 1 DBx Rx d 13 39 0F 00 15 6D 42 AA 20 FF FF 7F CF FF [FD BRS]
0.0307952 1 2Dx Rx d 14 27 5F B3 04 C4 09 00 10 00 80 00 20 FA 60 [FD BRS]
0.0364773 1 DBx Rx d 14 39 0E 00 20 2E 15 AA F9 F7 7E 83 1A 3F 00 [FD BRS]
0.0379064 1 DCx Rx d 13 39 10 00 16 20 AC AD AE 2A 0A FA DC AC [FD BRS]
0.0394938 1 D9x Rx d 13 39 13 00 15 5F 2F AC 00 A0 03 40 00 D0 [FD BRS]
0.0417849 1 DBx Rx d 13 39 0F 00 15 8F 52 AB 20 FF FF 7F CF FF [FD BRS]
0.0479782 1 18E19490x Rx d 15 03 00 00 91 01 91 01 00 00 00 00 00 00 00 00 [FD BRS]
0.0022689 1 DBx Rx d 13 39 0F 00 15 6F 7E 8A 20 FF FF 7F CF FF [FD BRS]
0.0059471 1 E3x Rx d 9 41 00 05 08 00 80 03 43 CC [FD BRS]
0.0083943 1 18E19490x Rx d 15 01 02 00 1C 00 05 01 80 0C 0C 01 BC 02 06 06 [FD BRS]
0.0113135 1 2Dx Rx d 14 E6 6C 93 04 C4 09 00 10 00 80 00 20 FA 60 [FD BRS]
0.0118489 1 D4x Rx d 8 39 04 06 04 9D 71 BD 84 [FD BRS]
0.0169940 1 DBx Rx d 15 39 0E 01 0F 78 00 FF FF FF FF FF FF FF 9F D2 [FD BRS]
0.0183762 1 DCx Rx d 13 39 10 00 16 34 EA 8D AE 2A 0A FA DC AC [FD BRS]
0.0208926 1 D9x Rx d 13 39 13 00 15 8D 49 8C 00 A0 03 00 00 D0 [FD BRS]
0.0213488 1 E3x Rx d 13 41 00 05 08 01 ED 3C 12 26 59 F6 A1 05 [FD BRS]
0.0223260 1 DBx Rx d 13 39 0F 00 15 8D 6E 8B 20 FF FF 7F CF FF [FD BRS]
0.0314042 1 2Dx Rx d 14 BB 53 94 04 C4 09 00 10 00 80 00 20 FA 60 [FD BRS]
0.0319395 1 D4x Rx d 13 39 04 0C 05 0E 0F F4 FF FF 39 0C 14 0C [FD BRS]
0.0359369 1 E3x Rx d 14 39 06 0B 08 00 51 51 18 00 C0 CF FF 39 04 [FD BRS]
0.0370540 1 DBx Rx d 14 39 0E 00 20 BE E3 8B F9 F7 7E 83 1A 3F 00 [FD BRS]
0.0383282 1 DCx Rx d 14 39 10 01 10 15 3F 42 00 47 00 B6 52 11 9C [FD BRS]
0.0388486 1 18E19490x Rx d 15 02 84 00 64 64 64 01 00 00 00 92 12 02 00 00 [FD BRS]
0.0398799 1 D9x Rx d 13 39 13 00 15 C7 FD 8D 01 A0 03 C0 FF CF [FD BRS]
0.0422691 1 DBx Rx d 13 39 0F 00 15 23 1C 8C 20 FF FF 7F CF FF [FD BRS]
0.0459403 1 E3x Rx d 10 39 80 00 0C 00 FF 23 7E 42 0F [FD BRS]
0.0006645 1 DBx Rx d 14 39 0E 00 20 E0 FD 6B F9 F7 7E 83 1A 3F 00 [FD BRS]
0.0019327 1 DCx Rx d 13 39 10 00 16 34 C0 6E AE 2A 0A FA DC AC [FD BRS]
0.0035171 1 D9x Rx d 13 39 13 00 15 D0 4C 6D FF 9F 03 80 00 D0 [FD BRS]
0.0059422 1 DBx Rx d 13 39 0F 00 15 2D A8 6C 20 FF FF 7F CF FF [FD BRS]
0.0096664 1 E3x Rx d 9 41 00 05 08 00 80 03 43 CC [FD BRS]
0.0120016 1 18E19490x Rx d 15 01 02 00 1C 00 05 01 80 0C 0C 01 BC 02 06 06 [FD BRS]
0.0150538 1 2Dx Rx d 14 E3 C1 75 04 C4 09 00 10 00 80 00 20 FA 60 [FD BRS]
0.0155882 1 D4x Rx d 8 39 04 06 04 36 19 B7 84 [FD BRS]
0.0196116 1 E3x Rx d 10 05 00 00 0C F5 FC FF 00 00 00 [FD BRS]
0.0206657 1 DBx Rx d 15 39 0E 01 0F 80 00 FF FF FF FF FF FF FF 9F D2 [FD BRS]
0.0219839 1 DCx Rx d 13 39 10 00 16 10 68 6F AE 2A 0A FA DC AC [FD BRS]
0.0244953 1 D9x Rx d 13 39 13 00 15 E7 69 6E 00 A0 03 80 00 D0 [FD BRS]
0.0259395 1 DBx Rx d 13 39 0F 00 15 CF B8 6D 20 FF FF 7F CF FF [FD BRS]
0.0296197 1 E3x Rx d 9 41 00 05 08 01 32 37 A8 3C [FD BRS]
0.0319399 1 DCx Rx d 9 39 FE 6F 08 94 01 00 80 00 [FD BRS]
0.0349751 1 2Dx Rx d 14 C2 DA 76 04 C4 09 00 10 00 80 00 20 FA 60 [FD BRS]
0.0355115 1 D4x Rx d 14 39 04 0C 05 0E 0F F4 FF FF 39 FE 1D 08 59 [FD BRS]
0.0396869 1 E3x Rx d 14 39 06 0B 08 00 51 51 18 00 C0 CF FF 39 04 [FD BRS]
0.0402072 1 4Fx Rx d 8 20 7A 0F A0 00 49 9D B2 [FD BRS]
0.0408264 1 DBx Rx d 14 39 0E 00 20 98 26 6D F9 F7 7E 83 1A 3F 00 [FD BRS]
0.0419376 1 DCx Rx d 14 39 10 01 10 15 3F 42 82 47 00 86 46 0D 9C [FD BRS]
0.0424589 1 18E19490x Rx d 15 02 84 00 64 64 64 01 00 00 00 94 12 02 00 00 [FD BRS]
0.0436682 1 D9x Rx d 13 39 13 00 15 75 96 6F 00 A0 03 40 00 D0 [FD BRS]
0.0459424 1 DBx Rx d 13 39 0F 00 15 E9 89 6E 20 FF FF 7F CF FF [FD BRS]
0.0021105 1 2Dx Rx d 14 60 C4 53 04 C4 09 00 10 00 80 00 20 FA 60 [FD BRS]
0.0026459 1 D4x Rx d 15 39 04 0C 05 0E 0F F4 FF FF 39 15 01 14 45 09 [FD BRS]
0.0067202 1 E3x Rx d 12 39 06 0B 08 00 51 51 18 00 C0 CF FF [FD BRS]
0.0078794 1 DBx Rx d 14 39 0F 01 06 4E 85 04 60 28 02 39 0E 00 20 [FD BRS]
0.0090285 1 DCx Rx d 14 39 10 01 10 15 3F 42 32 47 00 4E 16 10 9C [FD BRS]
0.0109299 1 D9x Rx d 13 39 13 00 15 81 C1 4C 00 A0 03 00 00 D0 [FD BRS]
0.0131011 1 DBx Rx d 13 39 0F 00 15 81 E6 4B 20 FF FF 7F CF FF [FD BRS]
0.0190593 1 18E19490x Rx d 15 04 03 00 03 00 03 00 92 36 ED 0C 2B 00 22 01 [FD BRS]
0.0220975 1 2Dx Rx d 14 3D FB 54 04 C4 09 00 10 00 80 00 20 FA 60 [FD BRS]
0.0278036 1 DBx Rx d 14 39 0E 00 20 E4 2F 4B F9 F7 7E 83 1A 3F 00 [FD BRS]
0.0291238 1 DCx Rx d 13 39 10 00 16 20 86 4E AE 2A 0A FA DC AC [FD BRS]
0.0306781 1 D9x Rx d 13 39 13 00 15 13 3E 4D 00 A0 03 C0 00 D0 [FD BRS]
0.0331113 1 DBx Rx d 13 39 0F 00 15 2F 94 4C 20 FF FF 7F CF FF [FD BRS]
0.0421165 1 2Dx Rx d 14 22 F2 55 04 C4 09 00 10 00 80 00 20 FA 60 [FD BRS]
0.0478036 1 DBx Rx d 14 39 0E 00 20 6E C5 4C F8 F7 7E 83 1A 3F 00 [FD BRS]
0.0490067 1 DCx Rx d 13 39 10 00 16 04 2E 4F AE 2A 0A FA DC AC [FD BRS]
0.0010939 1 DBx Rx d 13 39 0F 00 15 FD 76 26 20 FF FF 7F CF FF [FD BRS]
0.0047561 1 E3x Rx d 12 41 00 05 08 00 80 03 43 CC 6D FD 0B [FD BRS]
0.0101055 1 2Dx Rx d 14 57 6D 2F 04 C4 09 00 10 00 80 00 20 FA 60 [FD BRS]
0.0106419 1 D4x Rx d 8 39 04 06 04 CB A0 A9 84 [FD BRS]
0.0147742 1 E3x Rx d 10 05 00 00 0C F5 FC FF 00 00 00 [FD BRS]
0.0158204 1 DBx Rx d 15 39 0E 01 0F 80 00 FF FF FF FF FF FF FF 9F D2 [FD BRS]
0.0169276 1 DCx Rx d 13 39 10 00 16 83 24 29 AE 2A 0A FA DC AC [FD BRS]
0.0185449 1 D9x Rx d 13 39 13 00 15 8B DB 28 01 A0 03 80 00 D0 [FD BRS]
0.0210941 1 DBx Rx d 13 39 0F 00 15 1F 66 27 20 FF FF 7F CF FF [FD BRS]
0.0247503 1 E3x Rx d 9 41 00 05 08 01 75 EB AD C5 [FD BRS]
0.0269865 1 18E19490x Rx d 15 00 00 00 A5 00 00 00 50 01 00 00 00 00 00 00 [FD BRS]
0.0300877 1 2Dx Rx d 14 02 8B 30 04 C4 09 00 10 00 80 00 20 FA 60 [FD BRS]
0.0306230 1 D4x Rx d 13 39 04 0C 05 0E 0F F4 FF FF 39 0C 14 0C [FD BRS]
0.0347464 1 E3x Rx d 15 39 06 0B 08 00 51 51 18 00 C0 CF FF 39 04 22 [FD BRS]
0.0359225 1 DBx Rx d 14 39 0E 00 20 7E FA 27 F8 F7 7E 83 1A 3F 00 [FD BRS]
0.0370107 1 DCx Rx d 14 39 10 01 10 15 3F 42 30 47 00 16 16 11 9C [FD BRS]
0.0387241 1 D9x Rx d 13 39 13 00 15 3D 8C 29 00 A0 03 40 00 D0 [FD BRS]
0.0410942 1 DBx Rx d 13 39 0F 00 15 A1 93 28 20 FF FF 7F CF FF [FD BRS]
0.0030557 1 2Dx Rx d 14 EA 7A 0B 04 C4 09 00 10 00 80 00 20 FA 60 [FD BRS]
0.0077051 1 E3x Rx d 8 00 80 00 04 E6 C2 6C 00 [FD BRS]
0.0088033 1 DBx Rx d 14 39 0E 00 20 D8 8B 02 F9 F7 7E 83 1A 3F 00 [FD BRS]
0.0099224 1 DCx Rx d 13 39 10 00 16 C0 F3 05 AE 2A 0A FA DC AC [FD BRS]
0.0114988 1 D9x Rx d 13 39 13 00 15 95 3E 04 00 A0 03 00 00 D0 [FD BRS]
0.0140810 1 DBx Rx d 13 39 0F 00 15 95 19 03 20 FF FF 7F CF FF [FD BRS]
0.0171032 1 44 Rx d 1 04
0.0177256 1 E3x Rx d 9 41 00 05 08 00 80 03 43 CC [FD BRS]
0.0199577 1 18E19490x Rx d 15 01 02 00 1C 00 05 01 80 0C 0C 01 BC 02 06 06 [FD BRS]
0.0230819 1 2Dx Rx d 14 B7 45 0C 04 C4 09 00 10 00 80 00 20 FA 60 [FD BRS]
0.0236153 1 D4x Rx d 8 39 04 06 04 D4 BE A2 84 [FD BRS]
0.0288034 1 DBx Rx d 15 39 0E 01 0F 80 00 FF FF FF FF FF FF FF 9F D2 [FD BRS]
0.0299746 1 DCx Rx d 13 39 10 00 16 8D 1B 06 AE 2A 0A FA DC AC [FD BRS]
0.0328581 1 D9x Rx d 13 39 13 00 15 66 3A 05 FF 9F 03 00 00 D0 [FD BRS]
0.0341123 1 DBx Rx d 13 39 0F 00 15 3B 6B 04 20 FF FF 7F CF FF [FD BRS]
0.0376405 1 D4x Rx d 14 39 04 0C 05 0E 0F F4 FF FF 39 15 01 14 45 [FD BRS]
0.0381728 1 E3x Rx d 9 41 00 05 08 01 6C 4B A0 22 [FD BRS]
0.0383682 1 D4x Rx d 15 39 0C 08 3C FE 74 00 80 00 00 08 6C F5 38 3B [FD BRS]
0.0430855 1 2Dx Rx d 14 A8 4C 0D 04 C4 09 00 10 00 80 00 20 FA 60 [FD BRS]
0.0477049 1 D4x Rx d 13 39 0C 14 0C FF FF FF FF FD FF FF FF FF [FD BRS]
0.0480973 1 E3x Rx d 12 39 06 0B 08 00 51 51 18 00 C0 CF FF [FD BRS]
0.0488865 1 DBx Rx d 14 39 0F 01 06 4E 85 04 60 58 02 39 0E 00 20 [FD BRS]
0.0007062 1 E3x Rx d 9 41 00 05 08 01 8F 9C 71 D8 [FD BRS]
0.0060395 1 2Dx Rx d 14 B2 E8 EA 04 C4 09 00 10 00 80 00 20 FA 60 [FD BRS]
0.0065739 1 D4x Rx d 13 39 04 0C 05 0E 0F F4 FF FF 39 0C 14 0C [FD BRS]
0.0106892 1 E3x Rx d 15 39 06 0B 08 00 51 51 18 00 C0 CF FF 39 04 22 [FD BRS]
0.0119114 1 DBx Rx d 14 39 0E 00 20 3A F8 E1 F9 F7 7E 83 1A 3F 00 [FD BRS]
0.0128476 1 DCx Rx d 14 39 10 01 10 15 3F 42 00 47 00 A6 42 10 9C [FD BRS]
0.0147649 1 D9x Rx d 13 39 13 00 15 E5 A2 E3 00 A0 03 40 00 D0 [FD BRS]
0.0170671 1 DBx Rx d 13 39 0F 00 15 79 BD E2 20 FF FF 7F CF FF [FD BRS]
0.0227933 1 18E19490x Rx d 15 04 03 00 03 00 03 00 92 36 ED 0C 2B 00 22 01 [FD BRS]
0.0260315 1 2Dx Rx d 14 AD E1 EB 04 C4 09 00 10 00 80 00 20 FA 60 [FD BRS]
0.0317686 1 DBx Rx d 14 39 0E 00 20 86 95 E2 F9 F7 7E 83 1A 3F 00 [FD BRS]
0.0328588 1 DCx Rx d 13 39 10 00 16 8D 31 E5 AE 2A 0A FA DC AC [FD BRS]
0.0346572 1 D9x Rx d 13 39 13 00 15 5A C4 E4 FF 9F 03 40 00 D0 [FD BRS]
0.0370793 1 DBx Rx d 13 39 0F 00 15 9B AD E3 20 FF FF 7F CF FF [FD BRS]
0.0461445 1 2Dx Rx d 14 F0 DE EC 04 C4 09 00 10 00 80 00 20 FA 60 [FD BRS]
0.0000267 1 DBx Rx d 13 39 0F 00 15 99 91 C3 20 FF FF 7F CF FF [FD BRS]
0.0036459 1 E3x Rx d 9 41 00 05 08 01 0A FC 39 02 [FD BRS]
0.0089912 1 2Dx Rx d 14 31 ED CC 04 C4 09 00 10 00 80 00 20 FA 60 [FD BRS]
0.0095236 1 D4x Rx d 13 39 04 0C 05 0E 0F F4 FF FF 39 0C 14 0C [FD BRS]
0.0136409 1 E3x Rx d 15 39 06 0B 08 00 51 51 18 00 C0 CF FF 39 04 22 [FD BRS]
0.0148551 1 DBx Rx d 14 39 0E 00 20 70 76 C3 F8 F7 7E 83 1A 3F 00 [FD BRS]
0.0157633 1 DCx Rx d 14 39 10 01 10 15 3F 42 30 47 00 76 06 0C 9C [FD BRS]
0.0176657 1 D9x Rx d 13 39 13 00 15 E6 BE C5 FF 9F 03 C0 FF CF [FD BRS]
0.0200398 1 DBx Rx d 13 39 0F 00 15 37 E3 C4 20 FF FF 7F CF FF [FD BRS]
0.0256660 1 18E19490x Rx d 15 04 03 00 03 00 03 00 92 36 ED 0C 2B 00 22 01 [FD BRS]
0.0289843 1 2Dx Rx d 14 2E E4 CD 04 C4 09 00 10 00 80 00 20 FA 60 [FD BRS]
0.0347284 1 DBx Rx d 14 39 0E 00 20 9C 89 C4 F8 F7 7E 83 1A 3F 00 [FD BRS]
0.0357826 1 DCx Rx d 13 39 10 00 16 F0 37 C7 AE 2A 0A FA DC AC [FD BRS]
0.0373979 1 D9x Rx d 13 39 13 00 15 5D 97 C6 00 A0 03 00 00 D0 [FD BRS]
0.0400371 1 DBx Rx d 13 39 0F 00 15 D5 F3 C5 20 FF FF 7F CF FF [FD BRS]
0.0489963 1 2Dx Rx d 14 0F FF CE 04 C4 09 00 10 00 80 00 20 FA 60 [FD BRS]
0.0000370 1 18E19490x Rx d 15 01 02 00 1C 00 05 01 80 0C 0C 01 BC 02 06 06 [FD BRS]
0.0013773 1 D9x Rx d 13 39 13 00 15 F0 CE A3 FF 9F 03 40 00 D0 [FD BRS]
0.0040244 1 DBx Rx d 13 39 0F 00 15 7D C5 A2 20 FF FF 7F CF FF [FD BRS]
0.0129857 1 2Dx Rx d 14 2F 86 AB 04 C4 09 00 10 00 80 00 20 FA 60 [FD BRS]
0.0187157 1 DBx Rx d 14 39 0E 00 20 AF 21 A2 F9 F7 7E 83 1A 3F 00 [FD BRS]
0.0196869 1 DCx Rx d 13 39 10 00 16 A5 BD A5 AE 2A 0A FA DC AC [FD BRS]
0.0212783 1 D9x Rx d 14 39 13 00 15 02 EA A4 FF 9F 03 C0 FF CF 0F [FD BRS]
0.0240124 1 DBx Rx d 13 39 0F 00 15 9F D5 A3 20 FF FF 7F CF FF [FD BRS]
0.0296056 1 18E19490x Rx d 15 02 84 00 64 64 64 01 00 00 00 96 12 04 00 00 [FD BRS]
0.0329598 1 2Dx Rx d 14 72 B9 AC 04 C4 09 00 10 00 80 00 20 FA 60 [FD BRS]
0.0376102 1 E3x Rx d 8 00 80 00 04 4A 52 59 00 [FD BRS]
0.0387344 1 DBx Rx d 14 39 0E 00 20 5D 10 A3 F8 F7 7E 83 1A 3F 00 [FD BRS]
0.0397205 1 DCx Rx d 13 39 10 00 16 E8 55 A6 AE 2A 0A FA DC AC [FD BRS]
0.0412859 1 D9x Rx d 13 39 13 00 15 6C F6 A5 FF 9F 03 00 00 D0 [FD BRS]
0.0440140 1 DBx Rx d 13 39 0F 00 15 31 A7 A4 20 FF FF 7F CF FF [FD BRS]
0.0476292 1 E3x Rx d 9 41 00 05 08 00 80 03 43 CC [FD BRS]
0.0039712 1 DBx Rx d 14 39 0E 00 20 D3 28 84 F9 F7 7E 83 1A 3F 00 [FD BRS]
0.0048573 1 DCx Rx d 13 39 10 00 16 D8 BB 87 AE 2A 0A FA DC AC [FD BRS]
0.0066447 1 D9x Rx d 14 39 13 00 15 59 EF 86 00 A0 03 00 00 D0 0F [FD BRS]
0.0092689 1 DBx Rx d 13 39 0F 00 15 D1 8B 85 20 FF FF 7F CF FF [FD BRS]
0.0147921 1 18E19490x Rx d 15 02 84 00 64 64 64 01 00 00 00 CE 12 03 00 00 [FD BRS]
0.0182063 1 2Dx Rx d 14 8D 98 8E 04 C4 09 00 10 00 80 00 20 FA 60 [FD BRS]
0.0228547 1 E3x Rx d 8 00 80 00 04 E1 3A 53 00 [FD BRS]
0.0239908 1 DBx Rx d 14 39 0E 00 20 21 19 85 F8 F7 7E 83 1A 3F 00 [FD BRS]
0.0249210 1 DCx Rx d 13 39 10 00 16 C2 C2 88 AE 2A 0A FA DC AC [FD BRS]
0.0264974 1 D9x Rx d 13 39 13 00 15 BB FF 87 00 A0 03 00 00 D0 [FD BRS]
0.0292675 1 DBx Rx d 13 39 0F 00 15 F7 BA 86 20 FF FF 7F CF FF [FD BRS]
0.0328847 1 E3x Rx d 9 41 00 05 08 00 80 03 43 CC [FD BRS]
0.0382471 1 2Dx Rx d 14 92 91 8F 04 C4 09 00 10 00 80 00 20 FA 60 [FD BRS]
0.0387844 1 D4x Rx d 8 39 04 06 04 85 97 89 84 [FD BRS]
0.0428938 1 E3x Rx d 10 05 00 00 0C F5 FC FF 00 00 00 [FD BRS]
0.0439920 1 DBx Rx d 15 39 0E 01 0F 88 00 FF FF FF FF FF FF FF 9F D2 [FD BRS]
0.0448501 1 DCx Rx d 13 39 10 00 16 E6 6A 89 AE 2A 0A FA DC AC [FD BRS]
0.0452335 1 18E19490x Rx d 15 03 00 00 8C 01 8C 01 00 00 00 00 00 00 00 00 [FD BRS]
0.0475389 1 D9x Rx d 13 39 13 00 15 05 0A 88 00 A0 03 00 00 D0 [FD BRS]
0.0492660 1 DBx Rx d 13 39 0F 00 15 15 AA 87 20 FF FF 7F CF FF [FD BRS]
0.0047418 1 DBx Rx d 14 39 0E 00 20 19 12 65 F9 F7 7E 83 1A 3F 00 [FD BRS]
0.0055669 1 DCx Rx d 13 39 10 00 16 8F 00 68 AE 2A 0A FA DC AC [FD BRS]
0.0059492 1 18E19490x Rx d 15 01 02 00 1C 00 05 01 80 0C 0C 01 BC 02 06 06 [FD BRS]
0.0073246 1 D9x Rx d 13 39 13 00 15 58 BC 67 FF 9F 03 00 FF CF [FD BRS]
0.0100518 1 DBx Rx d 13 39 0F 00 15 F9 0E 66 20 FF FF 7F CF FF [FD BRS]
0.0189630 1 2Dx Rx d 14 D5 0A 6F 04 C4 09 00 10 00 80 00 20 FA 60 [FD BRS]
0.0247931 1 DBx Rx d 14 39 0E 00 20 C3 6A 66 F8 F7 7E 83 1A 3F 00 [FD BRS]
0.0255782 1 DCx Rx d 13 39 10 00 16 AB A8 69 AE 2A 0A FA DC AC [FD BRS]
0.0273876 1 D9x Rx d 14 39 13 00 15 36 13 68 FF 9F 03 40 FF CF 0F [FD BRS]
0.0300397 1 DBx Rx d 13 39 0F 00 15 1B 1E 67 20 FF FF 7F CF FF [FD BRS]
0.0355010 1 18E19490x Rx d 15 02 84 00 64 64 64 01 00 00 00 94 12 05 00 00 [FD BRS]
0.0389582 1 2Dx Rx d 14 80 EC 70 04 C4 09 00 10 00 80 00 20 FA 60 [FD BRS]
0.0436176 1 E3x Rx d 8 00 80 00 04 1C 83 4D 00 [FD BRS]
0.0447617 1 DBx Rx d 14 39 0E 00 20 57 4E 67 F8 F7 7E 83 1A 3F 00 [FD BRS]
0.0456389 1 DCx Rx d 13 39 10 00 16 E6 40 6A AE 2A 0A FA DC AC [FD BRS]
0.0472262 1 D9x Rx d 13 39 13 00 15 39 F4 69 00 A0 03 40 00 D0 [FD BRS]
0.0041226 1 18E19490x Rx d 15 02 84 00 64 64 64 01 00 00 00 2C 12 02 00 00 [FD BRS]
0.0076308 1 2Dx Rx d 14 7F CD 52 04 C4 09 00 10 00 80 00 20 FA 60 [FD BRS]
0.0122912 1 E3x Rx d 11 00 80 00 04 B7 EB 47 00 41 00 00 [FD BRS]
0.0134504 1 DBx Rx d 14 39 0E 00 20 CC 66 49 F9 F7 7E 83 1A 3F 00 [FD BRS]
0.0142665 1 DCx Rx d 13 39 10 00 16 49 C6 4C AE 2A 0A FA DC AC [FD BRS]
0.0158619 1 D9x Rx d 13 39 13 00 15 5A B0 4B 00 A0 03 00 01 D0 [FD BRS]
0.0187180 1 DBx Rx d 13 39 0F 00 15 63 F6 4A 20 FF FF 7F CF FF [FD BRS]
0.0223052 1 E3x Rx d 9 41 00 05 08 00 80 03 43 CC [FD BRS]
0.0276736 1 2Dx Rx d 14 60 C4 53 04 C4 09 00 10 00 80 00 20 FA 60 [FD BRS]
0.0282079 1 D4x Rx d 8 39 04 06 04 39 C2 7D 84 [FD BRS]
0.0323503 1 E3x Rx d 13 41 00 00 08 02 34 39 37 45 E5 C5 C6 05 [FD BRS]
0.0335044 1 DBx Rx d 15 39 0E 01 0F 7C 00 FF FF FF FF FF FF FF 9F D2 [FD BRS]
0.0341686 1 DCx Rx d 13 39 10 00 16 6D 6E 4D AE 2A 0A FA DC AC [FD BRS]
0.0345499 1 18E19490x Rx d 15 03 00 00 91 01 91 01 00 00 00 00 00 00 00 00 [FD BRS]
0.0368993 1 D9x Rx d 13 39 13 00 15 21 74 4C 00 A0 03 80 00 D0 [FD BRS]
0.0387155 1 DBx Rx d 13 39 0F 00 15 81 E6 4B 20 FF FF 7F CF FF [FD BRS]
0.0423037 1 E3x Rx d 9 41 00 05 08 01 91 63 16 51 [FD BRS]
0.0476440 1 2Dx Rx d 14 3D FB 54 04 C4 09 00 10 00 80 00 20 FA 60 [FD BRS]
0.0481784 1 D4x Rx d 13 39 04 0C 05 0E 0F F4 FF FF 39 0C 14 0C [FD BRS]
0.0053246 1 2Dx Rx d 14 23 90 33 04 C4 09 00 10 00 80 00 20 FA 60 [FD BRS]
0.0111157 1 DBx Rx d 14 39 0E 00 20 5D 6D 2A F9 F7 7E 83 1A 3F 00 [FD BRS]
0.0118289 1 DCx Rx d 13 39 10 00 16 51 A4 2D AE 2A 0A FA DC AC [FD BRS]
0.0137182 1 D9x Rx d 14 39 13 00 15 57 DF 2C 00 A0 03 40 00 D0 0F [FD BRS]
0.0164124 1 DBx Rx d 13 39 0F 00 15 87 A2 2B 20 FF FF 7F CF FF [FD BRS]
0.0202066 1 4Fx Rx d 8 28 1C 02 00 08 96 C0 63 [FD BRS]
0.0217498 1 18E19490x Rx d 15 02 84 00 64 64 64 01 00 00 00 AF 12 03 00 00 [FD BRS]
0.0253170 1 2Dx Rx d 14 7E AF 34 04 C4 09 00 10 00 80 00 20 FA 60 [FD BRS]
0.0299714 1 E3x Rx d 8 00 80 00 04 2E CC 41 00 [FD BRS]
0.0311366 1 DBx Rx d 14 39 0E 00 20 AF 5C 2B F8 F7 7E 83 1A 3F 00 [FD BRS]
0.0318927 1 DCx Rx d 13 39 10 00 16 1C 4C 2E AE 2A 0A FA DC AC [FD BRS]
0.0337271 1 D9x Rx d 13 39 13 00 15 B5 CF 2D 00 A0 03 40 00 D0 [FD BRS]
0.0364142 1 DBx Rx d 13 39 0F 00 15 29 D0 2C 20 FF FF 7F CF FF [FD BRS]
0.0400115 1 E3x Rx d 12 41 00 05 08 00 80 03 43 CC 6C 09 95 [FD BRS]
0.0453648 1 2Dx Rx d 14 61 A6 35 04 C4 09 00 10 00 80 00 20 FA 60 [FD BRS]
0.0458972 1 D4x Rx d 8 39 04 06 04 92 AA 77 84 [FD BRS]
0.0000920 1 DBx Rx d 14 39 0E 00 20 52 61 05 F8 F7 7E 83 1A 3F 00 [FD BRS]
0.0006142 1 DCx Rx d 14 39 10 01 10 15 3F 42 38 47 00 46 16 10 9C [FD BRS]
0.0011325 1 18E19490x Rx d 15 02 84 00 64 64 64 01 00 00 00 94 12 03 00 00 [FD BRS]
0.0024829 1 D9x Rx d 13 39 13 00 15 13 BA 07 00 A0 03 80 00 D0 [FD BRS]
0.0053150 1 DBx Rx d 13 39 0F 00 15 FF 4A 06 20 FF FF 7F CF FF [FD BRS]
0.0142173 1 2Dx Rx d 14 96 5E 0F 04 C4 09 00 10 00 80 00 20 FA 60 [FD BRS]
0.0200173 1 DBx Rx d 14 39 0E 00 20 EE 0C 06 F8 F7 7E 83 1A 3F 00 [FD BRS]
0.0206465 1 DCx Rx d 13 39 10 00 16 97 62 09 AE 2A 0A FA DC AC [FD BRS]
0.0224019 1 D9x Rx d 13 39 13 00 15 F9 08 08 01 A0 03 40 00 D0 [FD BRS]
0.0253261 1 DBx Rx d 13 39 0F 00 15 1D 5A 07 20 FF FF 7F CF FF [FD BRS]
0.0306183 1 18E19490x Rx d 15 03 00 00 97 01 97 01 00 00 00 00 00 00 00 00 [FD BRS]
0.0342215 1 2Dx Rx d 14 C3 B8 10 04 C4 09 00 10 00 80 00 20 FA 60 [FD BRS]
0.0400176 1 DBx Rx d 14 39 0E 00 20 7A 28 07 F8 F7 7E 83 1A 3F 00 [FD BRS]
0.0407177 1 DCx Rx d 13 39 10 00 16 DA 8A 0A AE 2A 0A FA DC AC [FD BRS]
0.0423501 1 D9x Rx d 14 39 13 00 15 4F 5F 09 00 A0 03 80 00 D0 0F [FD BRS]
0.0453142 1 DBx Rx d 13 39 0F 00 15 A3 AF 08 20 FF FF 7F CF FF [FD BRS]
0.0488574 1 E3x Rx d 10 32 04 00 0C 8F F4 58 53 67 07 [FD BRS]
0.0001521 1 E3x Rx d 9 41 00 05 08 00 80 03 43 CC [FD BRS]
0.0017993 1 18E19490x Rx d 15 01 02 00 1C 00 05 01 80 0C 0C 01 BC 02 06 06 [FD BRS]
0.0055165 1 2Dx Rx d 14 D1 C5 EF 04 C4 09 00 10 00 80 00 20 FA 60 [FD BRS]
0.0060539 1 D4x Rx d 8 39 04 06 04 6F 13 69 84 [FD BRS]
0.0102072 1 E3x Rx d 13 41 00 00 08 02 34 39 37 7D 34 6A C9 05 [FD BRS]
0.0113384 1 DBx Rx d 15 39 0E 01 0F 7C 00 FF FF FF FF FF FF FF 9F D2 [FD BRS]
0.0120025 1 DCx Rx d 13 39 10 00 16 DA A0 E9 AE 2A 0A FA DC AC [FD BRS]
0.0146239 1 D9x Rx d 13 39 13 00 15 12 5A E8 FF 9F 03 00 00 D0 [FD BRS]
0.0165991 1 DBx Rx d 13 39 0F 00 15 13 EE E7 20 FF FF 7F CF FF [FD BRS]
0.0201703 1 E3x Rx d 9 41 00 05 08 01 3D AF DB 8E [FD BRS]
0.0255187 1 2Dx Rx d 14 84 23 F0 04 C4 09 00 10 00 80 00 20 FA 60 [FD BRS]
0.0260530 1 D4x Rx d 13 39 04 0C 05 0E 0F F4 FF FF 39 0C 14 0C [FD BRS]
0.0301564 1 E3x Rx d 15 39 06 0B 08 00 51 51 18 00 C0 CF FF 39 04 22 [FD BRS]
0.0314276 1 DBx Rx d 14 39 0E 00 20 24 36 E7 F8 F7 7E 83 1A 3F 00 [FD BRS]
0.0319477 1 DCx Rx d 14 39 10 01 10 15 3F 42 30 47 00 16 16 11 9C [FD BRS]
0.0324681 1 18E19490x Rx d 15 02 84 00 64 64 64 01 00 00 00 CF 12 03 00 00 [FD BRS]
0.0341444 1 D9x Rx d 13 39 13 00 15 04 B8 E9 FE 9F 03 40 00 D0 [FD BRS]
0.0366016 1 DBx Rx d 13 39 0F 00 15 AD 1B E8 20 FF FF 7F CF FF [FD BRS]
0.0454878 1 2Dx Rx d 14 9B 2A F1 04 C4 09 00 10 00 80 00 20 FA 60 [FD BRS]
0.0003632 1 4Fx Rx d 8 28 0E 0E 00 08 98 48 3F [FD BRS]
0.0054836 1 2Dx Rx d 14 45 10 D0 04 C4 09 00 10 00 80 00 20 FA 60 [FD BRS]
0.0101279 1 E3x Rx d 8 00 80 00 04 CE DA 2D 00 [FD BRS]
0.0113341 1 DBx Rx d 14 39 0E 00 20 20 E4 C7 F8 F7 7E 83 1A 3F 00 [FD BRS]
0.0118562 1 DCx Rx d 13 39 10 00 16 83 0E CA AE 2A 0A FA DC AC [FD BRS]
0.0135596 1 D9x Rx d 13 39 13 00 15 33 38 C9 00 A0 03 40 00 D0 [FD BRS]
0.0166127 1 DBx Rx d 13 39 0F 00 15 AF 27 C8 20 FF FF 7F CF FF [FD BRS]
0.0201789 1 E3x Rx d 12 41 00 05 08 00 80 03 43 CC 6B 41 CD [FD BRS]
0.0217451 1 18E19490x Rx d 15 01 02 00 1C 00 06 01 80 0C 0C 01 BC 02 06 06 [FD BRS]
0.0255193 1 2Dx Rx d 14 5A 19 D1 04 C4 09 00 10 00 80 00 20 FA 60 [FD BRS]
0.0260527 1 D4x Rx d 8 39 04 06 04 C4 7B 63 84 [FD BRS]
0.0301901 1 E3x Rx d 10 05 00 00 0C F5 FC FF 00 00 00 [FD BRS]
0.0313362 1 DBx Rx d 15 39 0E 01 0F 7C 00 FF FF FF FF FF FF FF 9F D2 [FD BRS]
0.0320013 1 DCx Rx d 13 39 10 00 16 A7 A6 CB AE 2A 0A FA DC AC [FD BRS]
0.0349868 1 D9x Rx d 13 39 13 00 15 15 09 CA 00 A0 03 40 00 D0 [FD BRS]
0.0366109 1 DBx Rx d 13 39 0F 00 15 4D 37 C9 20 FF FF 7F CF FF [FD BRS]
0.0401601 1 E3x Rx d 9 41 00 05 08 01 70 79 BB 91 [FD BRS]
0.0455365 1 2Dx Rx d 14 7B 02 D2 04 C4 09 00 10 00 80 00 20 FA 60 [FD BRS]
0.0460698 1 D4x Rx d 13 39 04 0C 05 0E 0F F4 FF FF 39 0C 14 0C [FD BRS]
0.0009234 1 D9x Rx d 13 39 13 00 15 24 DB A7 FF 9F 03 C0 FF CF [FD BRS]
0.0029965 1 DBx Rx d 13 39 0F 00 15 F5 86 A6 20 FF FF 7F CF FF [FD BRS]
0.0064467 1 D4x Rx d 14 39 04 0C 05 0E 0F F4 FF FF 39 15 01 14 45 [FD BRS]
0.0069791 1 E3x Rx d 9 41 00 05 08 01 D7 60 93 EF [FD BRS]
0.0071734 1 D4x Rx d 15 39 0C 08 3C FE 74 00 80 00 00 08 6C F5 B8 37 [FD BRS]
0.0118908 1 2Dx Rx d 14 53 A2 AF 04 C4 09 00 10 00 80 00 20 FA 60 [FD BRS]
0.0165002 1 D4x Rx d 13 39 0C 14 0C FF FF FF FF FD FF FF FF FF [FD BRS]
0.0168925 1 E3x Rx d 12 39 06 0B 08 00 51 51 18 00 C0 CF FF [FD BRS]
0.0177837 1 DBx Rx d 14 39 0F 01 06 4E 85 04 60 00 00 39 0E 00 20 [FD BRS]
0.0182958 1 DCx Rx d 14 39 10 01 10 15 3F 42 00 47 00 AE 42 10 9C [FD BRS]
0.0202112 1 D9x Rx d 13 39 13 00 15 8B 3A A8 00 A0 03 C0 FF CF [FD BRS]
0.0229973 1 DBx Rx d 13 39 0F 00 15 17 96 A7 20 FF FF 7F CF FF [FD BRS]
0.0280585 1 18E19490x Rx d 15 04 03 00 03 00 03 00 92 36 EB 0C 2B 00 22 01 [FD BRS]
0.0318668 1 2Dx Rx d 14 06 44 B0 04 C4 09 00 10 00 80 00 20 FA 60 [FD BRS]
0.0376998 1 DBx Rx d 14 39 0E 00 20 0D 82 A7 F8 F7 7E 83 1A 3F 00 [FD BRS]
0.0382220 1 DCx Rx d 13 39 10 00 16 BF C4 AA AE 2A 0A FA DC AC [FD BRS]
0.0399413 1 D9x Rx d 13 39 13 00 15 4D 82 A9 01 A0 03 C0 FF CF [FD BRS]
0.0430065 1 DBx Rx d 13 39 0F 00 15 A9 63 A8 20 FF FF 7F CF FF [FD BRS]
0.0000019 1 108 Rx d 4 91 89 24 84
0.0057371 1 DBx Rx d 14 39 0E 00 20 B5 3D 84 F8 F7 7E 83 1A 3F 00 [FD BRS]
0.0062573 1 DCx Rx d 13 39 10 00 16 D8 BB 87 AE 2A 0A FA DC AC [FD BRS]
0.0066386 1 18E19490x Rx d 15 01 02 00 1C 00 05 01 80 0C 0C 01 BC 02 01 06 [FD BRS]
0.0079730 1 D9x Rx d 13 39 13 00 15 C4 F7 86 FF 9F 03 C0 FF CF [FD BRS]
0.0110462 1 DBx Rx d 13 39 0F 00 15 D1 8B 85 20 FF FF 7F CF FF [FD BRS]
0.0198974 1 2Dx Rx d 14 8D 98 8E 04 C4 09 00 10 00 80 00 20 FA 60 [FD BRS]
0.0257364 1 DBx Rx d 14 39 0E 00 20 21 19 85 F8 F7 7E 83 1A 3F 00 [FD BRS]
0.0262556 1 DCx Rx d 13 39 10 00 16 C2 C2 88 AE 2A 0A FA DC AC [FD BRS]
0.0278749 1 D9x Rx d 14 39 13 00 15 37 F3 87 00 A0 03 C0 FF CF 0F [FD BRS]
0.0310351 1 DBx Rx d 13 39 0F 00 15 F7 BA 86 20 FF FF 7F CF FF [FD BRS]
0.0360844 1 18E19490x Rx d 15 02 84 00 64 64 64 01 00 00 00 C5 12 02 00 00 [FD BRS]
0.0398986 1 2Dx Rx d 14 92 91 8F 04 C4 09 00 10 00 80 00 20 FA 60 [FD BRS]
0.0445430 1 E3x Rx d 8 00 80 00 04 48 E3 20 00 [FD BRS]
0.0458061 1 DBx Rx d 14 39 0E 00 20 9D 74 86 F8 F7 7E 83 1A 3F 00 [FD BRS]
0.0463263 1 DCx Rx d 13 39 10 00 16 E6 6A 89 AE 2A 0A FA DC AC [FD BRS]
0.0480256 1 D9x Rx d 13 39 13 00 15 21 A2 88 01 A0 03 00 00 D0 [FD BRS]
0.0033047 1 2Dx Rx d 14 D5 0A 6F 04 C4 09 00 10 00 80 00 20 FA 60 [FD BRS]
0.0091428 1 DBx Rx d 14 39 0E 00 20 C3 6A 66 F8 F7 7E 83 1A 3F 00 [FD BRS]
0.0096640 1 DCx Rx d 13 39 10 00 16 AB A8 69 AE 2A 0A FA DC AC [FD BRS]
0.0100473 1 18E19490x Rx d 15 01 02 00 1C 00 05 01 80 0C 0C 01 BC 02 01 06 [FD BRS]
0.0113306 1 D9x Rx d 13 39 13 00 15 0B BE 68 00 A0 03 00 00 D0 [FD BRS]
0.0144527 1 DBx Rx d 13 39 0F 00 15 1B 1E 67 20 FF FF 7F CF FF [FD BRS]
0.0232940 1 2Dx Rx d 14 80 EC 70 04 C4 09 00 10 00 80 00 20 FA 60 [FD BRS]
0.0291430 1 DBx Rx d 14 39 0E 00 20 57 4E 67 F8 F7 7E 83 1A 3F 00 [FD BRS]
0.0296642 1 DCx Rx d 13 39 10 00 16 E6 40 6A AE 2A 0A FA DC AC [FD BRS]
0.0312335 1 D9x Rx d 14 39 13 00 15 58 0F 69 FF 9F 03 80 00 D0 0F [FD BRS]
0.0344397 1 DBx Rx d 13 39 0F 00 15 A5 EB 68 20 FF FF 7F CF FF [FD BRS]
0.0394009 1 18E19490x Rx d 15 02 84 00 64 64 64 01 00 00 00 82 12 03 00 00 [FD BRS]
0.0433032 1 2Dx Rx d 14 9F E5 71 04 C4 09 00 10 00 80 00 20 FA 60 [FD BRS]
0.0479245 1 E3x Rx d 8 00 80 00 04 0A A7 1A 00 [FD BRS]
0.0491617 1 DBx Rx d 14 39 0E 00 20 3A 85 68 F8 F7 7E 83 1A 3F 00 [FD BRS]
0.0007977 1 2Dx Rx d 14 35 22 4C 04 C4 09 00 10 00 80 00 20 FA 60 [FD BRS]
0.0066568 1 DBx Rx d 14 39 0E 00 20 03 0E 43 F8 F7 7E 83 1A 3F 00 [FD BRS]
0.0071779 1 DCx Rx d 13 39 10 00 16 A5 97 46 AE 2A 0A FA DC AC [FD BRS]
0.0090083 1 D9x Rx d 13 39 13 00 15 62 42 45 FF 9F 03 00 00 D0 [FD BRS]
0.0119655 1 DBx Rx d 13 39 0F 00 15 3F 13 44 20 FF FF 7F CF FF [FD BRS]
0.0169017 1 18E19490x Rx d 15 03 00 00 96 01 96 01 00 00 00 00 00 00 00 00 [FD BRS]
0.0208189 1 2Dx Rx d 14 2A 2B 4D 04 C4 09 00 10 00 80 00 20 FA 60 [FD BRS]
0.0266570 1 DBx Rx d 14 39 0E 00 20 EF F1 44 F8 F7 7E 83 1A 3F 00 [FD BRS]
0.0271772 1 DCx Rx d 13 39 10 00 16 81 3F 47 AE 2A 0A FA DC AC [FD BRS]
0.0289465 1 D9x Rx d 14 39 13 00 15 94 29 46 FF 9F 03 40 00 D0 0F [FD BRS]
0.0319547 1 DBx Rx d 13 39 0F 00 15 DD 03 45 20 FF FF 7F CF FF [FD BRS]
0.0408129 1 2Dx Rx d 14 0B 30 4E 04 C4 09 00 10 00 80 00 20 FA 60 [FD BRS]
0.0454423 1 E3x Rx d 8 00 80 00 04 7D 54 13 00 [FD BRS]
0.0466765 1 DBx Rx d 14 39 0E 00 20 7B D5 45 F8 F7 7E 83 1A 3F 00 [FD BRS]
0.0471966 1 DCx Rx d 13 39 10 00 16 9B 46 48 AE 2A 0A FA DC AC [FD BRS]
0.0475780 1 18E19490x Rx d 15 04 03 00 03 00 03 00 92 36 ED 0C 2B 00 22 01 [FD BRS]
0.0489943 1 D9x Rx d 13 39 13 00 15 D6 8C 47 FF 9F 03 C0 00 D0 [FD BRS]
0.0056460 1 DBx Rx d 14 39 0E 00 20 06 21 21 F8 F7 7E 83 1A 3F 00 [FD BRS]
0.0061691 1 DCx Rx d 13 39 10 00 16 F0 1D 24 AE 2A 0A FA DC AC [FD BRS]
0.0065545 1 18E19490x Rx d 15 00 00 00 A5 00 00 00 50 01 00 00 00 00 00 00 [FD BRS]
0.0076728 1 D9x Rx d 14 39 13 00 15 B5 7C 23 00 A0 03 C0 FF CF 0F [FD BRS]
0.0109440 1 DBx Rx d 13 39 0F 00 15 75 35 22 20 FF FF 7F CF FF [FD BRS]
0.0197762 1 2Dx Rx d 14 2B 49 2B 04 C4 09 00 10 00 80 00 20 FA 60 [FD BRS]
0.0244205 1 E3x Rx d 8 00 80 00 04 34 9B 0C 00 [FD BRS]
0.0256647 1 DBx Rx d 14 39 0E 00 20 BA 4C 22 F8 F7 7E 83 1A 3F 00 [FD BRS]
0.0261859 1 DCx Rx d 13 39 10 00 16 D4 B5 25 AE 2A 0A FA DC AC [FD BRS]
0.0276362 1 D9x Rx d 13 39 13 00 15 0A 1A 24 FF 9F 03 C0 FF CF [FD BRS]
0.0309434 1 DBx Rx d 13 39 0F 00 15 97 25 23 20 FF FF 7F CF FF [FD BRS]
0.0338166 1 44 Rx d 1 04
0.0344389 1 E3x Rx d 9 41 00 05 08 00 80 03 43 CC [FD BRS]
0.0358021 1 18E19490x Rx d 15 01 02 00 1C 00 05 01 80 0C 0C 01 BC 02 06 06 [FD BRS]
0.0397934 1 2Dx Rx d 14 76 76 2C 04 C4 09 00 10 00 80 00 20 FA 60 [FD BRS]
0.0403277 1 D4x Rx d 8 39 04 06 04 3E 3A 42 84 [FD BRS]
0.0456658 1 DBx Rx d 15 39 0E 01 0F 7C 00 FF FF FF FF FF FF FF 9F D2 [FD BRS]
0.0463309 1 DCx Rx d 13 39 10 00 16 99 5D 26 AE 2A 0A FA DC AC [FD BRS]
0.0488914 1 D9x Rx d 13 39 13 00 15 75 12 25 00 A0 03 00 00 D0 [FD BRS]
0.0001879 1 D4x Rx d 8 39 04 06 04 88 FD 3A 84 [FD BRS]
0.0054801 1 DCx Rx d 13 39 10 00 16 4F EB FE AE 2A 0A FA DC AC [FD BRS]
0.0058643 1 DBx Rx d 15 39 0E 01 0F 7C 00 FF FF FF FF FF FF FF 9F D2 [FD BRS]
0.0087717 1 D9x Rx d 13 39 13 00 15 09 F8 FD FF 9F 03 C0 00 D0 [FD BRS]
0.0108059 1 DBx Rx d 13 39 0F 00 15 24 46 FC 20 FF FF 7F CF FF [FD BRS]
0.0142931 1 E3x Rx d 9 41 00 05 08 01 58 D8 7D 8C [FD BRS]
0.0155432 1 18E19490x Rx d 15 00 00 00 A5 00 00 00 50 01 00 00 00 00 00 00 [FD BRS]
0.0196395 1 2Dx Rx d 14 50 04 05 04 C4 09 00 10 00 80 00 20 FA 60 [FD BRS]
0.0201748 1 D4x Rx d 15 39 04 0C 05 0E 0F F4 FF FF 39 15 01 14 45 09 [FD BRS]
0.0242572 1 E3x Rx d 12 39 06 0B 08 00 51 51 18 00 C0 CF FF [FD BRS]
0.0245665 1 4Fx Rx d 8 20 50 06 A0 00 49 9D A6 [FD BRS]
0.0255527 1 DCx Rx d 14 39 10 01 10 15 3F 42 00 47 00 9E 06 10 9C [FD BRS]
0.0260739 1 DBx Rx d 14 39 0F 01 06 4E 85 04 60 18 00 39 0E 00 20 [FD BRS]
0.0277972 1 D9x Rx d 13 39 13 00 15 8F 7C FE FF 9F 03 40 00 D0 [FD BRS]
0.0308074 1 DBx Rx d 13 39 0F 00 15 C6 56 FD 20 FF FF 7F CF FF [FD BRS]
0.0396416 1 2Dx Rx d 14 71 1F 06 04 C4 09 00 10 00 80 00 20 FA 60 [FD BRS]
0.0454748 1 DCx Rx d 13 39 10 00 16 36 DB 00 AE 2A 0A FA DC AC [FD BRS]
0.0458580 1 DBx Rx d 14 39 0E 00 20 8F 22 FD F8 F7 7E 83 1A 3F 00 [FD BRS]
0.0463801 1 18E19490x Rx d 15 01 02 00 1C 00 05 01 80 0C 0C 01 BC 02 06 06 [FD BRS]
0.0475484 1 D9x Rx d 13 39 13 00 15 6D 6C FF FF 9F 03 40 00 D0 [FD BRS]
0.0496767 1 E3x Rx d 8 3A 02 00 04 F4 FF FF FF [FD BRS]
0.0038688 1 E3x Rx d 8 00 80 00 04 11 E9 FE 00 [FD BRS]
0.0050270 1 DCx Rx d 13 39 10 00 16 7F 05 DF AE 2A 0A FA DC AC [FD BRS]
0.0054112 1 DBx Rx d 14 39 0E 00 20 1F D4 DC F8 F7 7E 83 1A 3F 00 [FD BRS]
0.0059333 1 18E19490x Rx d 15 04 03 00 03 00 03 00 92 36 ED 0C 2B 00 22 01 [FD BRS]
0.0070477 1 D9x Rx d 13 39 13 00 15 8D 40 DE FF 9F 03 40 00 D0 [FD BRS]
0.0104148 1 DBx Rx d 13 39 0F 00 15 C4 6A DD 20 FF FF 7F CF FF [FD BRS]
0.0132450 1 44 Rx d 1 04
0.0138834 1 E3x Rx d 9 41 00 05 08 00 80 03 43 CC [FD BRS]
0.0192518 1 2Dx Rx d 14 36 84 E6 04 C4 09 00 10 00 80 00 20 FA 60 [FD BRS]
0.0197841 1 D4x Rx d 8 39 04 06 04 D2 5F 34 84 [FD BRS]
0.0250243 1 DCx Rx d 13 39 10 00 16 7B 19 E0 AE 2A 0A FA DC AC [FD BRS]
0.0254065 1 DBx Rx d 15 39 0E 01 0F 7C 00 FF FF FF FF FF FF FF 9F D2 [FD BRS]
0.0283319 1 D9x Rx d 13 39 13 00 15 7E 44 DF 00 A0 03 40 00 D0 [FD BRS]
0.0304121 1 DBx Rx d 13 39 0F 00 15 E2 5B DE 20 FF FF 7F CF FF [FD BRS]
0.0338063 1 D4x Rx d 14 39 04 0C 05 0E 0F F4 FF FF 39 15 01 14 45 [FD BRS]
0.0343386 1 E3x Rx d 9 41 00 05 08 01 D1 A6 C9 BB [FD BRS]
0.0345320 1 D4x Rx d 15 39 0C 08 3C FE 74 00 80 00 00 08 6C F5 B8 35 [FD BRS]
0.0351911 1 18E19490x Rx d 15 00 00 00 A5 00 00 00 50 01 00 00 00 00 00 00 [FD BRS]
0.0392513 1 2Dx Rx d 14 29 8D E7 04 C4 09 00 10 00 80 00 20 FA 60 [FD BRS]
0.0438607 1 D4x Rx d 13 39 0C 14 0C FF FF FF FF FD FF FF FF FF [FD BRS]
0.0442531 1 E3x Rx d 12 39 06 0B 08 00 51 51 18 00 C0 CF FF [FD BRS]
0.0451022 1 DCx Rx d 14 39 10 01 10 15 3F 42 30 47 00 6E 06 10 9C [FD BRS]
0.0456234 1 DBx Rx d 14 39 0F 01 06 4E 85 04 60 00 00 39 0E 00 20 [FD BRS]
0.0473768 1 D9x Rx d 13 39 13 00 15 B3 7C E0 00 A0 03 80 00 D0 [FD BRS]
0.0014744 1 D9x Rx d 13 39 13 00 15 9A 10 BE 00 A0 03 40 00 D0 [FD BRS]
0.0048875 1 DBx Rx d 13 39 0F 00 15 C2 2E BD 20 FF FF 7F CF FF [FD BRS]
0.0095377 1 18E19490x Rx d 15 03 00 00 97 01 97 01 00 00 00 00 00 00 00 00 [FD BRS]
0.0136959 1 2Dx Rx d 14 F7 B7 C6 04 C4 09 00 10 00 80 00 20 FA 60 [FD BRS]
0.0194772 1 DCx Rx d 13 39 10 00 16 6F 5F C0 AE 2A 0A FA DC AC [FD BRS]
0.0198603 1 DBx Rx d 14 39 0E 00 20 A6 96 BD F8 F7 7E 83 1A 3F 00 [FD BRS]
0.0214127 1 D9x Rx d 14 39 13 00 15 5C A8 BF 01 A0 03 40 00 D0 0F [FD BRS]
0.0248769 1 DBx Rx d 13 39 0F 00 15 E4 1F BE 20 FF FF 7F CF FF [FD BRS]
0.0337331 1 2Dx Rx d 14 E8 BE C7 04 C4 09 00 10 00 80 00 20 FA 60 [FD BRS]
0.0383214 1 E3x Rx d 8 00 80 00 04 88 CE F8 00 [FD BRS]
0.0394236 1 DCx Rx d 13 39 10 00 16 4B F7 C1 AE 2A 0A FA DC AC [FD BRS]
0.0398088 1 DBx Rx d 14 39 0E 00 20 1A FB BE F8 F7 7E 83 1A 3F 00 [FD BRS]
0.0403310 1 18E19490x Rx d 15 04 03 00 03 00 03 00 88 36 ED 0C 2B 00 22 01 [FD BRS]
0.0414683 1 D9x Rx d 13 39 13 00 15 B1 40 C0 00 A0 03 80 00 D0 [FD BRS]
0.0448744 1 DBx Rx d 13 39 0F 00 15 06 0F BF 20 FF FF 7F CF FF [FD BRS]
0.0477146 1 44 Rx d 1 04
0.0483390 1 E3x Rx d 9 41 00 05 08 00 80 03 43 CC [FD BRS]
0.0051911 1 2Dx Rx d 14 B4 E3 A6 04 C4 09 00 10 00 80 00 20 FA 60 [FD BRS]
0.0057264 1 D4x Rx d 13 39 04 0C 05 0E 0F F4 FF FF 39 0C 14 0C [FD BRS]
0.0098878 1 E3x Rx d 15 39 06 0B 08 00 51 51 18 00 C0 CF FF 39 04 22 [FD BRS]
0.0109039 1 DCx Rx d 14 39 10 01 10 15 3F 42 30 47 00 06 06 11 9C [FD BRS]
0.0114251 1 DBx Rx d 14 39 0E 00 20 A2 44 9D F8 F7 7E 83 1A 3F 00 [FD BRS]
0.0119463 1 18E19490x Rx d 15 02 88 00 64 64 64 01 00 00 00 9D 12 7A D0 00 [FD BRS]
0.0132596 1 D9x Rx d 13 39 13 00 15 BB 72 9F FF 9F 03 00 00 D0 [FD BRS]
0.0163637 1 DBx Rx d 13 39 0F 00 15 E6 23 9E 20 FF FF 7F CF FF [FD BRS]
0.0251499 1 2Dx Rx d 14 AB EA A7 04 C4 09 00 10 00 80 00 20 FA 60 [FD BRS]
0.0308522 1 DCx Rx d 13 39 10 00 16 77 3D A1 AE 2A 0A FA DC AC [FD BRS]
0.0312333 1 DBx Rx d 14 39 0E 00 20 1E 29 9E F8 F7 7E 83 1A 3F 00 [FD BRS]
0.0329187 1 D9x Rx d 13 39 13 00 15 A6 10 A0 FF 9F 03 80 00 D0 [FD BRS]
0.0363738 1 DBx Rx d 13 39 0F 00 15 04 33 9F 20 FF FF 7F CF FF [FD BRS]
0.0409610 1 18E19490x Rx d 15 03 00 00 92 01 92 01 00 00 00 00 00 00 00 00 [FD BRS]
0.0451502 1 2Dx Rx d 14 0E 9D A8 04 C4 09 00 10 00 80 00 20 FA 60 [FD BRS]
0.0000843 1 DCx Rx d 13 39 10 00 16 1A 4B 7F AE 2A 0A FA DC AC [FD BRS]
0.0004665 1 DBx Rx d 14 39 0E 00 20 68 7E 7C F8 F7 7E 83 1A 3F 00 [FD BRS]
0.0009896 1 18E19490x Rx d 15 00 00 00 A5 00 00 00 50 01 00 00 00 00 00 00 [FD BRS]
0.0023239 1 D9x Rx d 14 39 13 00 15 57 D6 7E FF 9F 03 00 00 D0 0F [FD BRS]
0.0056741 1 DBx Rx d 13 39 0F 00 15 CE A6 7D 20 FF FF 7F CF FF [FD BRS]
0.0144473 1 2Dx Rx d 14 75 D0 86 04 C4 09 00 10 00 80 00 20 FA 60 [FD BRS]
0.0191067 1 E3x Rx d 8 00 80 00 04 F3 4E EB 00 [FD BRS]
0.0201088 1 DCx Rx d 13 39 10 00 16 47 D3 80 AE 2A 0A FA DC AC [FD BRS]
0.0204920 1 DBx Rx d 14 39 0E 00 20 FC 5A 7D F8 F7 7E 83 1A 3F 00 [FD BRS]
0.0221234 1 D9x Rx d 13 39 13 00 15 65 9C 7F FF 9F 03 40 00 D0 [FD BRS]
0.0256745 1 DBx Rx d 13 39 0F 00 15 E8 97 7E 20 FF FF 7F CF FF [FD BRS]
0.0291727 1 E3x Rx d 9 41 00 05 08 00 80 03 43 CC [FD BRS]
0.0301889 1 18E19490x Rx d 15 01 02 00 1C 00 04 01 80 0C 0C 01 BC 02 06 06 [FD BRS]
0.0345571 1 2Dx Rx d 14 6A D9 87 04 C4 09 00 10 00 80 00 20 FA 60 [FD BRS]
0.0350904 1 D4x Rx d 8 39 04 06 04 30 F8 21 84 [FD BRS]
0.0391118 1 E3x Rx d 10 05 00 00 0C F5 FC FF 00 00 00 [FD BRS]
0.0401780 1 DCx Rx d 13 39 10 00 16 63 7B 81 AE 2A 0A FA DC AC [FD BRS]
0.0405621 1 DBx Rx d 15 39 0E 01 0F 80 00 FF FF FF FF FF FF FF 9F D2 [FD BRS]
0.0430905 1 D9x Rx d 13 39 13 00 15 C5 D7 80 00 A0 03 40 00 D0 [FD BRS]
0.0456747 1 DBx Rx d 13 39 0F 00 15 0A 87 7F 20 FF FF 7F CF FF [FD BRS]
0.0491229 1 E3x Rx d 9 41 00 05 08 01 10 40 FC 76 [FD BRS]
0.0044952 1 2Dx Rx d 14 13 50 65 04 C4 09 00 10 00 80 00 20 FA 60 [FD BRS]
0.0050305 1 D4x Rx d 15 39 04 0C 05 0E 0F F4 FF FF 39 15 01 14 45 09 [FD BRS]
0.0091209 1 E3x Rx d 12 39 06 0B 08 00 51 51 18 00 C0 CF FF [FD BRS]
0.0100461 1 DCx Rx d 14 39 10 01 10 15 3F 42 00 47 00 9E 06 10 9C [FD BRS]
0.0105692 1 DBx Rx d 14 39 0F 01 06 4E 85 04 60 2C 02 39 0E 00 20 [FD BRS]
0.0124316 1 D9x Rx d 13 39 13 00 15 55 EA 5E FF 9F 03 00 00 D0 [FD BRS]
0.0157098 1 DBx Rx d 13 39 0F 00 15 CC 9A 5D 20 FF FF 7F CF FF [FD BRS]
0.0201300 1 18E19490x Rx d 15 04 03 00 03 00 03 00 88 36 EE 0C 2B 00 22 01 [FD BRS]
0.0244742 1 2Dx Rx d 14 32 4B 66 04 C4 09 00 10 00 80 00 20 FA 60 [FD BRS]
0.0301284 1 DCx Rx d 13 39 10 00 16 0A 11 60 AE 2A 0A FA DC AC [FD BRS]
0.0305116 1 DBx Rx d 14 39 0E 00 20 F8 88 5D F8 F7 7E 83 1A 3F 00 [FD BRS]
0.0321660 1 D9x Rx d 13 39 13 00 15 D6 01 5F 00 A0 03 C0 00 D0 [FD BRS]
0.0357211 1 DBx Rx d 13 39 0F 00 15 EA AB 5E 20 FF FF 7F CF FF [FD BRS]
0.0444953 1 2Dx Rx d 14 2D 42 67 04 C4 09 00 10 00 80 00 20 FA 60 [FD BRS]
0.0001107 1 2Dx Rx d 14 D2 63 45 04 C4 09 00 10 00 80 00 20 FA 60 [FD BRS]
0.0047440 1 E3x Rx d 8 00 80 00 04 5F DE DE 00 [FD BRS]
0.0056652 1 DCx Rx d 13 39 10 00 16 32 C7 3F AE 2A 0A FA DC AC [FD BRS]
0.0060483 1 DBx Rx d 14 39 0E 00 20 FC 99 3C F8 F7 7E 83 1A 3F 00 [FD BRS]
0.0076957 1 D9x Rx d 13 39 13 00 15 42 BA 3E 00 A0 03 00 00 D0 [FD BRS]
0.0113448 1 DBx Rx d 13 39 0F 00 15 CA DE 3D 20 FF FF 7F CF FF [FD BRS]
0.0141140 1 44 Rx d 1 04
0.0147944 1 E3x Rx d 9 41 00 05 08 00 80 03 43 CC [FD BRS]
0.0201437 1 2Dx Rx d 14 F3 78 46 04 C4 09 00 10 00 80 00 20 FA 60 [FD BRS]
0.0206801 1 D4x Rx d 8 39 04 06 04 9C 68 14 84 [FD BRS]
0.0256263 1 DCx Rx d 13 39 10 00 16 1E 57 40 AE 2A 0A FA DC AC [FD BRS]
0.0260096 1 18E19490x Rx d 15 03 00 00 96 01 96 01 00 00 00 00 00 00 00 00 [FD BRS]
0.0267308 1 DBx Rx d 15 39 0E 01 0F 80 00 FF FF FF FF FF FF FF 9F D2 [FD BRS]
0.0287272 1 D9x Rx d 13 39 13 00 15 2C A6 3F 00 A0 03 C0 FF CF [FD BRS]
0.0313443 1 DBx Rx d 13 39 0F 00 15 EC EF 3E 20 FF FF 7F CF FF [FD BRS]
0.0347805 1 E3x Rx d 9 41 00 05 08 01 AE 5B B1 78 [FD BRS]
0.0401169 1 2Dx Rx d 14 EC 71 47 04 C4 09 00 10 00 80 00 20 FA 60 [FD BRS]
0.0406513 1 D4x Rx d 15 39 04 0C 05 0E 0F F4 FF FF 39 15 01 14 45 09 [FD BRS]
0.0447136 1 E3x Rx d 12 39 06 0B 08 00 51 51 18 00 C0 CF FF [FD BRS]
0.0456198 1 DCx Rx d 14 39 10 01 10 15 3F 42 30 47 00 6E 06 10 9C [FD BRS]
0.0461400 1 DBx Rx d 14 39 0F 01 06 4E 85 04 60 38 02 39 0E 00 20 [FD BRS]
0.0478413 1 D9x Rx d 13 39 13 00 15 35 BC 40 00 A0 03 40 FF CF [FD BRS]
0.0004324 1 DBx Rx d 13 39 0F 00 15 2A F2 1C 20 FF FF 7F CF FF [FD BRS]
0.0091956 1 2Dx Rx d 14 91 37 25 04 C4 09 00 10 00 80 00 20 FA 60 [FD BRS]
0.0146509 1 DCx Rx d 13 39 10 00 16 26 81 1F AE 2A 0A FA DC AC [FD BRS]
0.0150350 1 DBx Rx d 14 39 0E 00 20 F8 4B 1C F8 F7 7E 83 1A 3F 00 [FD BRS]
0.0155562 1 18E19490x Rx d 15 01 02 00 1C 00 05 01 80 0C 0C 01 BC 02 06 06 [FD BRS]
0.0168365 1 D9x Rx d 13 39 13 00 15 7D 2B 1E FF 9F 03 40 FF CF [FD BRS]
0.0202726 1 21Cx Rx d 15 11 02 01 01 00 00 01 F4 03 E8 05 DC 07 D0 09 [FD BRS]
0.0209669 1 DBx Rx d 13 39 0F 00 15 C8 E2 1D 20 FF FF 7F CF FF [FD BRS]
0.0291821 1 2Dx Rx d 14 B0 2C 26 04 C4 09 00 10 00 80 00 20 FA 60 [FD BRS]
0.0297175 1 21Dx Rx d 3 30 02 28 [FD BRS]
0.0298726 1 21Cx Rx d 15 21 00 00 00 00 00 00 00 00 00 00 00 00 00 00 [FD BRS]
0.0321270 1 D9x Rx d 14 39 FE 28 08 29 00 00 00 00 00 00 00 39 13 [FD BRS]
0.0346913 1 DCx Rx d 13 39 10 00 16 22 9D 20 AE 2A 0A FA DC AC [FD BRS]
0.0351494 1 DBx Rx d 14 39 0E 00 20 6C 6F 1D F8 F7 7E 83 1A 3F 00 [FD BRS]
0.0403417 1 DBx Rx d 13 39 0F 00 15 EE D3 1E 20 FF FF 7F CF FF [FD BRS]
0.0418710 1 D9x Rx d 10 39 13 01 0B 55 00 18 55 85 00 [FD BRS]
0.0441013 1 4Fx Rx d 8 28 C3 0D 00 26 6E 9F 98 [FD BRS]
0.0446764 1 18E19490x Rx d 15 02 88 00 64 64 64 01 00 00 00 C0 12 34 14 00 [FD BRS]
0.0491786 1 2Dx Rx d 14 AF 25 27 04 C4 09 00 10 00 80 00 20 FA 60 [FD BRS]
0.0029554 1 E3x Rx d 8 00 80 00 04 B1 0A D1 00 [FD BRS]
0.0037176 1 DCx Rx d 13 39 10 00 16 4F EB FE AE 2A 0A FA DC AC [FD BRS]
0.0041020 1 18E19490x Rx d 15 04 03 00 03 00 03 00 92 36 ED 0C 2C 00 22 01 [FD BRS]
0.0048261 1 DBx Rx d 14 39 0E 00 20 4A AA FB F8 F7 7E 83 1A 3F 00 [FD BRS]
0.0058495 1 D9x Rx d 13 39 13 00 15 B8 59 FD 00 A0 03 40 00 D0 [FD BRS]
0.0095756 1 DBx Rx d 13 39 0F 00 15 24 46 FC 20 FF FF 7F CF FF [FD BRS]
0.0129778 1 E3x Rx d 9 41 00 05 08 00 80 03 43 CC [FD BRS]
0.0183392 1 2Dx Rx d 14 50 04 05 04 C4 09 00 10 00 80 00 20 FA 60 [FD BRS]
0.0188755 1 D4x Rx d 8 39 04 06 04 E7 E8 07 84 [FD BRS]
0.0230049 1 E3x Rx d 10 05 00 00 0C 35 FC FF 00 00 00 [FD BRS]
0.0237321 1 DCx Rx d 13 39 10 00 16 6B 43 FF AE 2A 0A FA DC AC [FD BRS]
0.0242173 1 DBx Rx d 15 39 0E 01 0F 80 00 FF FF FF FF FF FF FF 9F D2 [FD BRS]
0.0268317 1 D9x Rx d 13 39 13 00 15 2F C9 FE FF 9F 03 C0 00 D0 [FD BRS]
0.0295758 1 DBx Rx d 13 39 0F 00 15 C6 56 FD 20 FF FF 7F CF FF [FD BRS]
0.0329760 1 E3x Rx d 9 41 00 05 08 01 95 12 4A 6B [FD BRS]
0.0337382 1 18E19490x Rx d 15 00 00 00 A5 00 00 00 50 01 00 00 00 00 00 00 [FD BRS]
0.0383224 1 2Dx Rx d 14 71 1F 06 04 C4 09 00 10 00 80 00 20 FA 60 [FD BRS]
0.0388578 1 D4x Rx d 13 39 04 0C 05 0E 0F F4 FF FF 39 0C 14 0C [FD BRS]
0.0392492 1 DC085B Rx d 8 40 01 00 04 00 00 00 00
0.0429575 1 E3x Rx d 14 39 06 0B 08 00 51 51 18 00 C0 CF FF 39 04 [FD BRS]
0.0438907 1 DCx Rx d 14 39 10 01 10 15 3F 42 30 47 00 06 06 11 9C [FD BRS]
0.0444098 1 DBx Rx d 14 39 0E 00 20 32 71 FD F8 F7 7E 83 1A 3F 00 [FD BRS]
0.0459912 1 D9x Rx d 13 39 13 00 15 CD D9 FF FF 9F 03 C0 00 D0 [FD BRS]
0.0495774 1 DBx Rx d 13 39 0F 00 15 E0 67 FE 20 FF FF 7F CF FF [FD BRS]
0.0000510 1 D9x Rx d 13 39 13 00 15 DB 9E DD FF 9F 03 80 00 D0 [FD BRS]
0.0035372 1 DBx Rx d 13 39 0F 00 15 26 7A DC 20 FF FF 7F CF FF [FD BRS]
0.0076614 1 18E19490x Rx d 15 03 00 00 91 01 91 01 00 00 00 00 00 00 00 00 [FD BRS]
0.0122586 1 2Dx Rx d 14 17 9F E5 04 C4 09 00 10 00 80 00 20 FA 60 [FD BRS]
0.0176588 1 DCx Rx d 13 39 10 00 16 7F 05 DF AE 2A 0A FA DC AC [FD BRS]
0.0181540 1 DBx Rx d 14 39 0E 00 20 A2 87 DC F8 F7 7E 83 1A 3F 00 [FD BRS]
0.0197254 1 D9x Rx d 14 39 13 00 15 8D 40 DE FF 9F 03 40 00 D0 0F [FD BRS]
0.0235275 1 DBx Rx d 13 39 0F 00 15 C4 6A DD 20 FF FF 7F CF FF [FD BRS]
0.0322678 1 2Dx Rx d 14 36 84 E6 04 C4 09 00 10 00 80 00 20 FA 60 [FD BRS]
0.0369851 1 E3x Rx d 8 00 80 00 04 BD 79 CB 00 [FD BRS]
0.0376093 1 DCx Rx d 13 39 10 00 16 7B 19 E0 AE 2A 0A FA DC AC [FD BRS]
0.0379927 1 18E19490x Rx d 15 04 03 00 03 00 03 00 88 36 ED 0C 2B 00 22 01 [FD BRS]
0.0387178 1 DBx Rx d 14 39 0E 00 20 36 A3 DD F8 F7 7E 83 1A 3F 00 [FD BRS]
0.0397632 1 D9x Rx d 13 39 13 00 15 6F 50 DF FF 9F 03 40 00 D0 [FD BRS]
0.0435273 1 DBx Rx d 13 39 0F 00 15 E2 5B DE 20 FF FF 7F CF FF [FD BRS]
0.0469195 1 E3x Rx d 9 41 00 05 08 00 80 03 43 CC [FD BRS]
0.0007636 1 2Dx Rx d 14 B5 81 C0 04 C4 09 00 10 00 80 00 20 FA 60 [FD BRS]
0.0012999 1 D4x Rx d 14 39 04 0C 05 0E 0F F4 FF FF 39 FE 1D 08 59 [FD BRS]
0.0054013 1 E3x Rx d 14 39 06 0B 08 00 51 51 18 00 C0 CF FF 39 04 [FD BRS]
0.0059207 1 4Fx Rx d 8 20 46 09 A0 00 49 9D 9F [FD BRS]
0.0061368 1 DCx Rx d 14 39 10 01 10 15 3F 42 00 47 00 96 06 10 9C [FD BRS]
0.0067420 1 DBx Rx d 14 39 0E 00 20 B2 B8 B7 F8 F7 7E 83 1A 3F 00 [FD BRS]
0.0085573 1 D9x Rx d 13 39 13 00 15 C0 90 B9 01 A0 03 00 00 D0 [FD BRS]
0.0120375 1 DBx Rx d 13 39 0F 00 15 A8 7D B8 20 FF FF 7F CF FF [FD BRS]
0.0160677 1 18E19490x Rx d 15 04 03 00 03 00 03 00 88 36 ED 0C 2B 00 22 01 [FD BRS]
0.0207549 1 2Dx Rx d 14 AA 88 C1 04 C4 09 00 10 00 80 00 20 FA 60 [FD BRS]
0.0261351 1 DCx Rx d 13 39 10 00 16 91 4F BB AE 2A 0A FA DC AC [FD BRS]
0.0267142 1 DBx Rx d 14 39 0E 00 20 DF 73 B8 F8 F7 7E 83 1A 3F 00 [FD BRS]
0.0282475 1 D9x Rx d 13 39 13 00 15 4E 05 BA 00 A0 03 C0 FF CF [FD BRS]
0.0318787 1 21Cx Rx d 15 11 02 01 00 75 74 79 5C 7C 7C 7F 38 83 20 87 [FD BRS]
0.0325750 1 DBx Rx d 13 39 0F 00 15 4A 6D B9 20 FF FF 7F CF FF [FD BRS]
0.0329602 1 21Dx Rx d 3 30 40 28 [FD BRS]
0.0331154 1 21Cx Rx d 15 21 00 00 00 00 00 00 00 00 00 00 00 00 00 00 [FD BRS]
0.0407796 1 2Dx Rx d 14 8B 93 C2 04 C4 09 00 10 00 80 00 20 FA 60 [FD BRS]
0.0435000 1 D9x Rx d 14 39 FE 28 08 29 00 00 00 00 00 00 00 39 13 [FD BRS]
0.0460532 1 DCx Rx d 13 39 10 00 16 0E 27 BC AE 2A 0A FA DC AC [FD BRS]
0.0464365 1 18E19490x Rx d 15 00 00 00 A5 00 00 00 50 01 00 00 00 00 00 00 [FD BRS]
0.0471527 1 DBx Rx d 14 39 0E 00 20 4B 57 B9 F8 F7 7E 83 1A 3F 00 [FD BRS]
0.0023371 1 DBx Rx d 13 39 0F 00 15 F6 A4 96 20 FF FF 7F CF FF [FD BRS]
0.0110383 1 2Dx Rx d 14 62 00 9F 04 C4 09 00 10 00 80 00 20 FA 60 [FD BRS]
0.0162706 1 DCx Rx d 13 39 10 00 16 EC 49 99 AE 2A 0A FA DC AC [FD BRS]
0.0169517 1 DBx Rx d 14 39 0E 00 20 22 4E 96 F8 F7 7E 83 1A 3F 00 [FD BRS]
0.0185741 1 D9x Rx d 14 39 13 00 15 50 53 98 01 A0 03 C0 00 D0 0F [FD BRS]
0.0223262 1 DBx Rx d 13 39 0F 00 15 14 B4 97 20 FF FF 7F CF FF [FD BRS]
0.0263044 1 18E19490x Rx d 15 02 88 00 64 64 64 01 00 00 00 81 12 3B 5A 00 [FD BRS]
0.0310316 1 2Dx Rx d 14 F6 D5 A0 04 C4 09 00 10 00 80 00 20 FA 60 [FD BRS]
0.0356780 1 E3x Rx d 8 00 80 00 04 51 1C BD 00 [FD BRS]
0.0363522 1 DCx Rx d 13 39 10 00 16 A1 A1 9A AE 2A 0A FA DC AC [FD BRS]
0.0369673 1 DBx Rx d 14 39 0E 00 20 B6 6A 97 F8 F7 7E 83 1A 3F 00 [FD BRS]
0.0384277 1 D9x Rx d 13 39 13 00 15 27 4A 99 FF 9F 03 40 00 D0 [FD BRS]
0.0423258 1 DBx Rx d 13 39 0F 00 15 AA 41 98 20 FF FF 7F CF FF [FD BRS]
0.0457060 1 E3x Rx d 9 41 00 05 08 00 80 03 43 CC [FD BRS]
0.0030367 1 18E19490x Rx d 15 03 00 00 95 01 95 01 00 00 00 00 00 00 00 00 [FD BRS]
0.0077849 1 2Dx Rx d 14 04 80 7C 04 C4 09 00 10 00 80 00 20 FA 60 [FD BRS]
0.0130252 1 DCx Rx d 13 39 10 00 16 BB F2 76 AE 2A 0A FA DC AC [FD BRS]
0.0137133 1 DBx Rx d 14 39 0E 00 20 B8 E6 73 F8 F7 7E 83 1A 3F 00 [FD BRS]
0.0151307 1 D9x Rx d 14 39 13 00 15 FC 78 75 00 A0 03 C0 FF CF 0F [FD BRS]
0.0190869 1 DBx Rx d 13 39 0F 00 15 3C 31 74 20 FF FF 7F CF FF [FD BRS]
0.0278041 1 2Dx Rx d 14 1B 89 7D 04 C4 09 00 10 00 80 00 20 FA 60 [FD BRS]
0.0324304 1 E3x Rx d 8 00 80 00 04 4E 02 B6 00 [FD BRS]
0.0329676 1 DCx Rx d 13 39 10 00 16 9F 5A 77 AE 2A 0A FA DC AC [FD BRS]
0.0333529 1 18E19490x Rx d 15 04 03 00 03 00 03 00 92 36 ED 0C 2B 00 22 01 [FD BRS]
0.0340771 1 DBx Rx d 14 39 0E 00 20 54 19 74 F8 F7 7E 83 1A 3F 00 [FD BRS]
0.0351574 1 D9x Rx d 13 39 13 00 15 F6 F0 76 00 A0 03 80 00 D0 [FD BRS]
0.0389975 1 DBx Rx d 13 39 0F 00 15 DE 21 75 20 FF FF 7F CF FF [FD BRS]
0.0418267 1 44 Rx d 1 04
0.0424551 1 E3x Rx d 9 41 00 05 08 00 80 03 43 CC [FD BRS]
0.0478094 1 2Dx Rx d 14 3A 92 7E 04 C4 09 00 10 00 80 00 20 FA 60 [FD BRS]
0.0483428 1 D4x Rx d 8 39 04 06 04 12 72 EC 84 [FD BRS]
0.0030525 1 E3x Rx d 10 05 00 00 0C F5 FC FF 00 00 00 [FD BRS]
0.0036316 1 DCx Rx d 13 39 10 00 16 E2 5C 55 AE 2A 0A FA DC AC [FD BRS]
0.0043398 1 DBx Rx d 15 39 0E 01 0F 7C 00 FF FF FF FF FF FF FF 9F D2 [FD BRS]
0.0066732 1 D9x Rx d 13 39 13 00 15 40 02 54 00 A0 03 40 00 D0 [FD BRS]
0.0096973 1 DBx Rx d 13 39 0F 00 15 90 7F 53 20 FF FF 7F CF FF [FD BRS]
0.0130545 1 E3x Rx d 9 41 00 05 08 01 B9 11 AB BA [FD BRS]
0.0135117 1 DCx Rx d 9 39 FE 6F 08 94 01 00 80 00 [FD BRS]
0.0185050 1 2Dx Rx d 14 C5 B3 5C 04 C4 09 00 10 00 80 00 20 FA 60 [FD BRS]
0.0190403 1 D4x Rx d 14 39 04 0C 05 0E 0F F4 FF FF 39 FE 1D 08 59 [FD BRS]
0.0231177 1 E3x Rx d 14 39 06 0B 08 00 51 51 18 00 C0 CF FF 39 04 [FD BRS]
0.0236378 1 4Fx Rx d 8 20 7E 05 A0 00 49 9D 9D [FD BRS]
0.0238032 1 DCx Rx d 14 39 10 01 10 15 3F 42 00 47 00 F6 42 10 9C [FD BRS]
0.0243216 1 18E19490x Rx d 15 02 88 00 64 64 64 01 00 00 00 C0 12 3F 21 00 [FD BRS]
0.0250277 1 DBx Rx d 14 39 0E 00 20 BC 34 53 F8 F7 7E 83 1A 3F 00 [FD BRS]
0.0261490 1 D9x Rx d 13 39 13 00 15 EF 50 55 FF 9F 03 C0 FF CF [FD BRS]
0.0296962 1 DBx Rx d 13 39 0F 00 15 3E 0D 54 20 FF FF 7F CF FF [FD BRS]
0.0383814 1 2Dx Rx d 14 DA BA 5D 04 C4 09 00 10 00 80 00 20 FA 60 [FD BRS]
0.0434886 1 DCx Rx d 13 39 10 00 16 8B 1C 57 AE 2A 0A FA DC AC [FD BRS]
0.0443948 1 DBx Rx d 14 39 0E 00 20 50 CB 54 F8 F7 7E 83 1A 3F 00 [FD BRS]
0.0457571 1 D9x Rx d 13 39 13 00 15 ED C9 56 FE 9F 03 C0 FF CF [FD BRS]
0.0000264 1 E3x Rx d 8 00 80 00 04 07 CD A9 00 [FD BRS]
0.0004705 1 DCx Rx d 13 39 10 00 16 93 7E 36 AE 2A 0A FA DC AC [FD BRS]
0.0014697 1 DBx Rx d 14 39 0E 00 20 91 52 33 F8 F7 7E 83 1A 3F 00 [FD BRS]
0.0026550 1 D9x Rx d 13 39 13 00 15 58 B5 35 00 A0 03 40 FF CF [FD BRS]
0.0066122 1 DBx Rx d 13 39 0F 00 15 38 49 34 20 FF FF 7F CF FF [FD BRS]
0.0100434 1 E3x Rx d 9 41 00 05 08 00 80 03 43 CC [FD BRS]
0.0105415 1 18E19490x Rx d 15 01 02 00 1C 00 04 01 80 0C 0C 01 BC 02 06 06 [FD BRS]
0.0154087 1 2Dx Rx d 14 99 EE 3D 04 C4 09 00 10 00 80 00 20 FA 60 [FD BRS]
0.0159451 1 D4x Rx d 8 39 04 06 04 27 C5 DF 84 [FD BRS]
0.0201004 1 E3x Rx d 10 05 00 00 0C F5 FC FF 00 00 00 [FD BRS]
0.0205886 1 DCx Rx d 13 39 10 00 16 B7 D6 37 AE 2A 0A FA DC AC [FD BRS]
0.0214308 1 DBx Rx d 15 39 0E 01 0F 7C 00 FF FF FF FF FF FF FF 9F D2 [FD BRS]
0.0236262 1 D9x Rx d 13 39 13 00 15 43 29 36 FF 9F 03 00 00 D0 [FD BRS]
0.0266133 1 DBx Rx d 13 39 0F 00 15 DA 59 35 20 FF FF 7F CF FF [FD BRS]
0.0300515 1 E3x Rx d 9 41 00 05 08 01 B1 CA 67 B7 [FD BRS]
0.0354069 1 2Dx Rx d 14 B8 F5 3E 04 C4 09 00 10 00 80 00 20 FA 60 [FD BRS]
0.0359412 1 D4x Rx d 13 39 04 0C 05 0E 0F F4 FF FF 39 0C 14 0C [FD BRS]
0.0363326 1 DC085B Rx d 8 40 01 00 04 00 00 00 00
0.0400329 1 E3x Rx d 14 39 06 0B 08 00 51 51 18 00 C0 CF FF 39 04 [FD BRS]
0.0405561 1 DCx Rx d 14 39 10 01 10 15 3F 42 00 47 00 C6 12 0D 9C [FD BRS]
0.0410744 1 18E19490x Rx d 15 02 88 00 64 64 64 01 00 00 00 B0 12 AD 62 00 [FD BRS]
0.0417796 1 DBx Rx d 14 39 0E 00 20 E9 89 35 F8 F7 7E 83 1A 3F 00 [FD BRS]
0.0426599 1 D9x Rx d 13 39 13 00 15 A1 39 37 FF 9F 03 00 00 D0 [FD BRS]
0.0467030 1 DBx Rx d 13 39 0F 00 15 FC 68 36 20 FF FF 7F CF FF [FD BRS]
0.0020569 1 DBx Rx d 13 39 0F 00 15 3A 75 14 20 FF FF 7F CF FF [FD BRS]
0.0108301 1 2Dx Rx d 14 58 DD 1D 04 C4 09 00 10 00 80 00 20 FA 60 [FD BRS]
0.0157673 1 DCx Rx d 13 39 10 00 16 A3 90 17 AE 2A 0A FA DC AC [FD BRS]
0.0161497 1 18E19490x Rx d 15 00 00 00 A5 00 00 00 50 01 00 00 00 00 00 00 [FD BRS]
0.0168658 1 DBx Rx d 14 39 0E 00 20 79 7F 14 F8 F7 7E 83 1A 3F 00 [FD BRS]
0.0182391 1 D9x Rx d 14 39 13 00 15 91 4F 16 FF 9F 03 40 00 D0 0F [FD BRS]
0.0220453 1 DBx Rx d 13 39 0F 00 15 D8 65 15 20 FF FF 7F CF FF [FD BRS]
0.0308085 1 2Dx Rx d 14 79 C6 1E 04 C4 09 00 10 00 80 00 20 FA 60 [FD BRS]
0.0354549 1 E3x Rx d 8 00 80 00 04 AC A5 A3 00 [FD BRS]
0.0358210 1 DCx Rx d 13 39 10 00 16 B9 E9 18 AE 2A 0A FA DC AC [FD BRS]
0.0368352 1 DBx Rx d 14 39 0E 00 20 B7 3C 15 F8 E7 7E 83 1A 3F 00 [FD BRS]
0.0380275 1 D9x Rx d 13 39 13 00 15 A3 05 17 FF 9F 03 00 00 D0 [FD BRS]
0.0420447 1 DBx Rx d 13 39 0F 00 15 FE 54 16 20 FF FF 7F CF FF [FD BRS]
0.0454729 1 E3x Rx d 9 41 00 05 08 00 80 03 43 CC [FD BRS]
0.0459270 1 18E19490x Rx d 15 01 02 00 1C 00 04 01 80 0C 0C 01 BC 02 06 06 [FD BRS]
0.0000459 1 2Dx Rx d 14 7C 6B F8 04 C4 09 00 10 00 80 00 20 FA 60 [FD BRS]
0.0005812 1 D4x Rx d 14 39 04 0C 05 0E 0F F4 FF FF 39 FE 1D 08 59 [FD BRS]
0.0046846 1 E3x Rx d 14 39 06 0B 08 00 51 51 18 00 C0 CF FF 39 04 [FD BRS]
0.0052068 1 4Fx Rx d 8 20 BB 01 A0 00 49 9D 9B [FD BRS]
0.0053711 1 DCx Rx d 14 39 10 01 10 15 3F 42 30 47 00 56 12 11 9C [FD BRS]
0.0060793 1 DBx Rx d 14 39 0E 00 20 18 51 EF F8 F7 7E 83 1A 3F 00 [FD BRS]
0.0076297 1 D9x Rx d 13 39 13 00 15 20 9D F1 00 A0 03 40 00 D0 [FD BRS]
0.0113808 1 DBx Rx d 13 39 0F 00 15 BC 82 F0 20 FF FF 7F CF FF [FD BRS]
0.0200530 1 2Dx Rx d 14 63 62 F9 04 C4 09 00 10 00 80 00 20 FA 60 [FD BRS]
0.0249902 1 DCx Rx d 13 39 10 00 16 3C D2 F3 AE 2A 0A FA DC AC [FD BRS]
0.0253726 1 18E19490x Rx d 15 01 01 00 1C 00 05 01 80 0C 0C 01 BC 02 06 06 [FD BRS]
0.0260767 1 DBx Rx d 14 39 0E 00 20 77 F3 F0 F8 F7 7E 83 1A 3F 00 [FD BRS]
0.0273341 1 D9x Rx d 13 39 13 00 15 F2 5E F2 01 A0 03 00 00 D0 [FD BRS]
0.0311302 1 21Cx Rx d 15 11 02 01 0E 00 00 01 F4 05 DC 09 38 0F A0 13 [FD BRS]
0.0318256 1 DBx Rx d 13 39 0F 00 15 5E 92 F1 20 FF FF 7F CF FF [FD BRS]
0.0400438 1 2Dx Rx d 14 42 79 FA 04 C4 09 00 10 00 80 00 20 FA 60 [FD BRS]
0.0425382 1 D9x Rx d 14 39 FE 28 08 29 00 00 00 00 00 00 00 39 13 [FD BRS]
0.0449794 1 DCx Rx d 13 39 10 00 16 A3 BA F4 AE 2A 0A FA DC AC [FD BRS]
0.0461496 1 DBx Rx d 14 39 0E 00 20 E3 D7 F1 F8 F7 7E 83 1A 3F 00 [FD BRS]
0.0000651 1 D9x Rx d 13 39 13 00 15 20 13 CD FF 9F 04 80 FF CF [FD BRS]
0.0031752 1 DBx Rx d 13 39 0F 00 15 27 64 CC 20 FF FF 7F CF FF [FD BRS]
0.0065904 1 E3x Rx d 9 41 00 05 08 01 52 96 C7 05 [FD BRS]
0.0119488 1 2Dx Rx d 14 26 3D D5 04 C4 09 00 10 00 80 00 20 FA 60 [FD BRS]
0.0124821 1 D4x Rx d 15 39 04 0C 05 0E 0F F4 FF FF 39 15 01 14 45 09 [FD BRS]
0.0165465 1 E3x Rx d 12 39 06 0B 08 00 51 51 18 00 C0 CF FF [FD BRS]
0.0168516 1 DCx Rx d 14 39 10 01 10 15 3F 42 39 47 00 1E 12 11 9C [FD BRS]
0.0173690 1 18E19490x Rx d 15 02 88 00 64 64 64 01 00 00 00 BD 12 E0 D2 00 [FD BRS]
0.0180732 1 DBx Rx d 14 39 0F 01 06 4E 85 04 60 00 00 39 0E 00 20 [FD BRS]
0.0194275 1 D9x Rx d 13 39 13 00 15 D6 78 CE FF 9F 04 C0 FF CF [FD BRS]
0.0231787 1 DBx Rx d 13 39 0F 00 15 C5 74 CD 20 FF FF 7F CF FF [FD BRS]
0.0319169 1 2Dx Rx d 14 07 26 D6 04 C4 09 00 10 00 80 00 20 FA 60 [FD BRS]
0.0367181 1 DCx Rx d 13 39 10 00 16 65 7C D0 AE 2A 0A FA DC AC [FD BRS]
0.0379472 1 DBx Rx d 14 39 0E 00 20 34 CA CD F8 F7 7E 83 1A 3F 00 [FD BRS]
0.0391235 1 D9x Rx d 13 39 13 00 15 07 A4 CF 01 A0 03 C0 FF CF [FD BRS]
0.0431857 1 DBx Rx d 13 39 0F 00 15 E3 45 CE 20 FF FF 7F CF FF [FD BRS]
0.0469269 1 18E19490x Rx d 15 03 00 00 99 01 99 01 00 00 00 00 00 00 00 00 [FD BRS]
0.0002002 1 DCx Rx d 14 39 10 01 10 15 3F 42 00 47 00 E6 42 10 9C [FD BRS]
0.0009533 1 DBx Rx d 14 39 0E 00 20 49 3E A9 F8 F7 7E 83 1A 3F 00 [FD BRS]
0.0023777 1 D9x Rx d 13 39 13 00 15 E0 49 AB FF 9F 03 40 00 D0 [FD BRS]
0.0062558 1 DBx Rx d 13 39 0F 00 15 6D 42 AA 20 FF FF 7F CF FF [FD BRS]
0.0098060 1 18E19490x Rx d 15 04 03 00 03 00 03 00 92 36 EE 0C 2B 00 22 01 [FD BRS]
0.0148952 1 2Dx Rx d 14 27 5F B3 04 C4 09 00 10 00 80 00 20 FA 60 [FD BRS]
0.0197404 1 DCx Rx d 13 39 10 00 16 20 AC AD AE 2A 0A FA DC AC [FD BRS]
0.0209336 1 DBx Rx d 14 39 0E 00 20 F5 53 AA F8 F7 7E 83 1A 3F 00 [FD BRS]
0.0220609 1 D9x Rx d 13 39 13 00 15 5F 2F AC 00 A0 03 40 00 D0 [FD BRS]
0.0261760 1 DBx Rx d 13 39 0F 00 15 8F 52 AB 20 FF FF 7F CF FF [FD BRS]
0.0349092 1 2Dx Rx d 14 7A 60 B4 04 C4 09 00 10 00 80 00 20 FA 60 [FD BRS]
0.0396354 1 DCx Rx d 13 39 10 00 16 6D 44 AE AE 2A 0A FA DC AC [FD BRS]
0.0400198 1 18E19490x Rx d 15 00 00 00 A5 00 00 00 50 01 00 00 00 00 00 00 [FD BRS]
0.0409359 1 DBx Rx d 14 39 0E 00 20 3B 10 AB F8 E7 7E 83 1A 3F 00 [FD BRS]
0.0420172 1 D9x Rx d 14 39 13 00 15 AC 2B AD FF 9F 03 40 00 D0 0F [FD BRS]
0.0461644 1 DBx Rx d 13 39 0F 00 15 21 20 AC 20 FF FF 7F CF FF [FD BRS]
0.0016271 1 2Dx Rx d 14 D8 7E 91 04 C4 09 00 10 00 80 00 20 FA 60 [FD BRS]
0.0062904 1 DCx Rx d 13 39 10 00 16 8F 2A 8B AE 2A 0A FA DC AC [FD BRS]
0.0076725 1 DBx Rx d 14 39 0E 00 20 83 AF 88 F8 E7 7E 83 1A 3F 00 [FD BRS]
0.0086819 1 D9x Rx d 14 39 13 00 15 5C 33 8A FF 9F 03 C0 FF CF 0F [FD BRS]
0.0129010 1 DBx Rx d 13 39 0F 00 15 49 4F 89 20 FF FF 7F CF FF [FD BRS]
0.0164952 1 18E19490x Rx d 15 02 88 00 64 64 64 01 00 00 00 58 12 04 53 00 [FD BRS]
0.0216184 1 2Dx Rx d 14 F9 65 92 04 C4 09 00 10 00 80 00 20 FA 60 [FD BRS]
0.0262577 1 E3x Rx d 8 00 80 00 04 13 58 87 00 [FD BRS]
0.0264209 1 DCx Rx d 13 39 10 00 16 10 42 8C AE 2A 0A FA DC AC [FD BRS]
0.0276901 1 DBx Rx d 14 39 0E 00 20 17 8B 89 F8 E7 7E 83 1A 3F 00 [FD BRS]
0.0288494 1 D9x Rx d 13 39 13 00 15 1E 96 8B FF 9F 03 40 FF CF [FD BRS]
0.0329016 1 DBx Rx d 13 39 0F 00 15 6F 7E 8A 20 FF FF 7F CF FF [FD BRS]
0.0362978 1 E3x Rx d 9 41 00 05 08 00 80 03 43 CC [FD BRS]
0.0417481 1 2Dx Rx d 14 E6 6C 93 04 C4 09 00 10 00 80 00 20 FA 60 [FD BRS]
0.0422815 1 D4x Rx d 8 39 04 06 04 9D 71 BD 84 [FD BRS]
0.0462808 1 E3x Rx d 10 05 00 00 0C F5 FC FF 00 00 00 [FD BRS]
0.0465160 1 DCx Rx d 13 39 10 00 16 34 EA 8D AE 2A 0A FA DC AC [FD BRS]
0.0468984 1 18E19490x Rx d 15 03 00 00 8F 01 8F 01 00 00 00 00 00 00 00 00 [FD BRS]
0.0476835 1 DBx Rx d 15 39 0E 01 0F 7C 00 FF FF FF FF FF FF FF 9F D2 [FD BRS]
0.0013115 1 E3x Rx d 12 39 06 0B 08 00 51 51 18 00 C0 CF FF [FD BRS]
0.0016167 1 DCx Rx d 14 39 10 01 10 15 3F 42 32 47 00 7E 06 11 9C [FD BRS]
0.0028789 1 DBx Rx d 14 39 0F 01 06 4E 85 04 60 50 00 39 0E 00 20 [FD BRS]
0.0040332 1 D9x Rx d 13 39 13 00 15 7E 3E 6A FF 9F 03 80 00 D0 [FD BRS]
0.0079824 1 DBx Rx d 13 39 0F 00 15 47 FB 69 20 FF FF 7F CF FF [FD BRS]
0.0167076 1 2Dx Rx d 14 BE FE 72 04 C4 09 00 10 00 80 00 20 FA 60 [FD BRS]
0.0213008 1 DCx Rx d 13 39 10 00 16 5D 80 6C AE 2A 0A FA DC AC [FD BRS]
0.0216861 1 18E19490x Rx d 15 01 02 00 1C 00 05 01 80 0C 0C 01 BC 02 06 06 [FD BRS]
0.0227523 1 DBx Rx d 14 39 0E 00 20 49 95 69 F8 E7 7E 83 1A 3F 00 [FD BRS]
0.0238236 1 D9x Rx d 13 39 13 00 15 9C 2E 6B FF 9F 03 80 00 D0 [FD BRS]
0.0279918 1 DBx Rx d 13 39 0F 00 15 61 CA 6A 20 FF FF 7F CF FF [FD BRS]
0.0366960 1 2Dx Rx d 14 A1 F7 73 04 C4 09 00 10 00 80 00 20 FA 60 [FD BRS]
0.0413062 1 DCx Rx d 13 39 10 00 16 79 28 6D AE 2A 0A FA DC AC [FD BRS]
0.0427524 1 DBx Rx d 14 39 0E 00 20 F5 F8 6A F8 E7 7E 83 1A 3F 00 [FD BRS]
0.0437457 1 D9x Rx d 14 39 13 00 15 92 E9 6C FF 9F 03 00 00 D0 0F [FD BRS]
0.0479818 1 DBx Rx d 13 39 0F 00 15 83 DA 6B 20 FF FF 7F CF FF [FD BRS]
0.0021673 1 E3x Rx d 12 39 06 0B 08 00 51 51 18 00 C0 CF FF [FD BRS]
0.0024734 1 DCx Rx d 14 39 10 01 10 15 3F 42 32 47 00 4E 16 10 9C [FD BRS]
0.0036686 1 DBx Rx d 14 39 0F 01 06 4E 85 04 60 40 00 39 0E 00 20 [FD BRS]
0.0048200 1 D9x Rx d 13 39 13 00 15 1C D9 4C FF 9F 03 C0 FF CF [FD BRS]
0.0088241 1 DBx Rx d 13 39 0F 00 15 81 E6 4B 20 FF FF 7F CF FF [FD BRS]
0.0176353 1 2Dx Rx d 14 3D FB 54 04 C4 09 00 10 00 80 00 20 FA 60 [FD BRS]
0.0221085 1 DCx Rx d 13 39 10 00 16 20 86 4E AE 2A 0A FA DC AC [FD BRS]
0.0224919 1 18E19490x Rx d 15 01 02 00 1C 00 04 01 80 0C 0C 01 BC 02 06 06 [FD BRS]
0.0235930 1 DBx Rx d 14 39 0E 00 20 65 0E 4B F8 E7 7E 83 1A 3F 00 [FD BRS]
0.0246134 1 D9x Rx d 13 39 13 00 15 63 D1 4D 00 A0 03 00 00 D0 [FD BRS]
0.0288335 1 DBx Rx d 13 39 0F 00 15 2F 94 4C 20 FF FF 7F CF FF [FD BRS]
0.0375287 1 2Dx Rx d 14 22 F2 55 04 C4 09 00 10 00 80 00 20 FA 60 [FD BRS]
0.0420839 1 DCx Rx d 13 39 10 00 16 04 2E 4F AE 2A 0A FA DC AC [FD BRS]
0.0436431 1 DBx Rx d 14 39 0E 00 20 89 F1 4C F8 E7 7E 83 1A 3F 00 [FD BRS]
0.0445674 1 D9x Rx d 14 39 13 00 15 84 AE 4E FF 9F 03 40 00 D0 0F [FD BRS]
0.0488226 1 DBx Rx d 13 39 0F 00 15 CD 84 4D 20 FF FF 7F CF FF [FD BRS]
0.0027121 1 DCx Rx d 14 39 10 01 10 15 3F 42 39 47 00 1E 12 11 9C [FD BRS]
0.0032303 1 E3x Rx d 12 39 06 0B 08 00 51 51 18 00 C0 CF FF [FD BRS]
0.0042435 1 DBx Rx d 14 39 0E 00 20 A4 97 2C F8 E7 7E 83 1A 3F 00 [FD BRS]
0.0053748 1 D9x Rx d 13 39 13 00 15 1F F2 2E 00 A0 03 80 FF CF [FD BRS]
0.0094059 1 DBx Rx d 13 39 0F 00 15 CB C0 2D 20 FF FF 7F CF FF [FD BRS]
0.0142402 1 21Cx Rx d 8 24 00 00 00 00 00 00 00 [FD BRS]
0.0181134 1 2Dx Rx d 14 40 BD 36 04 C4 09 00 10 00 80 00 20 FA 60 [FD BRS]
0.0226297 1 DCx Rx d 13 39 10 00 16 28 BE 30 AE 2A 0A FA DC AC [FD BRS]
0.0230129 1 18E19490x Rx d 15 01 02 00 1C 00 05 01 80 0C 0C 01 BC 02 06 06 [FD BRS]
0.0241751 1 DBx Rx d 14 39 0E 00 20 30 B3 2D F8 E7 7E 83 1A 3F 00 [FD BRS]
0.0251565 1 D9x Rx d 13 39 13 00 15 71 EE 2F 00 A0 03 40 00 D0 [FD BRS]
0.0294176 1 DBx Rx d 13 39 0F 00 15 ED F1 2E 20 FF FF 7F CF FF [FD BRS]
0.0381018 1 2Dx Rx d 14 5F B4 37 04 C4 09 00 10 00 80 00 20 FA 60 [FD BRS]
0.0426320 1 DCx Rx d 13 39 10 00 16 0C 16 31 AE 2A 0A FA DC AC [FD BRS]
0.0441751 1 DBx Rx d 14 39 0E 00 20 8C DE 2E F8 E7 7E 83 1A 3F 00 [FD BRS]
0.0451015 1 D9x Rx d 14 39 13 00 15 1E 5F 30 00 A0 03 00 00 D0 0F [FD BRS]
0.0481057 1 E3x Rx d 9 41 00 00 08 00 57 31 4B 41 [FD BRS]
0.0494189 1 DBx Rx d 13 39 0F 00 15 0F E1 2F 20 FF FF 7F CF FF [FD BRS]
0.0015854 1 2Dx Rx d 14 9E 87 17 04 C4 09 00 10 00 80 00 20 FA 60 [FD BRS]
0.0021217 1 D4x Rx d 15 39 04 0C 05 0E 0F F4 FF FF 39 15 01 14 45 09 [FD BRS]
0.0061339 1 DCx Rx d 14 39 10 01 10 15 3F 42 00 47 00 EE 46 0C 9C [FD BRS]
0.0066541 1 4Fx Rx d 8 20 4E 08 A0 00 49 9D 97 [FD BRS]
0.0068185 1 E3x Rx d 12 39 06 0B 08 00 51 51 18 00 C0 CF FF [FD BRS]
0.0077476 1 DBx Rx d 14 39 0F 01 06 4E 85 04 60 00 00 39 0E 00 20 [FD BRS]
0.0084810 1 D9x Rx d 13 39 13 00 15 F9 85 10 FE 9F 03 40 00 D0 [FD BRS]
0.0128911 1 DBx Rx d 13 39 0F 00 15 0D DD 0F 20 FF FF 7F CF FF [FD BRS]
0.0216383 1 2Dx Rx d 14 3B F0 18 04 C4 09 00 10 00 80 00 20 FA 60 [FD BRS]
0.0260615 1 DCx Rx d 13 39 10 00 16 55 B8 12 AE 2A 0A FA DC AC [FD BRS]
0.0264438 1 18E19490x Rx d 15 01 02 00 1C 00 04 01 80 0C 0C 01 BC 02 06 06 [FD BRS]
0.0276610 1 DBx Rx d 14 39 0E 00 20 1C 28 0F F8 E7 7E 83 1A 3F 00 [FD BRS]
0.0285943 1 D9x Rx d 13 39 13 00 15 4F D2 11 FF 9F 03 80 00 D0 [FD BRS]
0.0329014 1 DBx Rx d 13 39 0F 00 15 B2 36 10 20 FF FF 7F CF FF [FD BRS]
0.0362736 1 E3x Rx d 8 3A 02 00 04 F4 FF FF FF [FD BRS]
0.0415710 1 2Dx Rx d 14 24 F9 19 04 C4 09 00 10 00 80 00 20 FA 60 [FD BRS]
0.0460582 1 DCx Rx d 13 39 10 00 16 71 10 13 AE 2A 0A FA DC AC [FD BRS]
0.0476613 1 DBx Rx d 14 39 0E 00 20 73 8A 10 F8 E7 7E 83 1A 3F 00 [FD BRS]
0.0486537 1 D9x Rx d 14 39 13 00 15 08 18 12 00 A0 03 40 00 D0 0F [FD BRS]
0.0010750 1 18E19490x Rx d 15 03 00 00 96 01 96 01 00 00 00 00 00 00 00 00 [FD BRS]
0.0064493 1 2Dx Rx d 14 C6 15 F6 04 C4 09 00 10 00 80 00 20 FA 60 [FD BRS]
0.0109565 1 DCx Rx d 13 39 10 00 16 71 3A F0 AE 2A 0A FA DC AC [FD BRS]
0.0125456 1 DBx Rx d 14 39 0E 00 20 6A 7F ED F8 E7 7E 83 1A 3F 00 [FD BRS]
0.0135400 1 D9x Rx d 14 39 13 00 15 AD 3C EF 00 A0 03 00 00 D0 0F [FD BRS]
0.0177761 1 DBx Rx d 13 39 0F 00 15 E1 79 EE 20 FF FF 7F CF FF [FD BRS]
0.0211003 1 E3x Rx d 10 32 04 00 0C A9 2D 43 53 67 07 [FD BRS]
0.0264617 1 2Dx Rx d 14 D9 1C F7 04 C4 09 00 10 00 80 00 20 FA 60 [FD BRS]
0.0308989 1 DCx Rx d 13 39 10 00 16 55 92 F1 AE 2A 0A FA DC AC [FD BRS]
0.0312801 1 E3x Rx d 8 00 80 00 04 17 08 68 00 [FD BRS]
0.0314443 1 18E19490x Rx d 15 04 03 00 03 00 03 00 88 36 ED 0C 2B 00 22 01 [FD BRS]
0.0325655 1 DBx Rx d 14 39 0E 00 20 D6 12 EE F8 E7 7E 83 1A 3F 00 [FD BRS]
0.0333328 1 D9x Rx d 13 39 13 00 15 3E 6E F0 00 A0 03 40 FF CF [FD BRS]
0.0377759 1 DBx Rx d 13 39 0F 00 15 03 69 EF 20 FF FF 7F CF FF [FD BRS]
0.0404721 1 44 Rx d 1 04
0.0411044 1 E3x Rx d 9 41 00 05 08 00 80 03 43 CC [FD BRS]
0.0464708 1 2Dx Rx d 14 7C 6B F8 04 C4 09 00 10 00 80 00 20 FA 60 [FD BRS]
0.0470071 1 D4x Rx d 8 39 04 06 04 0F DD 9E 84 [FD BRS]
0.0015244 1 DCx Rx d 14 39 10 01 10 15 3F 42 32 47 00 7E 06 11 9C [FD BRS]
0.0020436 1 E3x Rx d 12 39 06 0B 08 00 51 51 18 00 C0 CF FF [FD BRS]
0.0033028 1 DBx Rx d 14 39 0E 00 20 AA 1B C8 F8 E7 7E 83 1A 3F 00 [FD BRS]
0.0042751 1 D9x Rx d 13 39 13 00 15 E9 EA CA 00 A0 03 40 FF CF [FD BRS]
0.0084662 1 DBx Rx d 13 39 0F 00 15 4D 37 C9 20 FF FF 7F CF FF [FD BRS]
0.0116564 1 18E19490x Rx d 15 04 03 00 03 00 03 00 88 36 ED 0C 2B 00 22 01 [FD BRS]
0.0171216 1 2Dx Rx d 14 7B 02 D2 04 C4 09 00 10 00 80 00 20 FA 60 [FD BRS]
0.0215738 1 DCx Rx d 13 39 10 00 16 38 CE CC AE 2A 0A FA DC AC [FD BRS]
0.0232360 1 DBx Rx d 14 39 0E 00 20 3E 3F C9 F8 E7 7E 83 1A 3F 00 [FD BRS]
0.0240073 1 D9x Rx d 13 39 13 00 15 6A 01 CB FF 9F 03 80 FF CF [FD BRS]
0.0284774 1 DBx Rx d 13 39 0F 00 15 6B 06 CA 20 FF FF 7F CF FF [FD BRS]
0.0371427 1 2Dx Rx d 14 64 0B D3 04 C4 09 00 10 00 80 00 20 FA 60 [FD BRS]
0.0415029 1 DCx Rx d 13 39 10 00 16 1C 66 CD AE 2A 0A FA DC AC [FD BRS]
0.0418842 1 18E19490x Rx d 15 00 00 00 A5 00 00 00 50 01 00 00 00 00 00 00 [FD BRS]
0.0432354 1 DBx Rx d 14 39 0E 00 20 82 52 CA F8 E7 7E 83 1A 3F 00 [FD BRS]
0.0439997 1 D9x Rx d 14 39 13 00 15 14 29 CC FF 9F 03 C0 FF CF 0F [FD BRS]
0.0471290 1 E3x Rx d 9 41 00 00 08 00 57 31 4B 41 [FD BRS]
0.0484801 1 DBx Rx d 13 39 0F 00 15 89 16 CB 20 FF FF 7F CF FF [FD BRS]
0.0008445 1 E3x Rx d 9 41 00 05 08 01 10 E1 2F 53 [FD BRS]
0.0061968 1 2Dx Rx d 14 11 94 A9 04 C4 09 00 10 00 80 00 20 FA 60 [FD BRS]
0.0067302 1 D4x Rx d 15 39 04 0C 05 0E 0F F4 FF FF 39 15 01 14 45 09 [FD BRS]
0.0104644 1 DCx Rx d 14 39 10 01 10 15 3F 42 39 47 00 3E 06 10 9C [FD BRS]
0.0109836 1 E3x Rx d 12 39 06 0B 08 00 51 51 18 00 C0 CF FF [FD BRS]
0.0112887 1 18E19490x Rx d 15 02 88 00 64 64 64 01 00 00 00 DE 12 7A F7 00 [FD BRS]
0.0123739 1 DBx Rx d 14 39 0F 01 06 4E 85 04 60 28 02 39 0E 00 20 [FD BRS]
0.0130932 1 D9x Rx d 13 39 13 00 15 03 CA A2 00 A0 03 40 00 D0 [FD BRS]
0.0175283 1 DBx Rx d 13 39 0F 00 15 5B F4 A1 20 FF FF 7F CF FF [FD BRS]
0.0261686 1 2Dx Rx d 14 30 8F AA 04 C4 09 00 10 00 80 00 20 FA 60 [FD BRS]
0.0304508 1 DCx Rx d 13 39 10 00 16 81 15 A4 AE 2A 0A FA DC AC [FD BRS]
0.0322969 1 DBx Rx d 14 39 0E 00 20 92 6D A1 F8 E7 7E 83 1A 3F 00 [FD BRS]
0.0330192 1 D9x Rx d 13 39 13 00 15 E1 DA A3 00 A0 03 40 00 D0 [FD BRS]
0.0375383 1 DBx Rx d 13 39 0F 00 15 7D C5 A2 20 FF FF 7F CF FF [FD BRS]
0.0406325 1 18E19490x Rx d 15 03 00 00 9A 01 9A 01 00 00 00 00 00 00 00 00 [FD BRS]
0.0461747 1 2Dx Rx d 14 2F 86 AB 04 C4 09 00 10 00 80 00 20 FA 60 [FD BRS]
0.0029155 1 DBx Rx d 13 39 0F 00 15 BB D8 80 20 FF FF 7F CF FF [FD BRS]
0.0115608 1 2Dx Rx d 14 D0 A7 89 04 C4 09 00 10 00 80 00 20 FA 60 [FD BRS]
0.0158190 1 DCx Rx d 13 39 10 00 16 0A 3B 83 AE 2A 0A FA DC AC [FD BRS]
0.0162032 1 E3x Rx d 8 00 80 00 04 55 4C 52 00 [FD BRS]
0.0177033 1 DBx Rx d 14 39 0E 00 20 76 5A 80 F8 E7 7E 83 1A 3F 00 [FD BRS]
0.0186076 1 D9x Rx d 13 39 13 00 15 85 EB 82 01 A0 03 C0 00 D0 [FD BRS]
0.0229158 1 DBx Rx d 13 39 0F 00 15 59 C8 81 20 FF FF 7F CF FF [FD BRS]
0.0255940 1 44 Rx d 1 04
0.0259122 1 18E19490x Rx d 15 01 02 00 1C 00 04 01 80 0C 0C 01 BC 02 06 06 [FD BRS]
0.0266164 1 E3x Rx d 9 41 00 05 08 00 80 03 43 CC [FD BRS]
0.0315807 1 2Dx Rx d 14 F1 BC 8A 04 C4 09 00 10 00 80 00 20 FA 60 [FD BRS]
0.0321141 1 D4x Rx d 8 39 04 06 04 31 E1 88 84 [FD BRS]
0.0359453 1 DCx Rx d 13 39 10 00 16 95 53 84 AE 2A 0A FA DC AC [FD BRS]
0.0377484 1 DBx Rx d 15 39 0E 01 0F 80 00 FF FF FF FF FF FF FF 9F D2 [FD BRS]
0.0397188 1 D9x Rx d 13 39 13 00 15 43 53 83 00 A0 03 C0 00 D0 [FD BRS]
0.0429129 1 DBx Rx d 13 39 0F 00 15 7F F9 82 20 FF FF 7F CF FF [FD BRS]
0.0462251 1 E3x Rx d 9 41 00 05 08 01 6C 03 0C 1B [FD BRS]
0.0020954 1 DCx Rx d 14 39 10 01 10 15 3F 42 00 47 00 D6 42 11 9C [FD BRS]
0.0026136 1 E3x Rx d 14 39 06 0B 08 00 51 51 18 00 C0 CF FF 39 04 [FD BRS]
0.0031349 1 4Fx Rx d 8 20 3E 01 A0 00 49 9D 93 [FD BRS]
0.0040721 1 DBx Rx d 14 39 0E 00 20 43 34 5F F8 E7 7E 83 1A 3F 00 [FD BRS]
0.0045944 1 D9x Rx d 13 39 13 00 15 29 73 61 00 A0 03 40 00 D0 [FD BRS]
0.0092285 1 DBx Rx d 13 39 0F 00 15 B5 6C 60 20 FF FF 7F CF FF [FD BRS]
0.0121287 1 18E19490x Rx d 15 04 03 00 03 00 03 00 88 36 EE 0C 2B 00 22 01 [FD BRS]
0.0178509 1 2Dx Rx d 14 97 3C 69 04 C4 09 00 10 00 80 00 20 FA 60 [FD BRS]
0.0221631 1 DCx Rx d 13 39 10 00 16 47 F9 63 AE 2A 0A FA DC AC [FD BRS]
0.0239963 1 DBx Rx d 14 39 0E 00 20 28 44 60 F8 E7 7E 83 1A 3F 00 [FD BRS]
0.0246266 1 D9x Rx d 13 39 13 00 15 0F 42 62 00 A0 03 40 00 D0 [FD BRS]
0.0290647 1 21Cx Rx d 15 11 02 01 0A 85 F2 86 9C 87 50 88 4A 89 3A 8A [FD BRS]
0.0297430 1 DBx Rx d 13 39 0F 00 15 57 7C 61 20 FF FF 7F CF FF [FD BRS]
0.0378733 1 2Dx Rx d 14 B6 27 6A 04 C4 09 00 10 00 80 00 20 FA 60 [FD BRS]
0.0401217 1 D9x Rx d 14 39 FE 28 08 29 00 00 00 00 00 00 00 39 13 [FD BRS]
0.0420609 1 DCx Rx d 13 39 10 00 16 D8 91 64 AE 2A 0A FA DC AC [FD BRS]
0.0424443 1 18E19490x Rx d 15 00 00 00 A5 00 00 00 50 01 00 00 00 00 00 00 [FD BRS]
0.0440844 1 DBx Rx d 14 39 0E 00 20 BC 60 61 F8 E7 7E 83 1A 3F 00 [FD BRS]
0.0491346 1 DBx Rx d 13 39 0F 00 15 71 4D 62 20 FF FF 7F CF FF [FD BRS]
0.0052541 1 2Dx Rx d 14 EC 71 47 04 C4 09 00 10 00 80 00 20 FA 60 [FD BRS]
0.0093993 1 DCx Rx d 13 39 10 00 16 3A FF 41 AE 2A 0A FA DC AC [FD BRS]
0.0114054 1 DBx Rx d 14 39 0E 00 20 FA 76 3E F8 E7 7E 83 1A 3F 00 [FD BRS]
0.0121497 1 D9x Rx d 14 39 13 00 15 CB 0B 40 01 A0 03 C0 FF EF 0F [FD BRS]
0.0166349 1 DBx Rx d 13 39 0F 00 15 0E FF 3F 20 FF FF 7F CF FF [FD BRS]
0.0194921 1 18E19490x Rx d 15 02 88 00 64 64 64 01 00 00 00 B3 12 ED 2F 00 [FD BRS]
0.0252563 1 2Dx Rx d 14 49 06 48 04 C4 09 00 10 00 80 00 20 FA 60 [FD BRS]
0.0294655 1 DCx Rx d 13 39 10 00 16 77 17 42 AE 2A 0A FA DC AC [FD BRS]
0.0298997 1 E3x Rx d 8 00 80 00 04 4E A2 41 02 [FD BRS]
0.0314249 1 DBx Rx d 14 39 0E 00 20 6E 52 3F F8 E7 7E 83 1A 3F 00 [FD BRS]
0.0321662 1 D9x Rx d 13 39 13 00 15 81 BF 41 00 A0 03 00 00 F0 [FD BRS]
0.0366353 1 DBx Rx d 13 39 0F 00 15 B7 50 40 20 FF FF 7F CF FF [FD BRS]
0.0399165 1 E3x Rx d 9 41 00 05 08 00 80 03 43 CC [FD BRS]
0.0452929 1 2Dx Rx d 14 56 0F 49 04 C4 09 00 10 00 80 00 20 FA 60 [FD BRS]
0.0458282 1 D4x Rx d 8 39 04 06 04 A0 E5 7B 84 [FD BRS]
0.0494344 1 DCx Rx d 13 39 10 00 16 53 BF 43 AE 2A 0A FA DC AC [FD BRS]
0.0009691 1 DCx Rx d 14 39 10 01 10 15 3F 42 30 47 00 6E 06 10 9C [FD BRS]
0.0014873 1 E3x Rx d 12 39 06 0B 08 00 51 51 18 00 C0 CF FF [FD BRS]
0.0030194 1 DBx Rx d 14 39 0F 01 06 4E 85 04 60 E4 02 39 0E 00 20 [FD BRS]
0.0035337 1 D9x Rx d 13 39 13 00 15 07 8C 20 FF 9F 04 00 01 F0 [FD BRS]
0.0081718 1 DBx Rx d 13 39 0F 00 15 0C C3 1F 20 FF FF 7F CF FF [FD BRS]
0.0168010 1 2Dx Rx d 14 0A 52 28 04 C4 09 00 10 00 80 00 20 FA 60 [FD BRS]
0.0208663 1 DCx Rx d 13 39 10 00 16 4B DD 22 AE 2A 0A FA DC AC [FD BRS]
0.0212476 1 18E19490x Rx d 15 01 02 00 1C 00 04 01 80 0C 0C 01 BC 02 06 06 [FD BRS]
0.0229938 1 DBx Rx d 14 39 0E 00 20 6A 80 1F F8 E7 7E 83 1A 3F 00 [FD BRS]
0.0235191 1 D9x Rx d 13 39 13 00 15 33 B6 21 FF 9F 03 40 01 F0 [FD BRS]
0.0281822 1 DBx Rx d 13 39 0F 00 15 B1 14 20 20 FF FF 7F CF FF [FD BRS]
0.0367864 1 2Dx Rx d 14 15 5B 29 04 C4 09 00 10 00 80 00 20 FA 60 [FD BRS]
0.0408736 1 DCx Rx d 13 39 10 00 16 6F 75 23 AE 2A 0A FA DC AC [FD BRS]
0.0429418 1 DBx Rx d 14 39 0E 00 20 01 F0 20 F8 E7 7E 83 1A 3F 00 [FD BRS]
0.0434671 1 D9x Rx d 14 39 13 00 15 D1 25 22 00 A0 03 C0 00 F0 0F [FD BRS]
0.0481712 1 DBx Rx d 13 39 0F 00 15 53 04 21 20 FF FF 7F CF FF [FD BRS]
0.0073314 1 2Dx Rx d 14 EA 7A 0B 04 C4 09 00 10 00 80 00 20 FA 60 [FD BRS]
0.0113656 1 DCx Rx d 13 39 10 00 16 C0 F3 05 AE 2A 0A FA DC AC [FD BRS]
0.0134978 1 DBx Rx d 14 39 0E 00 20 2D 6B 02 F8 E7 7E 83 1A 3F 00 [FD BRS]
0.0141411 1 D9x Rx d 14 39 13 00 15 72 8C 04 FF 9F 03 C0 FF EF 0F [FD BRS]
0.0173393 1 E3x Rx d 9 41 00 00 08 00 57 31 4B 41 [FD BRS]
0.0187405 1 DBx Rx d 13 39 0F 00 15 95 19 03 20 FF FF 7F CF FF [FD BRS]
0.0214656 1 18E19490x Rx d 15 02 88 00 64 64 64 01 00 00 00 56 12 AE 3D 00 [FD BRS]
0.0273229 1 2Dx Rx d 14 B7 45 0C 04 C4 09 00 10 00 80 00 20 FA 60 [FD BRS]
0.0314310 1 DCx Rx d 13 39 10 00 16 8D 1B 06 AE 2A 0A FA DC AC [FD BRS]
0.0319942 1 E3x Rx d 11 00 80 00 04 CA 2A 35 02 41 00 00 [FD BRS]
0.0335784 1 DBx Rx d 14 39 0E 00 20 B9 4F 03 F8 E7 7E 83 1A 3F 00 [FD BRS]
0.0343557 1 D9x Rx d 13 39 13 00 15 29 2C 05 01 A0 03 00 00 F0 [FD BRS]
0.0387268 1 DBx Rx d 13 39 0F 00 15 3B 6B 04 20 FF FF 7F CF FF [FD BRS]
0.0419880 1 E3x Rx d 9 41 00 05 08 00 80 03 43 CC [FD BRS]
0.0473704 1 2Dx Rx d 14 A8 4C 0D 04 C4 09 00 10 00 80 00 20 FA 60 [FD BRS]
0.0479047 1 D4x Rx d 8 39 04 06 04 F6 34 6F 84 [FD BRS]
0.0065125 1 2Dx Rx d 14 93 F3 E9 04 C4 09 00 10 00 80 00 20 FA 60 [FD BRS]
0.0104317 1 DCx Rx d 13 39 10 00 16 36 F1 E3 AE 2A 0A FA DC AC [FD BRS]
0.0108131 1 18E19490x Rx d 15 04 03 00 03 00 03 00 88 36 ED 0C 2B 00 22 01 [FD BRS]
0.0115383 1 E3x Rx d 8 00 80 00 04 72 2F 2E 02 [FD BRS]
0.0127244 1 DBx Rx d 14 39 0E 00 20 5B 3C E0 F8 E7 7E 83 1A 3F 00 [FD BRS]
0.0132478 1 D9x Rx d 13 39 13 00 15 0D F7 E2 00 A0 03 80 00 F0 [FD BRS]
0.0178679 1 DBx Rx d 13 39 0F 00 15 5F 8C E1 20 FF FF 7F CF FF [FD BRS]
0.0205131 1 44 Rx d 1 04
0.0211434 1 E3x Rx d 9 41 00 05 08 00 80 03 43 CC [FD BRS]
0.0264818 1 2Dx Rx d 14 B2 E8 EA 04 C4 09 00 10 00 80 00 20 FA 60 [FD BRS]
0.0270152 1 D4x Rx d 8 39 04 06 04 DB 65 68 84 [FD BRS]
0.0304724 1 DCx Rx d 13 39 10 00 16 A9 99 E4 AE 2A 0A FA DC AC [FD BRS]
0.0326496 1 DBx Rx d 15 39 0E 01 0F 84 00 FF FF FF FF FF FF FF 9F D2 [FD BRS]
0.0340239 1 D9x Rx d 13 39 13 00 15 C3 5E E3 00 A0 03 C0 FF EF [FD BRS]
0.0378680 1 DBx Rx d 13 39 0F 00 15 79 BD E2 20 FF FF 7F CF FF [FD BRS]
0.0405002 1 18E19490x Rx d 15 00 00 00 A5 00 00 00 50 01 00 00 00 00 00 00 [FD BRS]
0.0412144 1 E3x Rx d 9 41 00 05 08 01 13 21 89 1D [FD BRS]
0.0464718 1 2Dx Rx d 14 AD E1 EB 04 C4 09 00 10 00 80 00 20 FA 60 [FD BRS]
0.0470071 1 D4x Rx d 15 39 04 0C 05 0E 0F F4 FF FF 39 15 01 14 45 09 [FD BRS]
0.0016079 1 DCx Rx d 13 39 10 00 16 67 67 BE AE 2A 0A FA DC AC [FD BRS]
0.0038260 1 DBx Rx d 14 39 0E 00 20 4D B8 BB F8 E7 7E 83 1A 3F 00 [FD BRS]
0.0043463 1 D9x Rx d 13 39 13 00 15 8B C9 BD FF 9F 03 C0 FF EF [FD BRS]
0.0090654 1 DBx Rx d 13 39 0F 00 15 20 3E BC 20 FF FF 7F CF FF [FD BRS]
0.0176966 1 2Dx Rx d 14 D6 AC C5 04 C4 09 00 10 00 80 00 20 FA 60 [FD BRS]
0.0215159 1 DCx Rx d 13 39 10 00 16 43 CF BF AE 2A 0A FA DC AC [FD BRS]
0.0219012 1 18E19490x Rx d 15 00 00 00 A5 00 00 00 50 01 00 00 00 00 00 00 [FD BRS]
0.0238263 1 DBx Rx d 14 39 0E 00 20 A1 47 BC F8 E7 7E 83 1A 3F 00 [FD BRS]
0.0243476 1 D9x Rx d 14 39 13 00 15 AD F8 BE FF 9F 03 C0 FF EF 0F [FD BRS]
0.0290548 1 DBx Rx d 13 39 0F 00 15 C2 2E BD 20 FF FF 7F CF FF [FD BRS]
0.0376250 1 2Dx Rx d 14 F7 B7 C6 04 C4 09 00 10 00 80 00 20 FA 60 [FD BRS]
0.0415212 1 DCx Rx d 13 39 10 00 16 6F 5F C0 AE 2A 0A FA DC AC [FD BRS]
0.0422864 1 E3x Rx d 8 00 80 00 04 05 DC 27 02 [FD BRS]
0.0438955 1 DBx Rx d 14 39 0E 00 20 35 63 BD F8 E7 7E 83 1A 3F 00 [FD BRS]
0.0444159 1 D9x Rx d 13 39 13 00 15 D2 F0 BF 00 A0 03 00 00 F0 [FD BRS]
0.0490550 1 DBx Rx d 13 39 0F 00 15 E4 1F BE 20 FF FF 7F CF FF [FD BRS]
0.0003834 1 E3x Rx d 9 41 00 00 08 00 57 31 4B 41 [FD BRS]
0.0018525 1 DBx Rx d 13 39 0F 00 15 04 33 9F 20 FF FF 7F CF FF [FD BRS]
0.0103997 1 2Dx Rx d 14 0E 9D A8 04 C4 09 00 10 00 80 00 20 FA 60 [FD BRS]
0.0142439 1 DCx Rx d 13 39 10 00 16 3A D5 A2 AE 2A 0A FA DC AC [FD BRS]
0.0150741 1 E3x Rx d 11 00 80 00 04 9C FB 21 02 41 00 00 [FD BRS]
0.0166393 1 DBx Rx d 14 39 0E 00 20 19 F8 9F F8 E7 7E 83 1A 3F 00 [FD BRS]
0.0171636 1 D9x Rx d 13 39 13 00 15 FF E4 A1 00 A0 03 C0 00 F0 [FD BRS]
0.0218387 1 DBx Rx d 13 39 0F 00 15 B9 E4 A0 20 FF FF 7F CF FF [FD BRS]
0.0243249 1 18E19490x Rx d 15 01 02 00 1C 00 04 01 80 0C 0C 01 BC 02 06 06 [FD BRS]
0.0250681 1 E3x Rx d 9 41 00 05 08 00 80 03 43 CC [FD BRS]
0.0304304 1 2Dx Rx d 14 11 94 A9 04 C4 09 00 10 00 80 00 20 FA 60 [FD BRS]
0.0309638 1 D4x Rx d 8 39 04 06 04 EE D2 5B 84 [FD BRS]
0.0343690 1 DCx Rx d 13 39 10 00 16 1E 7D A3 AE 2A 0A FA DC AC [FD BRS]
0.0351472 1 E3x Rx d 13 41 00 00 08 02 34 39 37 F1 99 60 8B 05 [FD BRS]
0.0366334 1 DBx Rx d 15 39 0E 01 0F 7C 00 FF FF FF FF FF FF FF 9F D2 [FD BRS]
0.0379247 1 D9x Rx d 13 39 13 00 15 79 60 A2 00 A0 03 40 00 F0 [FD BRS]
0.0418378 1 DBx Rx d 13 39 0F 00 15 5B F4 A1 20 FF FF 7F CF FF [FD BRS]
0.0450830 1 E3x Rx d 9 41 00 05 08 01 5B FA 47 22 [FD BRS]
0.0007715 1 DCx Rx d 14 39 10 01 10 15 3F 42 30 47 00 6E 06 10 9C [FD BRS]
0.0016117 1 E3x Rx d 12 39 06 0B 08 00 51 51 18 00 C0 CF FF [FD BRS]
0.0019210 1 4Fx Rx d 8 20 EE 08 A0 00 49 9D 8F [FD BRS]
0.0032972 1 DBx Rx d 14 39 0F 01 06 4E 85 04 60 00 00 39 0E 00 20 [FD BRS]
0.0039875 1 D9x Rx d 13 39 13 00 15 AE 69 80 FF 9F 03 40 00 F0 [FD BRS]
0.0084006 1 DBx Rx d 13 39 0F 00 15 0A 87 7F 20 FF FF 7F CF FF [FD BRS]
0.0108028 1 18E19490x Rx d 15 04 03 00 03 00 03 00 88 36 ED 0C 2B 00 22 01 [FD BRS]
0.0169500 1 2Dx Rx d 14 CF AE 88 04 C4 09 00 10 00 80 00 20 FA 60 [FD BRS]
0.0208042 1 DCx Rx d 13 39 10 00 16 2E 93 82 AE 2A 0A FA DC AC [FD BRS]
0.0231703 1 DBx Rx d 14 39 0E 00 20 47 E6 7F F8 E7 7E 83 1A 3F 00 [FD BRS]
0.0236946 1 D9x Rx d 13 39 13 00 15 4C 79 81 FF 9F 03 40 00 F0 [FD BRS]
0.0284117 1 DBx Rx d 13 39 0F 00 15 BB D8 80 20 FF FF 7F CF FF [FD BRS]
0.0316519 1 E3x Rx d 8 3A 02 00 04 F4 FF FF FF [FD BRS]
0.0369753 1 2Dx Rx d 14 D0 A7 89 04 C4 09 00 10 00 80 00 20 FA 60 [FD BRS]
0.0407355 1 DCx Rx d 13 39 10 00 16 0A 3B 83 AE 2A 0A FA DC AC [FD BRS]
0.0411198 1 18E19490x Rx d 15 00 00 00 A5 00 00 00 50 01 00 00 00 00 00 00 [FD BRS]
0.0432240 1 DBx Rx d 14 39 0E 00 20 76 5A 80 F8 E7 7E 83 1A 3F 00 [FD BRS]
0.0437452 1 D9x Rx d 14 39 13 00 15 BA 12 82 FF 9F 03 00 00 F0 0F [FD BRS]
0.0484014 1 DBx Rx d 13 39 0F 00 15 59 C8 81 20 FF FF 7F CF FF [FD BRS]
0.0002292 1 D9x Rx d 14 39 13 00 15 B5 86 64 00 A0 03 80 FF EF 0F [FD BRS]
0.0048833 1 DBx Rx d 13 39 0F 00 15 93 5D 63 20 FF FF 7F CF FF [FD BRS]
0.0134315 1 2Dx Rx d 14 F4 11 6C 04 C4 09 00 10 00 80 00 20 FA 60 [FD BRS]
0.0171637 1 DCx Rx d 13 39 10 00 16 B1 D1 66 AE 2A 0A FA DC AC [FD BRS]
0.0180939 1 E3x Rx d 8 00 80 00 04 84 1D 15 02 [FD BRS]
0.0196751 1 DBx Rx d 14 39 0E 00 20 94 29 63 F8 E7 7E 83 1A 3F 00 [FD BRS]
0.0201984 1 D9x Rx d 13 39 13 00 15 36 6D 65 FF 9F 03 40 FF EF [FD BRS]
0.0248845 1 DBx Rx d 13 39 0F 00 15 3D 2F 64 20 FF FF 7F CF FF [FD BRS]
0.0272367 1 18E19490x Rx d 15 01 02 00 1C 00 04 01 80 0C 0C 01 BC 02 06 06 [FD BRS]
0.0281049 1 E3x Rx d 9 41 00 05 08 00 80 03 43 CC [FD BRS]
0.0335383 1 2Dx Rx d 14 EB 18 6D 04 C4 09 00 10 00 80 00 20 FA 60 [FD BRS]
0.0340736 1 D4x Rx d 8 39 04 06 04 B8 03 4F 84 [FD BRS]
0.0372618 1 DCx Rx d 13 39 10 00 16 95 79 67 AE 2A 0A FA DC AC [FD BRS]
0.0381070 1 E3x Rx d 10 05 00 00 0C F5 FC FF 00 00 00 [FD BRS]
0.0396652 1 DBx Rx d 15 39 0E 01 0F 7C 00 FF FF FF FF FF FF FF 9F D2 [FD BRS]
0.0412705 1 D9x Rx d 13 39 13 00 15 3C E5 66 FF 9F 03 00 00 F0 [FD BRS]
0.0448837 1 DBx Rx d 13 39 0F 00 15 DF 3F 65 20 FF FF 7F CF FF [FD BRS]
0.0471838 1 DCx Rx d 9 39 FE 6F 08 94 01 00 80 00 [FD BRS]
0.0481050 1 E3x Rx d 9 41 00 05 08 01 8C A2 21 74 [FD BRS]
0.0022326 1 18E19490x Rx d 15 04 03 00 03 00 03 00 88 36 ED 0C 2B 00 22 01 [FD BRS]
0.0084599 1 2Dx Rx d 14 35 22 4C 04 C4 09 00 10 00 80 00 20 FA 60 [FD BRS]
0.0121500 1 DCx Rx d 13 39 10 00 16 A5 97 46 AE 2A 0A FA DC AC [FD BRS]
0.0146872 1 DBx Rx d 14 39 0E 00 20 90 FB 43 F8 E7 7E 83 1A 3F 00 [FD BRS]
0.0152084 1 D9x Rx d 13 39 13 00 15 09 FC 45 00 A0 03 00 00 F0 [FD BRS]
0.0199275 1 DBx Rx d 13 39 0F 00 15 3F 13 44 20 FF FF 7F CF FF [FD BRS]
0.0284838 1 2Dx Rx d 14 2A 2B 4D 04 C4 09 00 10 00 80 00 20 FA 60 [FD BRS]
0.0320900 1 DCx Rx d 13 39 10 00 16 81 3F 47 AE 2A 0A FA DC AC [FD BRS]
0.0324743 1 18E19490x Rx d 15 00 00 00 A5 00 00 00 50 01 00 00 00 00 00 00 [FD BRS]
0.0346894 1 DBx Rx d 14 39 0E 00 20 7C 04 44 F8 E7 7E 83 1A 3F 00 [FD BRS]
0.0352147 1 D9x Rx d 14 39 13 00 15 3E D9 46 FF 9F 03 00 00 F0 0F [FD BRS]
0.0399189 1 DBx Rx d 13 39 0F 00 15 DD 03 45 20 FF FF 7F CF FF [FD BRS]
0.0484531 1 2Dx Rx d 14 0B 30 4E 04 C4 09 00 10 00 80 00 20 FA 60 [FD BRS]
0.0042396 1 2Dx Rx d 14 02 8B 30 04 C4 09 00 10 00 80 00 20 FA 60 [FD BRS]
0.0078118 1 DCx Rx d 13 39 10 00 16 CE CC 2A AE 2A 0A FA DC AC [FD BRS]
0.0089360 1 E3x Rx d 8 00 80 00 04 11 49 09 02 [FD BRS]
0.0104931 1 DBx Rx d 14 39 0E 00 20 ED 0F 27 F8 E7 7E 83 1A 3F 00 [FD BRS]
0.0110174 1 D9x Rx d 13 39 13 00 15 86 68 29 FF 9F 03 00 00 F0 [FD BRS]
0.0157046 1 DBx Rx d 13 39 0F 00 15 A1 93 28 20 FF FF 7F CF FF [FD BRS]
0.0179687 1 18E19490x Rx d 15 01 02 00 1C 00 04 01 80 0C 0C 01 BC 02 06 06 [FD BRS]
0.0189069 1 E3x Rx d 9 41 00 05 08 00 80 03 43 CC [FD BRS]
0.0242693 1 2Dx Rx d 14 1D 82 31 04 C4 09 00 10 00 80 00 20 FA 60 [FD BRS]
0.0248057 1 D4x Rx d 8 39 04 06 04 8A 4C 43 84 [FD BRS]
0.0279108 1 DCx Rx d 13 39 10 00 16 EA 64 2B AE 2A 0A FA DC AC [FD BRS]
0.0289970 1 E3x Rx d 10 05 00 00 0C F5 FC FF 00 00 00 [FD BRS]
0.0304852 1 DBx Rx d 15 39 0E 01 0F 78 00 FF FF FF FF FF FF FF 9F D2 [FD BRS]
0.0316165 1 D9x Rx d 13 39 13 00 15 61 17 2A 00 A0 03 40 00 F0 [FD BRS]
0.0357026 1 DBx Rx d 13 39 0F 00 15 43 83 29 20 FF FF 7F CF FF [FD BRS]
0.0389098 1 E3x Rx d 9 41 00 05 08 01 E0 B3 99 C7 [FD BRS]
0.0442622 1 2Dx Rx d 14 3C 99 32 04 C4 09 00 10 00 80 00 20 FA 60 [FD BRS]
0.0447975 1 D4x Rx d 13 39 04 0C 05 0E 0F F4 FF FF 39 0C 14 0C [FD BRS]
0.0478328 1 DCx Rx d 14 39 10 01 10 15 3F 42 00 47 00 E6 42 10 9C [FD BRS]
0.0483531 1 18E19490x Rx d 15 02 88 00 64 64 64 01 00 00 00 55 12 F9 16 00 [FD BRS]
0.0490583 1 E3x Rx d 14 39 06 0B 08 00 51 51 18 00 C0 CF FF 39 04 [FD BRS]
0.0018924 1 DBx Rx d 13 39 0F 00 15 77 09 02 20 FF FF 7F CF FF [FD BRS]
0.0104316 1 2Dx Rx d 14 EA 7A 0B 04 C4 09 00 10 00 80 00 20 FA 60 [FD BRS]
0.0139288 1 DCx Rx d 13 39 10 00 16 C0 F3 05 AE 2A 0A FA DC AC [FD BRS]
0.0143131 1 18E19490x Rx d 15 01 02 00 1C 00 04 01 80 0C 0C 01 BC 02 06 06 [FD BRS]
0.0166633 1 DBx Rx d 14 39 0E 00 20 2D 6B 02 F8 E7 7E 83 1A 3F 00 [FD BRS]
0.0171846 1 D9x Rx d 13 39 13 00 15 EF 94 04 00 A0 03 00 00 F0 [FD BRS]
0.0217327 1 21Cx Rx d 15 11 02 01 06 73 80 76 3C 7A 24 7E 0C 81 F4 85 [FD BRS]
0.0224270 1 DBx Rx d 13 39 0F 00 15 95 19 03 20 FF FF 7F CF FF [FD BRS]
0.0228132 1 21Dx Rx d 3 30 40 28 [FD BRS]
0.0229684 1 21Cx Rx d 15 21 00 00 00 00 00 00 00 00 00 00 00 00 00 00 [FD BRS]
0.0304166 1 2Dx Rx d 14 B7 45 0C 04 C4 09 00 10 00 80 00 20 FA 60 [FD BRS]
0.0320179 1 D9x Rx d 14 39 FE 28 08 29 00 00 00 00 00 00 00 39 13 [FD BRS]
0.0339352 1 DCx Rx d 13 39 10 00 16 8D 1B 06 AE 2A 0A FA DC AC [FD BRS]
0.0367533 1 DBx Rx d 14 39 0E 00 20 B9 4F 03 F8 E7 7E 83 1A 3F 00 [FD BRS]
0.0418005 1 DBx Rx d 13 39 0F 00 15 3B 6B 04 20 FF FF 7F CF FF [FD BRS]
0.0421879 1 D9x Rx d 10 39 13 01 0B 56 00 18 55 85 00 [FD BRS]
0.0440961 1 18E19490x Rx d 15 02 88 00 64 64 64 01 00 00 00 01 13 E5 23 00 [FD BRS]
0.0453423 1 4Fx Rx d 8 28 25 03 00 26 7D 55 49 [FD BRS]
0.0468034 1 21Cx Rx d 15 22 00 00 00 00 00 00 00 00 00 00 00 00 00 00 [FD BRS]
0.0003024 1 2Dx Rx d 14 B2 E8 EA 04 C4 09 00 10 00 80 00 20 FA 60 [FD BRS]
0.0037346 1 DCx Rx d 13 39 10 00 16 A9 99 E4 AE 2A 0A FA DC AC [FD BRS]
0.0041159 1 18E19490x Rx d 15 04 03 00 03 00 03 00 88 36 EE 0C 2B 00 22 01 [FD BRS]
0.0049961 1 E3x Rx d 8 00 80 00 04 34 3B FB 02 [FD BRS]
0.0065295 1 D9x Rx d 13 39 13 00 15 6B FA E3 01 A0 03 00 00 F0 [FD BRS]
0.0069147 1 DBx Rx d 14 39 0E 00 20 CF 18 E1 F8 E7 7E 83 1A 3F 00 [FD BRS]
0.0117780 1 DBx Rx d 13 39 0F 00 15 79 BD E2 20 FF FF 7F CF FF [FD BRS]
0.0149522 1 E3x Rx d 9 41 00 05 08 00 80 03 43 CC [FD BRS]
0.0203195 1 2Dx Rx d 14 AD E1 EB 04 C4 09 00 10 00 80 00 20 FA 60 [FD BRS]
0.0208519 1 D4x Rx d 8 39 04 06 04 66 29 35 84 [FD BRS]
0.0237771 1 DCx Rx d 13 39 10 00 16 8D 31 E5 AE 2A 0A FA DC AC [FD BRS]
0.0250483 1 E3x Rx d 10 05 00 00 0C F5 FC FF 00 00 00 [FD BRS]
0.0265584 1 DBx Rx d 15 39 0E 01 0F 78 00 FF FF FF FF FF FF FF 9F D2 [FD BRS]
0.0276187 1 D9x Rx d 13 39 13 00 15 C5 88 E4 01 A0 03 00 00 F0 [FD BRS]
0.0317778 1 DBx Rx d 13 39 0F 00 15 9B AD E3 20 FF FF 7F CF FF [FD BRS]
0.0339020 1 18E19490x Rx d 15 00 00 00 A5 00 00 00 50 01 00 00 00 00 00 00 [FD BRS]
0.0349552 1 E3x Rx d 9 41 00 05 08 01 F3 7E 4F 93 [FD BRS]
0.0402956 1 2Dx Rx d 14 F0 DE EC 04 C4 09 00 10 00 80 00 20 FA 60 [FD BRS]
0.0408309 1 D4x Rx d 13 39 04 0C 05 0E 0F F4 FF FF 39 0C 14 0C [FD BRS]
0.0412223 1 DC085B Rx d 8 40 01 00 04 00 00 00 00
0.0438285 1 DCx Rx d 14 39 10 01 10 15 3F 42 30 47 00 76 06 10 9C [FD BRS]
0.0450027 1 E3x Rx d 14 39 06 0B 08 00 51 51 18 00 C0 CF FF 39 04 [FD BRS]
0.0466159 1 DBx Rx d 14 39 0E 00 20 E7 51 E3 F8 E7 7E 83 1A 3F 00 [FD BRS]
0.0471372 1 D9x Rx d 13 39 13 00 15 03 30 E5 00 A0 03 00 00 F0 [FD BRS]
0.0022507 1 2Dx Rx d 14 31 ED CC 04 C4 09 00 10 00 80 00 20 FA 60 [FD BRS]
0.0055799 1 DCx Rx d 13 39 10 00 16 D4 9F C6 AE 2A 0A FA DC AC [FD BRS]
0.0059622 1 18E19490x Rx d 15 04 03 00 03 00 03 00 88 36 EE 0C 2B 00 22 01 [FD BRS]
0.0068964 1 E3x Rx d 8 00 80 00 04 6E 99 F5 02 [FD BRS]
0.0083898 1 D9x Rx d 13 39 13 00 15 C0 42 C5 FF 9F 03 40 00 F0 [FD BRS]
0.0087740 1 DBx Rx d 14 39 0E 00 20 E3 83 C3 F8 E7 7E 83 1A 3F 00 [FD BRS]
0.0136863 1 DBx Rx d 13 39 0F 00 15 37 E3 C4 20 FF FF 7F CF FF [FD BRS]
0.0168535 1 E3x Rx d 9 41 00 05 08 00 80 03 43 CC [FD BRS]
0.0222149 1 2Dx Rx d 14 2E E4 CD 04 C4 09 00 10 00 80 00 20 FA 60 [FD BRS]
0.0227482 1 D4x Rx d 8 39 04 06 04 6A 5A 2F 84 [FD BRS]
0.0256214 1 DCx Rx d 13 39 10 00 16 C5 9A C7 AE 2A 0A FA DC A8 [FD BRS]
0.0269016 1 E3x Rx d 10 05 00 00 0C F5 FC FF 00 00 00 [FD BRS]
0.0284818 1 DBx Rx d 15 39 0E 01 0F 7C 00 FF FF FF FF FF FF FF 9F D2 [FD BRS]
0.0294551 1 D9x Rx d 13 39 13 00 15 87 88 C6 00 A0 03 80 00 F0 [FD BRS]
0.0336852 1 DBx Rx d 13 39 0F 00 15 D5 F3 C5 20 FF FF 7F CF FF [FD BRS]
0.0357464 1 18E19490x Rx d 15 00 00 00 A5 00 00 00 50 01 00 00 00 00 00 00 [FD BRS]
0.0368696 1 E3x Rx d 9 41 00 05 08 01 32 93 0B E4 [FD BRS]
0.0421970 1 2Dx Rx d 14 0F FF CE 04 C4 09 00 10 00 80 00 20 FA 60 [FD BRS]
0.0427343 1 D4x Rx d 13 39 04 0C 05 0E 0F F4 FF FF 39 0C 14 0C [FD BRS]
0.0456715 1 DCx Rx d 14 39 10 01 10 15 3F 42 38 47 00 46 06 10 9C [FD BRS]
0.0468257 1 E3x Rx d 14 39 06 0B 08 00 51 51 18 00 C0 CF FF 39 04 [FD BRS]
0.0485239 1 DBx Rx d 14 39 0E 00 20 9B 58 C5 F8 E7 7E 83 1A 3F 00 [FD BRS]
0.0490441 1 D9x Rx d 13 39 13 00 15 15 77 C7 00 A0 03 40 00 F0 [FD BRS]
