date 2025-01-01 00:00:00.000
base hex  timestamps absolute
no internal events logged

0.0033092 1 E3x Rx d 9 02 80 00 08 84 64 C5 01 83 [FD BRS]
0.0054454 1 DCx Rx d 14 39 10 01 10 15 3F 42 00 47 00 B6 52 11 9C [FD BRS]
0.0076436 1 DBx Rx d 15 39 0E 01 0F 0C 35 FF FF FF FF FF FF FF BF D2 [FD BRS]
0.0087358 1 E3x Rx d 13 41 00 05 08 01 2B A9 49 D3 A6 75 CD 05 [FD BRS]
0.0125869 1 DBx Rx d 13 39 0F 00 15 89 16 CB 20 FF FF 7F CF FF [FD BRS]
0.0141633 1 D9x Rx d 13 39 13 00 15 FC 16 CD 20 A0 3E 8D 51 2F [FD BRS]
0.0186585 1 2Dx Rx d 14 2C EF D4 05 C4 09 00 90 70 97 58 62 6F 52 [FD BRS]
0.0191839 1 D4x Rx d 13 39 04 0C 05 0E 0F F4 FF FF 39 0C 14 0C [FD BRS]
0.0232393 1 E3x Rx d 14 39 06 0B 08 00 51 51 14 00 C0 CF FF 39 04 [FD BRS]
0.0253694 1 DCx Rx d 13 39 10 00 16 C9 76 CF AE 2A 0A FA DC E4 [FD BRS]
0.0257498 1 18E19490x Rx d 15 01 02 00 39 0D 01 01 80 0C 0C 01 BC 02 06 06 [FD BRS]
0.0275579 1 DBx Rx d 14 39 0E 00 20 28 73 CB F4 B7 7E 83 1A 3F D8 [FD BRS]
0.0325742 1 DBx Rx d 13 39 0F 00 15 27 64 CC 20 FF FF 7F CF FF [FD BRS]
0.0332874 1 E3x Rx d 10 39 80 00 0C 00 FF C0 8F 53 11 [FD BRS]
0.0339938 1 D9x Rx d 13 39 13 00 15 0A 7D CE 20 A0 3E CD 51 2F [FD BRS]
0.0386400 1 2Dx Rx d 14 33 E6 D5 05 C4 09 00 90 70 97 58 62 6F 52 [FD BRS]
0.0454112 1 DCx Rx d 13 39 10 00 16 D9 2C D0 AE 2A 0A FA DC E4 [FD BRS]
0.0475524 1 DBx Rx d 14 39 0E 00 20 32 59 CC F4 B7 7E 83 1A 3F D9 [FD BRS]
0.0009302 1 D4x Rx d 13 39 0C 14 0C FF FF FF FF FD FF FF FF FF [FD BRS]
0.0013226 1 E3x Rx d 12 39 06 0B 08 00 51 51 14 00 C0 CF FF [FD BRS]
0.0030008 1 DCx Rx d 13 39 10 00 16 B8 54 AC AE 2A 0A FA DC E4 [FD BRS]
0.0052529 1 DBx Rx d 14 39 0F 01 06 4D 85 04 60 20 19 39 0E 00 20 [FD BRS]
0.0102611 1 DBx Rx d 13 39 0F 00 15 4B 73 A9 20 FF FF 7F CF FF [FD BRS]
0.0115775 1 D9x Rx d 13 39 13 00 15 59 DA AB 20 A0 3E 4D 52 2F [FD BRS]
0.0129577 1 18E19490x Rx d 15 03 00 00 99 01 99 01 00 00 00 00 00 00 00 00 [FD BRS]
0.0163219 1 2Dx Rx d 14 2D 8D B2 05 C4 09 00 90 70 97 58 62 6F 52 [FD BRS]
0.0209382 1 E3x Rx d 9 41 00 01 08 01 00 00 02 C4 [FD BRS]
0.0231354 1 DCx Rx d 13 39 10 00 16 9C FC AD AE 2A 0A FA DC E4 [FD BRS]
0.0252546 1 DBx Rx d 14 39 0E 00 20 DB 89 A9 F4 B7 7E 83 1A 3F D9 [FD BRS]
0.0302728 1 DBx Rx d 13 39 0F 00 15 6D 42 AA 20 FF FF 7F CF FF [FD BRS]
0.0315212 1 D9x Rx d 14 39 13 00 15 F7 A8 AC 20 A0 3E 4D 52 2F 12 [FD BRS]
0.0363214 1 2Dx Rx d 14 32 84 B3 05 C4 09 00 90 70 97 58 62 6F 52 [FD BRS]
0.0409288 1 E3x Rx d 9 41 00 01 08 02 2F 00 00 02 [FD BRS]
0.0429929 1 DCx Rx d 13 39 10 00 16 D1 14 AE AE 2A 0A FA DC E4 [FD BRS]
0.0433743 1 18E19490x Rx d 15 04 03 00 03 00 03 00 88 36 EE 0C 3F 0D 22 01 [FD BRS]
0.0452054 1 DBx Rx d 14 39 0E 00 20 E5 F0 AA F4 B7 7E 83 1A 3F D8 [FD BRS]
0.0040226 1 DBx Rx d 13 39 0F 00 15 AB 5F 88 20 FF FF 7F CF FF [FD BRS]
0.0052249 1 D9x Rx d 13 39 13 00 15 6C 40 8A 20 A0 3E CD 53 2F [FD BRS]
0.0066251 1 18E19490x Rx d 15 01 02 00 39 0D 01 01 80 0C 07 01 BC 02 06 06 [FD BRS]
0.0100553 1 2Dx Rx d 14 BB BE 91 05 C4 09 00 90 70 97 58 22 6F 52 [FD BRS]
0.0167426 1 DCx Rx d 13 39 10 00 16 AC 12 8C AE 2A 0A FA DC E4 [FD BRS]
0.0189497 1 DBx Rx d 14 39 0E 00 20 4B 7F 88 F4 B7 7E 83 1A 3F D9 [FD BRS]
0.0201409 1 E3x Rx d 11 00 80 00 04 52 45 B5 04 41 00 05 [FD BRS]
0.0240510 1 DBx Rx d 13 39 0F 00 15 49 4F 89 20 FF FF 7F CF FF [FD BRS]
0.0244392 1 44 Rx d 1 04
0.0262177 1 D9x Rx d 13 39 13 00 15 2B 09 8B 20 A0 3E 8D 52 2F [FD BRS]
0.0300849 1 2Dx Rx d 14 9A A5 92 05 C4 09 00 90 70 97 58 22 6F 52 [FD BRS]
0.0306112 1 D4x Rx d 8 39 04 06 04 9F AB EF 89 [FD BRS]
0.0366835 1 DCx Rx d 14 39 10 01 10 15 3F 42 32 47 00 4E 16 10 9C [FD BRS]
0.0371978 1 18E19490x Rx d 15 02 88 00 64 64 64 01 00 00 00 9F 12 4A E6 00 [FD BRS]
0.0390210 1 DBx Rx d 15 39 0E 01 0F 20 35 FF FF FF FF FF FF FF BF D2 [FD BRS]
0.0440232 1 DBx Rx d 13 39 0F 00 15 6F 7E 8A 20 FF FF 7F CF FF [FD BRS]
0.0447404 1 E3x Rx d 9 41 00 05 08 01 51 B8 06 F9 [FD BRS]
0.0453557 1 D9x Rx d 13 39 13 00 15 CA 24 8C 20 A0 3E CD 51 2F [FD BRS]
0.0039715 1 DCx Rx d 13 39 10 00 16 29 29 67 AE 2A 0A FA DC E4 [FD BRS]
0.0063127 1 DBx Rx d 14 39 0E 00 20 5C F9 63 F4 B7 7E 83 1A 3F D9 [FD BRS]
0.0113450 1 DBx Rx d 13 39 0F 00 15 3D 2F 64 20 FF FF 7F CF FF [FD BRS]
0.0124953 1 D9x Rx d 14 39 13 00 15 FF DC 66 20 A0 3E 0D 52 2F 12 [FD BRS]
0.0138775 1 18E19490x Rx d 15 02 88 00 64 64 64 01 00 00 00 AF 12 8E C8 00 [FD BRS]
0.0173587 1 2Dx Rx d 14 88 D8 6D 05 C4 09 00 90 70 97 58 22 6F 52 [FD BRS]
0.0239819 1 DCx Rx d 13 39 10 00 16 33 50 68 AE 2A 0A FA DC E4 [FD BRS]
0.0262611 1 DBx Rx d 14 39 0E 00 20 46 D3 64 F4 B7 7E 83 1A 3F D8 [FD BRS]
0.0313334 1 DBx Rx d 13 39 0F 00 15 DF 3F 65 20 FF FF 7F CF FF [FD BRS]
0.0319966 1 E3x Rx d 8 3A 02 00 04 F4 FF FF FF [FD BRS]
0.0322639 1 4Fx Rx d 8 28 4C 0C 00 09 2C CB BC [FD BRS]
0.0326612 1 D9x Rx d 13 39 13 00 15 52 93 67 20 A0 3E 4D 51 2F [FD BRS]
0.0373495 1 2Dx Rx d 14 A9 C3 6E 05 C4 09 00 90 70 97 58 22 6F 52 [FD BRS]
0.0439097 1 DCx Rx d 13 39 10 00 16 17 F8 69 AE 2A 0A FA DC E4 [FD BRS]
0.0442910 1 18E19490x Rx d 15 03 00 00 98 01 98 01 00 00 00 00 00 00 00 00 [FD BRS]
0.0462602 1 DBx Rx d 14 39 0E 00 20 D2 F7 65 F4 B7 7E 83 1A 3F D8 [FD BRS]
0.0474324 1 E3x Rx d 11 00 80 00 04 EA 40 AE 04 41 00 05 [FD BRS]
0.0010487 1 DBx Rx d 14 39 0E 00 20 27 B6 37 F4 B7 7E 83 1A 3F D9 [FD BRS]
0.0061210 1 DBx Rx d 13 39 0F 00 15 A0 8D 38 20 FF FF 7F CF FF [FD BRS]
0.0071933 1 D9x Rx d 13 39 13 00 15 8D 94 3A 20 A0 3E CD 51 2F [FD BRS]
0.0121345 1 2Dx Rx d 14 CD 87 41 05 C4 09 00 90 70 97 58 22 6F 52 [FD BRS]
0.0167759 1 E3x Rx d 8 00 80 00 04 F5 5E A5 04 [FD BRS]
0.0186181 1 DCx Rx d 13 39 10 00 16 C3 7F 3C AE 2A 0A FA DC E4 [FD BRS]
0.0190024 1 18E19490x Rx d 15 03 00 00 9B 01 9B 01 00 00 00 00 00 00 00 00 [FD BRS]
0.0210666 1 DBx Rx d 14 39 0E 00 20 4A 7D 38 F4 B7 7E 83 1A 3F D9 [FD BRS]
0.0261208 1 DBx Rx d 13 39 0F 00 15 42 9D 39 20 FF FF 7F CF FF [FD BRS]
0.0265070 1 44 Rx d 1 04
0.0268394 1 E3x Rx d 9 41 00 05 08 00 80 03 43 CC [FD BRS]
0.0282828 1 D9x Rx d 13 39 13 00 15 80 6E 3B 20 A0 3E 0D 52 2F [FD BRS]
0.0321750 1 2Dx Rx d 14 EC 9C 42 05 C4 09 00 90 70 97 58 22 6F 52 [FD BRS]
0.0326993 1 D4x Rx d 8 39 04 06 04 76 87 DF 89 [FD BRS]
0.0386186 1 DCx Rx d 14 39 10 01 10 15 3F 42 00 47 00 CE 02 11 9C [FD BRS]
0.0411687 1 DBx Rx d 15 39 0E 01 0F 20 35 FF FF FF FF FF FF FF BF D2 [FD BRS]
0.0461210 1 DBx Rx d 13 39 0F 00 15 64 AC 3A 20 FF FF 7F CF FF [FD BRS]
0.0468102 1 E3x Rx d 9 41 00 05 08 01 4F 72 0B BC [FD BRS]
0.0475545 1 D9x Rx d 13 39 13 00 15 11 AC 3C 20 A0 3E 8D 51 2F [FD BRS]
0.0485617 1 18E19490x Rx d 15 04 03 00 03 00 03 00 88 36 EE 0C 3F 0D 22 01 [FD BRS]
0.0010561 1 DCx Rx d 13 39 10 00 16 1F C0 17 AE 2A 0A FA DC E4 [FD BRS]
0.0034393 1 DBx Rx d 14 39 0E 00 20 85 23 13 F4 B7 7E 83 1A 3F D8 [FD BRS]
0.0085216 1 DBx Rx d 13 39 0F 00 15 3A 75 14 20 FF FF 7F CF FF [FD BRS]
0.0097009 1 D9x Rx d 14 39 13 00 15 F8 86 16 20 A0 3E 0D 52 2F 12 [FD BRS]
0.0145382 1 2Dx Rx d 14 3B 1D 1D 05 C4 09 00 90 70 97 58 22 6F 52 [FD BRS]
0.0191396 1 E3x Rx d 9 41 00 01 08 02 2F 00 00 02 [FD BRS]
0.0209088 1 DCx Rx d 13 39 10 00 16 30 14 18 AE 2A 0A FA DC E0 [FD BRS]
0.0212931 1 18E19490x Rx d 15 04 03 00 03 00 02 00 7E 36 ED 0C 3F 0D 22 01 [FD BRS]
0.0234542 1 DBx Rx d 14 39 0E 00 20 69 DC 14 F4 B7 7E 83 1A 3F D8 [FD BRS]
0.0285115 1 DBx Rx d 13 39 0F 00 15 D8 65 15 20 FF FF 7F CF FF [FD BRS]
0.0295518 1 D9x Rx d 13 39 13 00 15 78 4E 17 20 A0 3E 0D 51 2F [FD BRS]
0.0345441 1 2Dx Rx d 14 1A 06 1E 05 C4 09 00 90 70 97 58 22 6F 52 [FD BRS]
0.0391394 1 E3x Rx d 9 41 00 01 08 03 B1 46 D6 7A [FD BRS]
0.0409176 1 DCx Rx d 13 39 10 00 16 21 11 19 AE 2A 0A FA DC E4 [FD BRS]
0.0434537 1 DBx Rx d 14 39 0E 00 20 0B 2D 15 F4 B7 7E 83 1A 3F D9 [FD BRS]
0.0445939 1 E3x Rx d 11 00 80 00 04 03 6C 9E 04 41 00 05 [FD BRS]
0.0485390 1 DBx Rx d 13 39 0F 00 15 FE 54 16 20 FF FF 7F CF FF [FD BRS]
0.0015779 1 DBx Rx d 13 39 0F 00 15 25 58 EC 20 FF FF 7F CF FF [FD BRS]
0.0025542 1 D9x Rx d 14 39 13 00 15 50 C5 EE 20 A0 3E 8D 50 2F 12 [FD BRS]
0.0038664 1 18E19490x Rx d 15 02 88 00 64 64 64 01 00 00 00 A0 12 E0 CB 00 [FD BRS]
0.0075626 1 2Dx Rx d 14 84 CE F5 05 C4 09 00 90 70 97 58 22 6F 52 [FD BRS]
0.0139119 1 DCx Rx d 13 39 10 00 16 CD 6A F0 AE 2A 0A FA DC E4 [FD BRS]
0.0165450 1 DBx Rx d 14 39 0E 00 20 42 4A EC F4 B7 7E 83 1A 3F D9 [FD BRS]
0.0215673 1 DBx Rx d 13 39 0F 00 15 C7 48 ED 20 FF FF 7F CF FF [FD BRS]
0.0222255 1 E3x Rx d 9 41 00 00 08 00 57 31 4B 41 [FD BRS]
0.0226148 1 D9x Rx d 13 39 13 00 15 B2 D5 EF 20 A0 3E 8D 50 2F [FD BRS]
0.0275560 1 2Dx Rx d 14 A5 D5 F6 05 C4 09 00 90 70 97 58 22 6F 52 [FD BRS]
0.0338382 1 DCx Rx d 13 39 10 00 16 E9 C2 F1 AE 2A 0A FA DC E4 [FD BRS]
0.0342196 1 18E19490x Rx d 15 03 00 00 90 01 90 01 00 00 00 00 00 00 00 00 [FD BRS]
0.0364957 1 DBx Rx d 14 39 0E 00 20 20 BB ED F4 B7 7E 83 1A 3F D8 [FD BRS]
0.0376519 1 E3x Rx d 13 00 80 00 04 C0 E9 96 04 41 00 05 08 00 [FD BRS]
0.0416060 1 DBx Rx d 13 39 0F 00 15 E1 79 EE 20 FF FF 7F CF FF [FD BRS]
0.0435164 1 D9x Rx d 13 39 13 00 15 D8 88 F0 20 A0 3E 0D 51 2F [FD BRS]
0.0476136 1 2Dx Rx d 14 BA DC F7 05 C4 09 00 90 70 97 58 22 6F 52 [FD BRS]
0.0481379 1 D4x Rx d 8 39 04 06 04 98 53 D0 89 [FD BRS]
0.0010423 1 2Dx Rx d 14 39 D9 D1 05 C4 09 00 90 70 97 58 22 6F 52 [FD BRS]
0.0073776 1 DCx Rx d 13 39 10 00 16 84 9E CC AE 2A 0A FA DC E4 [FD BRS]
0.0099997 1 DBx Rx d 14 39 0E 00 20 E0 DF C8 F4 B7 7E 83 1A 3F D8 [FD BRS]
0.0150690 1 DBx Rx d 13 39 0F 00 15 4D 37 C9 20 FF FF 7F CF FF [FD BRS]
0.0159954 1 D9x Rx d 14 39 13 00 15 E8 F0 CB 20 A0 3E CD 50 2F 12 [FD BRS]
0.0210626 1 2Dx Rx d 14 18 C2 D2 05 C4 09 00 90 70 97 58 22 6F 52 [FD BRS]
0.0272529 1 DCx Rx d 13 39 10 00 16 A0 36 CD AE 2A 0A FA DC E4 [FD BRS]
0.0276352 1 18E19490x Rx d 15 04 03 00 03 00 03 00 7E 36 ED 0C 3F 0D 22 01 [FD BRS]
0.0300373 1 DBx Rx d 14 39 0E 00 20 82 2E C9 F4 B7 7E 83 1A 3F D9 [FD BRS]
0.0350576 1 DBx Rx d 13 39 0F 00 15 6B 06 CA 20 FF FF 7F CF FF [FD BRS]
0.0359919 1 D9x Rx d 13 39 13 00 15 28 99 CC 21 A0 3E 4D 52 2F [FD BRS]
0.0371971 1 DC08E2 Rx d 8 40 02 00 00 00 00 00 00
0.0410573 1 2Dx Rx d 14 07 CB D3 05 C4 09 00 90 70 97 58 22 6F 52 [FD BRS]
0.0472566 1 DCx Rx d 13 39 10 00 16 D8 73 CE AE 2A 0A FA DC E0 [FD BRS]
0.0038912 1 DCx Rx d 14 39 10 01 10 15 3F 42 00 47 00 CE 02 11 9C [FD BRS]
0.0044095 1 18E19490x Rx d 15 02 88 00 64 64 64 01 00 00 00 B0 12 9E C0 00 [FD BRS]
0.0067777 1 DBx Rx d 15 39 0E 01 0F 14 35 FF FF FF FF FF FF FF BF D2 [FD BRS]
0.0117800 1 DBx Rx d 13 39 0F 00 15 6E 60 9A 20 FF FF 7F CF FF [FD BRS]
0.0124351 1 E3x Rx d 9 41 00 05 08 01 FB 4B 54 1C [FD BRS]
0.0129965 1 D9x Rx d 13 39 13 00 15 17 A3 9C 21 A0 3E 0D 50 2F [FD BRS]
0.0166796 1 DC085D Rx d 8 40 02 00 00 00 00 00 00
0.0178898 1 2Dx Rx d 14 B4 0E A3 05 C4 09 00 90 70 97 58 22 6F 52 [FD BRS]
0.0184171 1 D4x Rx d 15 39 04 0C 05 0E 0F F4 FF FF 39 15 01 14 45 01 [FD BRS]
0.0223935 1 E3x Rx d 12 39 06 0B 08 00 51 51 14 00 C0 CF FF [FD BRS]
0.0227429 1 4Fx Rx d 8 20 5E 04 A0 00 49 9C CD [FD BRS]
0.0238830 1 DCx Rx d 13 39 10 00 16 CF 71 9E AE 2A 0A FA DC E4 [FD BRS]
0.0267701 1 DBx Rx d 14 39 0F 01 06 4D 85 04 60 A8 18 39 0E 00 20 [FD BRS]
0.0317794 1 DBx Rx d 13 39 0F 00 15 8C 70 9B 20 FF FF 7F CF FF [FD BRS]
0.0328747 1 D9x Rx d 13 39 13 00 15 25 E9 9D 21 A0 3E 4D 50 2F [FD BRS]
0.0338919 1 18E19490x Rx d 15 03 00 00 8F 01 8F 01 00 00 00 00 00 00 00 00 [FD BRS]
0.0377542 1 2Dx Rx d 14 E9 31 A4 05 C4 09 00 90 70 97 58 22 6F 52 [FD BRS]
0.0439994 1 DCx Rx d 13 39 10 00 16 DE 74 9F AE 2A 0A FA DC E0 [FD BRS]
0.0467195 1 DBx Rx d 14 39 0E 00 20 77 6F 9B F4 B7 7E 83 1A 3F D8 [FD BRS]
0.0005352 1 E3x Rx d 10 05 00 00 0C F5 FC FF 00 00 00 [FD BRS]
0.0019003 1 DCx Rx d 14 39 10 01 10 15 3F 42 00 47 00 96 06 10 9C [FD BRS]
0.0048975 1 DBx Rx d 15 39 0E 01 0F 18 35 FF FF FF FF FF FF FF BF D2 [FD BRS]
0.0098967 1 DBx Rx d 13 39 0F 00 15 1A 00 77 20 FF FF 7F CF FF [FD BRS]
0.0105449 1 E3x Rx d 9 41 00 05 08 01 79 57 83 F5 [FD BRS]
0.0112423 1 D9x Rx d 13 39 13 00 15 A3 1E 79 21 A0 3E 4D 50 2F [FD BRS]
0.0119585 1 18E19490x Rx d 15 04 03 00 03 00 03 00 88 36 ED 0C 3F 0D 22 01 [FD BRS]
0.0158747 1 2Dx Rx d 14 54 26 80 05 C4 09 00 90 70 97 58 22 6F 52 [FD BRS]
0.0164000 1 D4x Rx d 13 39 04 0C 05 0E 0F F4 FF FF 39 0C 14 0C [FD BRS]
0.0204954 1 E3x Rx d 14 39 06 0B 08 00 51 51 14 00 C0 CF FF 39 04 [FD BRS]
0.0219866 1 DCx Rx d 13 39 10 00 16 74 9B 7B AE 2A 0A FA DC E4 [FD BRS]
0.0249597 1 DBx Rx d 14 39 0E 00 20 0E 02 77 F4 B7 7E 83 1A 3F D9 [FD BRS]
0.0298969 1 DBx Rx d 13 39 0F 00 15 A4 F5 78 20 FF FF 7F CF FF [FD BRS]
0.0307542 1 D9x Rx d 13 39 13 00 15 B2 16 7A 20 A0 3E CD 4F 2F [FD BRS]
0.0358615 1 2Dx Rx d 14 4B 2F 81 05 C4 09 00 90 70 97 58 22 6F 52 [FD BRS]
0.0419977 1 DCx Rx d 13 39 10 00 16 EB F3 7C AE 2A 0A FA DC E4 [FD BRS]
0.0423801 1 18E19490x Rx d 15 00 00 00 A5 00 00 00 50 01 00 00 00 00 00 00 [FD BRS]
0.0448242 1 DBx Rx d 14 39 0E 00 20 95 1C 78 F4 B7 7E 83 1A 3F D8 [FD BRS]
0.0002004 1 D9x Rx d 13 39 13 00 15 40 BB 51 20 A0 3E CD 51 2F [FD BRS]
0.0050247 1 2Dx Rx d 14 DA 57 58 05 C4 09 00 90 70 97 58 22 6F 52 [FD BRS]
0.0055490 1 D4x Rx d 14 39 04 0C 05 0E 0F F4 FF FF 39 FE 1D 08 59 [FD BRS]
0.0096874 1 E3x Rx d 14 39 06 0B 08 00 51 51 14 00 C0 CF FF 39 04 [FD BRS]
0.0102067 1 4Fx Rx d 8 20 04 01 A0 00 49 9C CB [FD BRS]
0.0109699 1 DCx Rx d 13 39 10 00 16 D0 61 53 AE 2A 0A FA DC E0 [FD BRS]
0.0141130 1 DBx Rx d 14 39 0E 00 20 C2 0B 4F F4 B7 7E 83 1A 3F D8 [FD BRS]
0.0190523 1 DBx Rx d 13 39 0F 00 15 B6 4E 50 20 FF FF 7F CF FF [FD BRS]
0.0198596 1 D9x Rx d 13 39 13 00 15 16 65 52 20 A0 3E 0D 51 2F [FD BRS]
0.0210137 1 18E19490x Rx d 15 03 00 00 96 01 96 01 00 00 00 00 00 00 00 00 [FD BRS]
0.0250019 1 2Dx Rx d 14 C5 5E 59 05 C4 09 00 90 70 97 58 22 6F 52 [FD BRS]
0.0311142 1 DCx Rx d 13 39 10 00 16 4F 09 54 AE 2A 0A FA DC E0 [FD BRS]
0.0339783 1 DBx Rx d 14 39 0E 00 20 5B 7C 50 F4 B7 7E 83 1A 3F D9 [FD BRS]
0.0351366 1 D9x Rx d 14 39 FE 28 08 29 00 00 00 00 00 00 00 39 13 [FD BRS]
0.0389818 1 21Cx Rx d 15 11 02 01 06 73 80 76 3C 7A 24 7E 0C 81 F4 85 [FD BRS]
0.0396760 1 DBx Rx d 13 39 0F 00 15 54 5E 51 20 FF FF 7F CF FF [FD BRS]
0.0400633 1 21Dx Rx d 3 30 40 28 [FD BRS]
0.0402184 1 21Cx Rx d 15 21 00 00 00 00 00 00 00 00 00 00 00 00 00 00 [FD BRS]
0.0449909 1 D9x Rx d 10 39 13 01 0B 56 BA 58 55 95 00 [FD BRS]
0.0452172 1 2Dx Rx d 14 E4 45 5A 05 C4 09 00 90 70 97 58 22 6F 52 [FD BRS]
0.0004391 1 E3x Rx d 8 00 80 00 04 FA 85 6F 04 [FD BRS]
0.0017343 1 DCx Rx d 13 39 10 00 16 95 B1 2E AE 2A 0A FA DC E0 [FD BRS]
0.0021156 1 18E19490x Rx d 15 03 00 00 8B 01 8B 01 00 00 00 00 00 00 00 00 [FD BRS]
0.0048098 1 DBx Rx d 14 39 0E 00 20 DD 0E 2A F4 B7 7E 83 1A 3F D9 [FD BRS]
0.0098620 1 DBx Rx d 13 39 0F 00 15 87 A2 2B 20 FF FF 7F CF FF [FD BRS]
0.0102482 1 44 Rx d 1 04
0.0105026 1 E3x Rx d 9 41 00 05 08 00 80 03 43 CC [FD BRS]
0.0120170 1 D9x Rx d 13 39 13 00 15 19 02 2D 20 A0 3E CD 4F 2F [FD BRS]
0.0158482 1 2Dx Rx d 14 1D 6F 34 05 C4 09 00 90 70 97 58 22 6F 52 [FD BRS]
0.0163716 1 D4x Rx d 8 39 04 06 04 9A E2 A9 89 [FD BRS]
0.0217068 1 DCx Rx d 14 39 10 01 10 15 3F 42 39 47 00 1E 12 0D 9C [FD BRS]
0.0248609 1 DBx Rx d 15 39 0E 01 0F 24 35 FF FF FF FF FF FF FF BF D2 [FD BRS]
0.0298612 1 DBx Rx d 13 39 0F 00 15 29 D0 2C 20 FF FF 7F CF FF [FD BRS]
0.0304834 1 E3x Rx d 9 41 00 05 08 01 93 77 F9 35 [FD BRS]
0.0309147 1 D9x Rx d 13 39 13 00 15 3F 33 2E 20 A0 3E CD 4F 2F [FD BRS]
0.0317649 1 18E19490x Rx d 15 04 03 00 03 00 03 00 88 36 ED 0C 3F 0D 22 01 [FD BRS]
0.0358231 1 2Dx Rx d 14 02 66 35 05 C4 09 00 90 70 97 58 22 6F 52 [FD BRS]
0.0363495 1 D4x Rx d 15 39 04 0C 05 0E 0F F4 FF FF 39 15 01 14 45 01 [FD BRS]
0.0404358 1 E3x Rx d 12 39 06 0B 08 00 51 51 14 00 C0 CF FF [FD BRS]
0.0417670 1 DCx Rx d 13 39 10 00 16 A1 43 30 AE 2A 0A FA DC E0 [FD BRS]
0.0448532 1 DBx Rx d 14 39 0F 01 06 4D 85 04 60 C0 1A 39 0E 00 20 [FD BRS]
0.0005474 1 DBx Rx d 14 39 0E 00 20 9C 5E 07 F4 B7 7E 83 1A 3F D9 [FD BRS]
0.0056017 1 DBx Rx d 13 39 0F 00 15 A3 AF 08 20 FF FF 7F CF FF [FD BRS]
0.0062169 1 E3x Rx d 12 41 00 05 08 00 80 03 43 CC 13 C1 5A [FD BRS]
0.0073002 1 D9x Rx d 13 39 13 00 15 03 84 0A 20 A0 3E 0D 51 2F [FD BRS]
0.0076854 1 18E19490x Rx d 15 00 00 00 A5 00 00 00 50 01 00 00 00 00 00 00 [FD BRS]
0.0115636 1 2Dx Rx d 14 BF 71 11 05 C4 09 00 90 70 97 58 22 6F 52 [FD BRS]
0.0120920 1 D4x Rx d 8 39 04 06 04 85 FC A2 89 [FD BRS]
0.0162223 1 E3x Rx d 10 05 00 00 0C F5 FC FF 00 00 00 [FD BRS]
0.0174345 1 DCx Rx d 14 39 10 01 10 15 3F 42 00 47 00 E6 42 10 9C [FD BRS]
0.0205996 1 DBx Rx d 15 39 0E 01 0F 18 35 FF FF FF FF FF FF FF BF D2 [FD BRS]
0.0256009 1 DBx Rx d 13 39 0F 00 15 41 BF 09 20 FF FF 7F CF FF [FD BRS]
0.0262111 1 E3x Rx d 9 41 00 05 08 01 23 0A F9 36 [FD BRS]
0.0266034 1 D9x Rx d 13 39 13 00 15 34 22 0B 20 A0 3E 8D 50 2F [FD BRS]
0.0315716 1 2Dx Rx d 14 9E 6A 12 05 C4 09 00 90 70 97 58 22 6F 52 [FD BRS]
0.0320959 1 D4x Rx d 13 39 04 0C 05 0E 0F F4 FF FF 39 0C 14 0C [FD BRS]
0.0361853 1 E3x Rx d 15 39 06 0B 08 00 51 51 14 00 C0 CF FF 39 04 22 [FD BRS]
0.0373935 1 DCx Rx d 13 39 10 00 16 CC 1F 0D AE 2A 0A FA DC E0 [FD BRS]
0.0377788 1 18E19490x Rx d 15 01 02 00 38 0D 01 01 80 0C 0C 01 BC 02 06 06 [FD BRS]
0.0406629 1 DBx Rx d 14 39 0E 00 20 C9 03 09 F4 A7 7E 83 1A 3F D8 [FD BRS]
0.0456012 1 DBx Rx d 13 39 0F 00 15 67 8E 0A 20 FF FF 7F CF FF [FD BRS]
0.0464835 1 D9x Rx d 13 39 13 00 15 EA BF 0C 20 A0 3E 4D 50 2F [FD BRS]
0.0011572 1 DBx Rx d 15 39 0E 01 0F 24 35 FF FF FF FF FF FF FF BF D2 [FD BRS]
0.0061604 1 DBx Rx d 13 39 0F 00 15 F1 FE E6 20 FF FF 7F CF FF [FD BRS]
0.0066916 1 D4x Rx d 14 39 04 0C 05 0E 0F F4 FF FF 39 15 01 14 45 [FD BRS]
0.0072239 1 D9x Rx d 13 39 13 00 15 C9 11 E8 20 A0 3E 0D 51 2F [FD BRS]
0.0076052 1 D4x Rx d 15 39 0C 08 3C FE 74 00 80 00 00 08 6C 95 B8 21 [FD BRS]
0.0082605 1 E3x Rx d 12 41 00 05 08 01 79 24 E3 89 76 B6 5E [FD BRS]
0.0121069 1 2Dx Rx d 14 C4 1E EF 05 C4 09 00 90 70 97 58 62 6F 52 [FD BRS]
0.0167152 1 D4x Rx d 13 39 0C 14 0C FF FF FF FF FD FF FF FF FF [FD BRS]
0.0171076 1 E3x Rx d 12 39 06 0B 08 00 51 51 14 00 C0 CF FF [FD BRS]
0.0178787 1 DCx Rx d 13 39 10 00 16 1E B5 EA AE 2A 0A FA DC E0 [FD BRS]
0.0211509 1 DBx Rx d 14 39 0F 01 06 4D 85 04 60 C0 1A 39 0E 00 20 [FD BRS]
0.0261601 1 DBx Rx d 13 39 0F 00 15 13 EE E7 20 FF FF 7F CF FF [FD BRS]
0.0268194 1 D9x Rx d 13 39 13 00 15 2E ED E9 20 A0 3E CD 50 2F [FD BRS]
0.0278936 1 18E19490x Rx d 15 03 00 00 93 01 93 01 00 00 00 00 00 00 00 00 [FD BRS]
0.0320809 1 2Dx Rx d 14 91 F8 F0 05 C4 09 00 90 70 97 58 62 6F 52 [FD BRS]
0.0326062 1 E3x Rx d 9 41 00 01 08 01 00 00 02 C4 [FD BRS]
0.0379835 1 DCx Rx d 13 39 10 00 16 3A 1D EB AE 2A 0A FA DC E0 [FD BRS]
0.0410856 1 DBx Rx d 14 39 0E 00 20 6E F2 E7 F4 A7 7E 83 1A 3F D8 [FD BRS]
0.0461698 1 DBx Rx d 13 39 0F 00 15 AD 1B E8 20 FF FF 7F CF FF [FD BRS]
0.0468291 1 D9x Rx d 14 39 13 00 15 7D DF EA 20 A0 3E CD 51 2F 12 [FD BRS]
0.0004152 1 2Dx Rx d 14 66 00 CA 05 C4 09 00 90 70 97 58 62 6F 52 [FD BRS]
0.0050316 1 E3x Rx d 11 41 00 00 08 01 42 31 50 52 31 31 [FD BRS]
0.0061028 1 DCx Rx d 13 39 10 00 16 10 8A C5 AE 2A 0A FA DC E0 [FD BRS]
0.0064841 1 18E19490x Rx d 15 03 00 00 9D 01 9D 01 00 00 00 00 00 00 00 00 [FD BRS]
0.0094282 1 DBx Rx d 14 39 0E 00 20 12 FB C1 F4 A7 7E 83 1A 3F D8 [FD BRS]
0.0144735 1 DBx Rx d 13 39 0F 00 15 7B 81 C2 20 FF FF 7F CF FF [FD BRS]
0.0150617 1 E3x Rx d 9 41 00 05 08 00 80 03 43 CC [FD BRS]
0.0160650 1 D9x Rx d 13 39 13 00 15 53 E9 C4 20 A0 3E 0D 51 2F [FD BRS]
0.0204233 1 2Dx Rx d 14 79 09 CB 05 C4 09 00 90 70 97 58 62 6F 52 [FD BRS]
0.0209466 1 D4x Rx d 8 39 04 06 04 F5 F7 94 89 [FD BRS]
0.0250810 1 E3x Rx d 13 41 00 00 08 02 34 39 37 35 D6 19 11 05 [FD BRS]
0.0261062 1 DCx Rx d 14 39 10 01 10 15 3F 42 30 47 00 76 06 10 9C [FD BRS]
0.0295583 1 DBx Rx d 15 39 0E 01 0F 20 35 FF FF FF FF FF FF FF BF D2 [FD BRS]
0.0344736 1 DBx Rx d 13 39 0F 00 15 99 91 C3 20 FF FF 7F CF FF [FD BRS]
0.0350598 1 E3x Rx d 9 41 00 05 08 01 CE DC AA 25 [FD BRS]
0.0352531 1 D9x Rx d 13 39 13 00 15 11 4C C5 20 A0 3E 8D 51 2F [FD BRS]
0.0361543 1 18E19490x Rx d 15 04 03 00 03 00 03 00 88 36 EE 0C 3F 0D 22 01 [FD BRS]
0.0404215 1 2Dx Rx d 14 24 36 CC 05 C4 09 00 90 70 97 58 62 6F 52 [FD BRS]
0.0409449 1 D4x Rx d 13 39 04 0C 05 0E 0F F4 FF FF 39 0C 14 0C [FD BRS]
0.0450002 1 E3x Rx d 15 39 06 0B 08 00 51 51 14 00 C0 CF FF 39 04 22 [FD BRS]
0.0461654 1 DCx Rx d 13 39 10 00 16 79 CA C7 AE 2A 0A FA DC E0 [FD BRS]
0.0052663 1 DCx Rx d 13 39 10 00 16 61 A8 A6 AE 2A 0A FA DC E0 [FD BRS]
0.0085124 1 DBx Rx d 14 39 0E 00 20 75 25 A2 F4 A7 7E 83 1A 3F D9 [FD BRS]
0.0135847 1 DBx Rx d 13 39 0F 00 15 9F D5 A3 20 FF FF 7F CF FF [FD BRS]
0.0142380 1 D9x Rx d 13 39 13 00 15 B7 BD A5 20 A0 3E 0D 51 2F [FD BRS]
0.0146202 1 4Fx Rx d 8 28 19 0A 00 09 33 1F A6 [FD BRS]
0.0194866 1 2Dx Rx d 14 67 62 AC 05 C4 09 00 90 70 97 58 62 6F 52 [FD BRS]
0.0200119 1 E3x Rx d 8 3A 02 00 04 F4 FF FF FF [FD BRS]
0.0241253 1 E3x Rx d 8 00 80 00 04 0C B7 54 04 [FD BRS]
0.0251885 1 DCx Rx d 13 39 10 00 16 45 00 A7 AE 2A 0A FA DC E0 [FD BRS]
0.0255718 1 18E19490x Rx d 15 03 00 00 8C 01 8C 01 00 00 00 00 00 00 00 00 [FD BRS]
0.0285799 1 DBx Rx d 14 39 0E 00 20 17 D4 A3 F4 A7 7E 83 1A 3F D8 [FD BRS]
0.0335832 1 DBx Rx d 13 39 0F 00 15 31 A7 A4 20 FF FF 7F CF FF [FD BRS]
0.0341734 1 E3x Rx d 12 41 00 05 08 00 80 03 43 CC 12 F9 93 [FD BRS]
0.0351367 1 D9x Rx d 13 39 13 00 15 34 D5 A6 20 A0 3E 4D 50 2F [FD BRS]
0.0395259 1 2Dx Rx d 14 78 6B AD 05 C4 09 00 90 70 97 58 62 6F 52 [FD BRS]
0.0400503 1 D4x Rx d 8 39 04 06 04 F9 84 8E 89 [FD BRS]
0.0441687 1 E3x Rx d 10 05 00 00 0C F5 FC FF 00 00 00 [FD BRS]
0.0451938 1 DCx Rx d 14 39 10 01 10 15 3F 42 38 47 00 46 06 10 9C [FD BRS]
0.0485809 1 DBx Rx d 15 39 0E 01 0F 0C 35 FF FF FF FF FF FF FF BF D2 [FD BRS]
0.0005585 1 2Dx Rx d 14 41 10 85 05 C4 09 00 90 70 97 58 62 6F 52 [FD BRS]
0.0010828 1 D4x Rx d 8 39 04 06 04 3A 01 86 89 [FD BRS]
0.0052092 1 E3x Rx d 10 05 00 00 0C F5 FC FF 00 00 00 [FD BRS]
0.0062154 1 DCx Rx d 14 39 10 01 10 15 3F 42 30 47 00 06 06 11 9C [FD BRS]
0.0067347 1 18E19490x Rx d 15 02 88 00 64 64 64 01 00 00 00 96 12 06 DD 00 [FD BRS]
0.0096409 1 DBx Rx d 15 39 0E 01 0F 14 35 FF FF FF FF FF FF FF BF D2 [FD BRS]
0.0146392 1 DBx Rx d 13 39 0F 00 15 CE A6 7D 20 FF FF 7F CF FF [FD BRS]
0.0152103 1 E3x Rx d 9 41 00 05 08 01 46 15 55 B9 [FD BRS]
0.0154037 1 D9x Rx d 13 39 13 00 15 1B 8E 7F 20 A0 3E 0D 50 2F [FD BRS]
0.0205609 1 2Dx Rx d 14 60 0B 86 05 C4 09 00 90 70 97 58 62 6F 52 [FD BRS]
0.0210862 1 D4x Rx d 13 39 04 0C 05 0E 0F F4 FF FF 39 0C 14 0C [FD BRS]
0.0251656 1 E3x Rx d 14 39 06 0B 08 00 51 51 14 00 C0 CF FF 39 04 [FD BRS]
0.0261568 1 DCx Rx d 13 39 10 00 16 EA 86 81 AE 2A 0A FA DC E0 [FD BRS]
0.0297029 1 DBx Rx d 14 39 0E 00 20 C2 5F 7D F4 A7 7E 83 1A 3F D8 [FD BRS]
0.0346422 1 DBx Rx d 13 39 0F 00 15 E8 97 7E 20 FF FF 7F CF FF [FD BRS]
0.0351525 1 D9x Rx d 13 39 13 00 15 0A 64 80 20 A0 3E 8D 50 2F [FD BRS]
0.0361207 1 18E19490x Rx d 15 03 00 00 9A 01 9A 01 00 00 00 00 00 00 00 00 [FD BRS]
0.0405319 1 2Dx Rx d 14 7F 02 87 05 C4 09 00 90 70 97 58 62 6F 52 [FD BRS]
0.0462741 1 DCx Rx d 13 39 10 00 16 A7 6E 82 AE 2A 0A FA DC E0 [FD BRS]
0.0027850 1 DBx Rx d 13 39 0F 00 15 3E 0D 54 20 FF FF 7F CF FF [FD BRS]
0.0033522 1 E3x Rx d 12 41 00 05 08 00 80 03 43 CC 12 59 B6 [FD BRS]
0.0041563 1 DCx Rx d 9 39 FE 6F 08 94 01 00 80 01 [FD BRS]
0.0043546 1 D9x Rx d 13 39 13 00 15 CF 8D 56 21 A0 3E 0D 50 2F [FD BRS]
0.0047358 1 18E19490x Rx d 15 00 00 00 A5 00 00 00 50 01 00 00 00 00 00 00 [FD BRS]
0.0087640 1 2Dx Rx d 14 CF 61 5D 05 C4 09 00 90 70 97 58 62 6F 52 [FD BRS]
0.0092873 1 D4x Rx d 8 39 04 06 04 B4 1B 7E 89 [FD BRS]
0.0133247 1 E3x Rx d 10 05 00 00 0C F5 FC FF 00 00 00 [FD BRS]
0.0142959 1 DCx Rx d 14 39 10 01 10 15 3F 42 00 47 00 C6 12 11 9C [FD BRS]
0.0177810 1 DBx Rx d 15 39 0E 01 0F 18 35 FF FF FF FF FF FF FF BF D2 [FD BRS]
0.0227833 1 DBx Rx d 13 39 0F 00 15 DC 1D 55 20 FF FF 7F CF FF [FD BRS]
0.0233405 1 E3x Rx d 9 41 00 05 08 01 FD C1 32 61 [FD BRS]
0.0235358 1 D9x Rx d 13 39 13 00 15 4E E3 57 21 A0 3E 4D 4F 2F [FD BRS]
0.0286840 1 2Dx Rx d 14 EE 7A 5E 05 C4 09 00 90 70 97 58 62 6F 52 [FD BRS]
0.0292094 1 D4x Rx d 14 39 04 0C 05 0E 0F F4 FF FF 39 FE 1D 08 59 [FD BRS]
0.0332997 1 E3x Rx d 14 39 06 0B 08 00 51 51 14 00 C0 CF FF 39 04 [FD BRS]
0.0338231 1 4Fx Rx d 8 20 04 07 A0 00 49 9C C6 [FD BRS]
0.0342643 1 DCx Rx d 13 39 10 00 16 3C 30 59 AE 2A 0A FA DC E0 [FD BRS]
0.0346476 1 18E19490x Rx d 15 01 01 00 38 0D 00 01 80 0C 0C 01 BC 02 06 06 [FD BRS]
0.0378438 1 DBx Rx d 14 39 0E 00 20 47 B9 55 F4 A7 7E 83 1A 3F D8 [FD BRS]
0.0427820 1 DBx Rx d 13 39 0F 00 15 FA 2C 56 20 FF FF 7F CF FF [FD BRS]
0.0431743 1 D9x Rx d 13 39 13 00 15 F0 16 58 21 A0 3E 4D 4F 2F [FD BRS]
0.0486755 1 2Dx Rx d 14 F1 73 5F 05 C4 09 00 90 70 97 58 62 6F 52 [FD BRS]
0.0011491 1 44 Rx d 1 04
0.0012653 1 DBx Rx d 13 39 0F 00 15 52 1A 31 20 FF FF 7F CF FF [FD BRS]
0.0017535 1 E3x Rx d 9 41 00 05 08 00 80 03 43 CC [FD BRS]
0.0027828 1 D9x Rx d 13 39 13 00 15 13 86 33 21 A0 3D 8D 4F 2F [FD BRS]
0.0070701 1 2Dx Rx d 14 D1 0A 3A 05 C4 09 00 90 70 97 58 62 6F 52 [FD BRS]
0.0075924 1 D4x Rx d 8 39 04 06 04 C3 E8 77 89 [FD BRS]
0.0125426 1 DCx Rx d 14 39 10 01 10 15 3F 42 2D 47 00 8E 46 10 9C [FD BRS]
0.0130570 1 18E19490x Rx d 15 02 88 00 64 64 64 01 00 00 00 A1 12 00 E6 00 [FD BRS]
0.0161701 1 DBx Rx d 15 39 0E 01 0F 18 35 FF FF FF FF FF FF FF BF D2 [FD BRS]
0.0211724 1 DBx Rx d 13 39 0F 00 15 74 2B 32 20 FF FF 7F CF FF [FD BRS]
0.0217225 1 E3x Rx d 9 41 00 05 08 01 BD 44 93 F8 [FD BRS]
0.0219179 1 D9x Rx d 13 39 13 00 15 C8 F7 34 21 A0 3D 8D 4E 2F [FD BRS]
0.0271681 1 2Dx Rx d 14 CE 03 3B 05 C4 09 00 90 70 97 58 62 6F 52 [FD BRS]
0.0276925 1 D4x Rx d 15 39 04 0C 05 0E 0F F4 FF FF 39 15 01 14 45 01 [FD BRS]
0.0316768 1 E3x Rx d 12 39 06 0B 08 00 51 51 14 00 C0 CF FF [FD BRS]
0.0325320 1 DCx Rx d 13 39 10 00 16 1A 83 36 AE 2A 0A FA DC E0 [FD BRS]
0.0361631 1 DBx Rx d 14 39 0F 01 06 4D 85 04 60 D4 19 39 0E 00 20 [FD BRS]
0.0411714 1 DBx Rx d 13 39 0F 00 15 96 3B 33 20 FF FF 7F CF FF [FD BRS]
0.0417237 1 D9x Rx d 13 39 13 00 15 5A 08 35 21 A0 3D 4D 4E 2F [FD BRS]
0.0424879 1 18E19490x Rx d 15 03 00 00 95 01 95 01 00 00 00 00 00 00 00 00 [FD BRS]
0.0470411 1 2Dx Rx d 14 93 3C 3C 05 C4 09 00 90 70 97 58 62 6F 52 [FD BRS]
0.0003178 1 E3x Rx d 12 41 00 05 08 00 80 03 43 CC 11 CD 8A [FD BRS]
0.0011101 1 D9x Rx d 13 39 13 00 15 97 3E 10 21 A0 3D 0D 4F 2F [FD BRS]
0.0056573 1 2Dx Rx d 14 FD 47 17 05 C4 09 00 90 70 97 58 22 6F 52 [FD BRS]
0.0061837 1 D4x Rx d 8 39 04 06 04 EE B9 70 89 [FD BRS]
0.0103010 1 E3x Rx d 10 05 00 00 0C F5 FC FF 00 00 00 [FD BRS]
0.0110632 1 DCx Rx d 14 39 10 01 10 15 3F 42 30 47 00 56 12 11 9C [FD BRS]
0.0147583 1 DBx Rx d 15 39 0E 01 0F 0C 35 FF FF FF FF FF FF FF BF D2 [FD BRS]
0.0197606 1 DBx Rx d 13 39 0F 00 15 0D DD 0F 20 FF FF 7F CF FF [FD BRS]
0.0203798 1 E3x Rx d 9 41 00 05 08 01 95 40 AF 1F [FD BRS]
0.0205751 1 D9x Rx d 13 39 13 00 15 05 C1 11 21 A0 3D CD 4F 2F [FD BRS]
0.0210103 1 18E19490x Rx d 15 04 03 00 03 00 03 00 88 36 EE 0C 3E 0D 22 01 [FD BRS]
0.0256645 1 2Dx Rx d 14 2E 2B 18 05 C4 09 00 90 70 97 58 62 6F 52 [FD BRS]
0.0261889 1 D4x Rx d 13 39 04 0C 05 0E 0F F4 FF FF 39 0C 14 0C [FD BRS]
0.0302682 1 E3x Rx d 15 39 06 0B 08 00 51 51 14 00 C0 CF FF 39 04 22 [FD BRS]
0.0311584 1 DCx Rx d 13 39 10 00 16 F8 ED 13 AE 2A 0A FA DC E0 [FD BRS]
0.0348206 1 DBx Rx d 14 39 0E 00 20 C5 19 0F F4 A7 7E 83 1A 3F D8 [FD BRS]
0.0397588 1 DBx Rx d 13 39 0F 00 15 B2 36 10 20 FF FF 7F CF FF [FD BRS]
0.0401472 1 D9x Rx d 13 39 13 00 15 53 1F 12 21 A0 3D 0D 4F 2F [FD BRS]
0.0456204 1 2Dx Rx d 14 31 22 19 05 C4 09 00 90 70 97 58 62 6F 52 [FD BRS]
0.0032776 1 2Dx Rx d 14 9B C7 F4 05 C4 09 00 90 70 97 58 22 6F 52 [FD BRS]
0.0038030 1 D4x Rx d 8 39 04 06 04 3E 51 69 89 [FD BRS]
0.0086972 1 DCx Rx d 14 39 10 01 10 15 3F 42 39 47 00 1E 12 11 9C [FD BRS]
0.0123913 1 DBx Rx d 15 39 0E 01 0F 0C 35 FF FF FF FF FF FF FF BF D2 [FD BRS]
0.0173925 1 DBx Rx d 13 39 0F 00 15 25 58 EC 20 FF FF 7F CF FF [FD BRS]
0.0178467 1 D4x Rx d 14 39 04 0C 05 0E 0F F4 FF FF 39 15 01 14 45 [FD BRS]
0.0183791 1 D9x Rx d 13 39 13 00 15 11 C7 EE 21 A0 3D 8D 4E 2F [FD BRS]
0.0187573 1 D4x Rx d 15 39 0C 08 3C FE 74 00 80 00 00 08 6C 75 38 3D [FD BRS]
0.0194136 1 E3x Rx d 12 41 00 05 08 01 36 48 43 02 B4 3C 1C [FD BRS]
0.0232680 1 2Dx Rx d 14 84 CE F5 05 C4 09 00 90 70 97 58 22 6F 52 [FD BRS]
0.0278614 1 D4x Rx d 13 39 0C 14 0C FF FF FF FF FD FF FF FF FF [FD BRS]
0.0282537 1 E3x Rx d 12 39 06 0B 08 00 51 51 14 00 C0 CF FF [FD BRS]
0.0287009 1 DCx Rx d 13 39 10 00 16 F8 C7 F0 AE 2A 0A FA DC E0 [FD BRS]
0.0290832 1 18E19490x Rx d 15 01 02 00 38 0D 00 01 80 0C 07 01 BC 02 06 06 [FD BRS]
0.0323843 1 DBx Rx d 14 39 0F 01 06 4D 85 04 60 64 1C 39 0E 00 20 [FD BRS]
0.0373916 1 DBx Rx d 13 39 0F 00 15 C7 48 ED 20 FF FF 7F CF FF [FD BRS]
0.0379529 1 D9x Rx d 13 39 13 00 15 BC 88 EF 21 A0 3D CD 4D 2F [FD BRS]
0.0432622 1 2Dx Rx d 14 A5 D5 F6 05 C4 09 00 90 70 97 58 22 6F 52 [FD BRS]
0.0437865 1 E3x Rx d 9 41 00 01 08 01 00 00 02 C4 [FD BRS]
0.0486717 1 DCx Rx d 13 39 10 00 16 DC 6F F1 AE 2A 0A FA DC E0 [FD BRS]
0.0007618 1 2Dx Rx d 14 39 D9 D1 05 C4 09 00 90 70 97 58 22 6F 52 [FD BRS]
0.0012861 1 D4x Rx d 8 39 04 06 04 21 4F 62 89 [FD BRS]
0.0054155 1 E3x Rx d 13 41 00 00 08 02 34 39 37 41 1E 49 E8 05 [FD BRS]
0.0060837 1 DCx Rx d 14 39 10 01 10 15 3F 42 00 47 00 E6 42 10 9C [FD BRS]
0.0066020 1 18E19490x Rx d 15 02 88 00 64 64 64 01 00 00 00 90 12 00 E6 00 [FD BRS]
0.0099662 1 DBx Rx d 15 39 0E 01 0F 0C 35 FF FF FF FF FF FF FF BF D2 [FD BRS]
0.0148805 1 DBx Rx d 13 39 0F 00 15 4D 37 C9 20 FF FF 7F CF FF [FD BRS]
0.0153858 1 D9x Rx d 13 39 13 00 15 09 47 CB 21 A0 3D 4D 4E 2F [FD BRS]
0.0157660 1 E3x Rx d 9 41 00 05 08 01 E1 2F 6E 1E [FD BRS]
0.0207763 1 2Dx Rx d 14 18 C2 D2 05 C4 09 00 90 70 97 58 22 6F 52 [FD BRS]
0.0213007 1 D4x Rx d 13 39 04 0C 05 0E 0F F4 FF FF 39 0C 14 0C [FD BRS]
0.0253401 1 E3x Rx d 15 39 06 0B 08 00 51 51 14 00 C0 CF FF 39 04 22 [FD BRS]
0.0260793 1 DCx Rx d 13 39 10 00 16 70 D1 CD AE 2A 0A FA DC DC [FD BRS]
0.0299534 1 DBx Rx d 14 39 0E 00 20 1A 37 C9 F3 A7 7E 83 1A 3F D8 [FD BRS]
0.0348797 1 DBx Rx d 13 39 0F 00 15 6B 06 CA 20 FF FF 7F CF FF [FD BRS]
0.0352650 1 D9x Rx d 13 39 13 00 15 48 DF CC 21 A0 3D 8D 4D 2F [FD BRS]
0.0359931 1 18E19490x Rx d 15 03 00 00 91 01 91 01 00 00 00 00 00 00 00 00 [FD BRS]
0.0407223 1 2Dx Rx d 14 07 CB D3 05 C4 09 00 90 70 97 58 22 6F 52 [FD BRS]
0.0461375 1 DCx Rx d 13 39 10 00 16 D8 73 CE AE 2A 0A FA DC E0 [FD BRS]
0.0026513 1 2Dx Rx d 14 13 9F B0 05 C4 09 00 90 70 97 58 62 6F 52 [FD BRS]
0.0079335 1 DCx Rx d 13 39 10 00 16 F7 DB AB AE 2A 0A FA DC DC [FD BRS]
0.0083169 1 18E19490x Rx d 15 00 00 00 A5 00 00 00 50 01 00 00 00 00 00 00 [FD BRS]
0.0117930 1 DBx Rx d 14 39 0E 00 20 26 16 A7 F3 97 7E 83 1A 3F CE [FD BRS]
0.0168273 1 DBx Rx d 13 39 0F 00 15 A9 63 A8 20 FF FF 7F CF FF [FD BRS]
0.0172146 1 D9x Rx d 14 39 13 00 15 9F F9 AA 29 A0 3C 0D 21 2F 12 [FD BRS]
0.0226748 1 2Dx Rx d 14 0C 96 B1 05 C4 09 00 90 70 97 58 62 6F 52 [FD BRS]
0.0278850 1 DCx Rx d 13 39 10 00 16 68 B3 AC AE 2A 0A FA DC DC [FD BRS]
0.0317421 1 DBx Rx d 14 39 0E 00 20 BD 08 A8 F3 97 7E 83 1A 3F CF [FD BRS]
0.0368164 1 DBx Rx d 13 39 0F 00 15 4B 73 A9 20 FF FF 7F CF FF [FD BRS]
0.0372017 1 D9x Rx d 13 39 13 00 15 A8 5F AB 29 A0 3C 8D 20 2F [FD BRS]
0.0375800 1 4Fx Rx d 8 28 B7 00 00 09 36 F1 6F [FD BRS]
0.0378921 1 18E19490x Rx d 15 01 02 00 37 0D 00 01 80 0C 07 01 BC 02 06 06 [FD BRS]
0.0426493 1 2Dx Rx d 14 2D 8D B2 05 C4 09 00 90 70 97 58 62 6F 52 [FD BRS]
0.0431737 1 E3x Rx d 8 3A 02 00 04 F4 FF FF FF [FD BRS]
0.0472690 1 E3x Rx d 8 00 80 00 04 E0 D2 22 04 [FD BRS]
0.0479622 1 DCx Rx d 13 39 10 00 16 4C 1B AD AE 2A 0A FA DC DC [FD BRS]
0.0038339 1 DCx Rx d 14 39 10 01 10 15 3F 42 30 47 00 6E 06 10 9C [FD BRS]
0.0043533 1 18E19490x Rx d 15 02 88 00 64 64 64 01 00 00 00 A1 12 F2 D3 00 [FD BRS]
0.0078784 1 DBx Rx d 15 39 0E 01 0F 0C 35 FF FF FF FF FF FF FF BF D2 [FD BRS]
0.0128297 1 DBx Rx d 13 39 0F 00 15 E8 97 7E 20 FF FF 7F CF FF [FD BRS]
0.0132180 1 D9x Rx d 13 39 13 00 15 5F C5 80 29 A0 3C CD 1F 2F [FD BRS]
0.0135962 1 E3x Rx d 9 41 00 05 08 01 4E 7E EF 13 [FD BRS]
0.0186795 1 2Dx Rx d 14 7F 02 87 05 C4 09 00 90 70 97 58 62 6F 52 [FD BRS]
0.0192059 1 D4x Rx d 15 39 04 0C 05 0E 0F F4 FF FF 39 15 01 14 45 01 [FD BRS]
0.0232622 1 E3x Rx d 12 39 06 0B 08 00 51 51 14 00 C0 CF FF [FD BRS]
0.0238644 1 DCx Rx d 13 39 10 00 16 42 24 82 AE 2A 0A FA DC DC [FD BRS]
0.0278215 1 DBx Rx d 14 39 0F 01 06 4D 85 04 60 64 1C 39 0E 00 20 [FD BRS]
0.0328288 1 DBx Rx d 13 39 0F 00 15 0A 87 7F 20 FF FF 7F CF FF [FD BRS]
0.0332171 1 D9x Rx d 13 39 13 00 15 7E C5 81 29 A0 3C 8D 20 2F [FD BRS]
0.0337683 1 18E19490x Rx d 15 03 00 00 93 01 93 01 00 00 00 00 00 00 00 00 [FD BRS]
0.0386495 1 2Dx Rx d 14 DA 75 88 05 C4 09 00 90 70 97 58 62 6F 52 [FD BRS]
0.0439297 1 DCx Rx d 13 39 10 00 16 66 8C 83 AE 2A 0A FA DC DC [FD BRS]
0.0477558 1 DBx Rx d 14 39 0E 00 20 09 52 7F F3 97 7E 83 1A 3F CF [FD BRS]
0.0001961 1 D4x Rx d 14 39 04 0C 05 0E 0F F4 FF FF 39 FE 1D 08 59 [FD BRS]
0.0042705 1 E3x Rx d 14 39 06 0B 08 00 51 51 14 00 C0 CF FF 39 04 [FD BRS]
0.0047888 1 4Fx Rx d 8 20 98 0D A0 00 49 9C C1 [FD BRS]
0.0049540 1 DCx Rx d 13 39 10 00 16 62 BA 5F AE 2A 0A FA DC DC [FD BRS]
0.0089051 1 DBx Rx d 14 39 0E 00 20 AB C7 5B F3 97 7E 83 1A 3F CE [FD BRS]
0.0138424 1 DBx Rx d 13 39 0F 00 15 2E 8A 5C 20 FF FF 7F CF FF [FD BRS]
0.0142266 1 D9x Rx d 13 39 13 00 15 DB 00 5E 29 A0 3C 4D 1E 2F [FD BRS]
0.0196569 1 2Dx Rx d 14 06 8B 65 05 C4 09 00 90 70 97 58 62 6F 52 [FD BRS]
0.0248290 1 DCx Rx d 13 39 10 00 16 66 A6 60 AE 2A 0A FA DC DC [FD BRS]
0.0252113 1 18E19490x Rx d 15 00 00 00 A5 00 00 00 50 01 00 00 00 00 00 00 [FD BRS]
0.0287715 1 DBx Rx d 14 39 0E 00 20 47 38 5C F3 97 7E 83 1A 3F CE [FD BRS]
0.0292918 1 D9x Rx d 14 39 FE 28 08 29 00 00 00 00 00 00 00 39 13 [FD BRS]
0.0337749 1 21Cx Rx d 15 11 02 01 01 00 00 01 F4 03 E8 05 DC 07 D0 09 [FD BRS]
0.0345193 1 DBx Rx d 13 39 0F 00 15 CC 9A 5D 20 FF FF 7F CF FF [FD BRS]
0.0390458 1 D9x Rx d 10 39 13 01 0B 55 BA 58 55 95 00 [FD BRS]
0.0396960 1 2Dx Rx d 14 27 90 66 05 C4 09 00 90 70 97 58 62 6F 52 [FD BRS]
0.0447762 1 DCx Rx d 13 39 10 00 16 42 0E 61 AE 2A 0A FA DC DC [FD BRS]
0.0489083 1 DBx Rx d 14 39 0E 00 20 25 C9 5D F3 97 7E 83 1A 3F CF [FD BRS]
0.0033104 1 D9x Rx d 13 39 13 00 15 FB 75 3D 29 A0 3C 4D 1E 2F [FD BRS]
0.0036866 1 DBx Rx d 13 39 0F 00 15 86 BC 3B 20 FF FF 7F CF FF [FD BRS]
0.0091348 1 2Dx Rx d 14 AE AA 44 05 C4 09 00 90 70 97 58 22 6F 52 [FD BRS]
0.0096582 1 E3x Rx d 10 32 04 00 0C E2 56 6E 53 67 07 [FD BRS]
0.0137765 1 E3x Rx d 8 00 80 00 04 F4 47 0C 04 [FD BRS]
0.0141667 1 DCx Rx d 13 39 10 00 16 C2 5D 3F AE 32 0A FA DC DC [FD BRS]
0.0145491 1 18E19490x Rx d 15 03 00 00 8D 01 8D 01 00 00 00 00 00 00 00 00 [FD BRS]
0.0182732 1 DBx Rx d 14 39 0E 00 20 FC D7 3B F3 97 7E 83 1A 3F CF [FD BRS]
0.0233265 1 DBx Rx d 13 39 0F 00 15 28 CE 3C 20 FF FF 7F CF FF [FD BRS]
0.0238087 1 E3x Rx d 9 41 00 05 08 00 80 03 43 CC [FD BRS]
0.0248510 1 D9x Rx d 13 39 13 00 15 7D F1 3E 29 A0 3C CD 1E 2F [FD BRS]
0.0291722 1 2Dx Rx d 14 B1 A3 45 05 C4 09 00 90 70 97 58 22 6F 52 [FD BRS]
0.0296976 1 D4x Rx d 8 39 04 06 04 9E B2 46 89 [FD BRS]
0.0338149 1 E3x Rx d 10 05 00 00 0C F5 FC FF 00 00 00 [FD BRS]
0.0341851 1 DCx Rx d 14 39 10 01 10 15 3F 42 30 47 00 06 06 0D 9C [FD BRS]
0.0383242 1 DBx Rx d 15 39 0E 01 0F 14 35 FF FF FF FF FF FF FF BF D2 [FD BRS]
0.0433275 1 DBx Rx d 13 39 0F 00 15 CA DE 3D 20 FF FF 7F CF FF [FD BRS]
0.0437118 1 D9x Rx d 13 39 13 00 15 9A 0D 3F 29 A0 3C 0D 1F 2F [FD BRS]
0.0440910 1 E3x Rx d 9 41 00 05 08 01 AE 55 1E 70 [FD BRS]
0.0442831 1 18E19490x Rx d 15 04 03 00 03 00 03 00 88 36 EE 0C 3D 0D 22 01 [FD BRS]
0.0491453 1 2Dx Rx d 14 90 B8 46 05 C4 09 00 90 70 97 58 22 6F 52 [FD BRS]
0.0011191 1 DCx Rx d 14 39 10 01 10 15 3F 42 00 47 00 CE 02 11 9C [FD BRS]
0.0053132 1 DBx Rx d 15 39 0E 01 0F 0C 35 FF FF FF FF FF FF FF BF D2 [FD BRS]
0.0103155 1 DBx Rx d 13 39 0F 00 15 66 90 1A 20 FF FF 7F CF FF [FD BRS]
0.0107038 1 D9x Rx d 13 39 13 00 15 97 16 1C 29 A0 3C 4D 22 2F [FD BRS]
0.0110780 1 E3x Rx d 9 41 00 05 08 01 37 03 C3 D3 [FD BRS]
0.0161234 1 2Dx Rx d 14 B0 C1 23 05 C4 09 00 90 70 97 58 22 6F 52 [FD BRS]
0.0166507 1 D4x Rx d 15 39 04 0C 05 0E 0F F4 FF FF 39 15 01 14 45 01 [FD BRS]
0.0207131 1 E3x Rx d 12 39 06 0B 08 00 51 51 14 00 C0 CF FF [FD BRS]
0.0210853 1 DCx Rx d 13 39 10 00 16 F2 B3 1E AE 32 0A FA DC DC [FD BRS]
0.0214666 1 18E19490x Rx d 15 01 02 00 37 0D 00 01 80 0C 0C 01 BC 02 06 06 [FD BRS]
0.0253057 1 DBx Rx d 14 39 0F 01 06 4D 85 04 60 80 1C 39 0E 00 20 [FD BRS]
0.0302763 1 D9x Rx d 13 39 13 00 15 EA 03 1D 29 A0 3C 4D 21 2F [FD BRS]
0.0306535 1 DBx Rx d 13 39 0F 00 15 84 80 1B 20 FF FF 7F CF FF [FD BRS]
0.0361187 1 2Dx Rx d 14 ED FE 24 05 C4 09 00 90 70 97 58 22 6F 52 [FD BRS]
0.0411049 1 DCx Rx d 13 39 10 00 16 D6 1B 1F AE 32 0A FA DC DC [FD BRS]
0.0452910 1 DBx Rx d 14 39 0E 00 20 0E D0 1B F3 97 7E 83 1A 3F CE [FD BRS]
0.0010840 1 2Dx Rx d 14 39 FB 01 05 C4 09 00 90 70 97 58 62 6F 52 [FD BRS]
0.0060912 1 DCx Rx d 13 39 10 00 16 4A 1C FC AE 2A 0A FA DC DC [FD BRS]
0.0102773 1 DBx Rx d 14 39 0E 00 20 AF 80 F8 F3 97 7E 83 1A 3F D6 [FD BRS]
0.0107996 1 D9x Rx d 14 39 FE 28 08 29 00 00 00 00 00 00 00 39 13 [FD BRS]
0.0152318 1 21Cx Rx d 15 11 02 01 00 75 74 79 5C 7C 7C 7F 38 83 20 87 [FD BRS]
0.0159761 1 DBx Rx d 13 39 0F 00 15 4E 15 F9 20 FF FF 7F CF FF [FD BRS]
0.0203596 1 D9x Rx d 10 39 13 01 0B 55 BA 58 55 95 00 [FD BRS]
0.0211158 1 2Dx Rx d 14 18 E0 02 05 C4 09 00 90 70 97 58 62 6F 52 [FD BRS]
0.0259490 1 DCx Rx d 13 39 10 00 16 6E B4 FD AE 2A 0A FA DC DC [FD BRS]
0.0263304 1 18E19490x Rx d 15 04 03 00 03 00 03 00 88 36 ED 0C 3D 0D 22 01 [FD BRS]
0.0303665 1 DBx Rx d 14 39 0E 00 20 3B A4 F9 F3 97 7E 83 1A 3F D6 [FD BRS]
0.0352998 1 DBx Rx d 13 39 0F 00 15 68 24 FA 20 FF FF 7F CF FF [FD BRS]
0.0356871 1 D9x Rx d 13 39 13 00 15 88 62 FC 27 A0 3C 0D 30 2F [FD BRS]
0.0360683 1 4Fx Rx d 8 28 93 09 00 27 09 94 26 [FD BRS]
0.0410966 1 2Dx Rx d 14 07 E9 03 05 C4 09 00 90 70 97 58 62 6F 52 [FD BRS]
0.0457250 1 E3x Rx d 8 00 80 00 04 65 43 FF 04 [FD BRS]
0.0459952 1 DCx Rx d 13 39 10 00 16 23 5C FE AE 2A 0A FA DC DC [FD BRS]
0.0009547 1 2Dx Rx d 14 F5 BC DF 05 C4 09 00 90 70 97 58 62 6F 52 [FD BRS]
0.0057309 1 DCx Rx d 13 39 10 00 16 E5 9A DA AE 2A 0A FA DC DC [FD BRS]
0.0100740 1 DBx Rx d 14 39 0E 00 20 52 BD D6 F3 97 7E 83 1A 3F D6 [FD BRS]
0.0151482 1 DBx Rx d 13 39 0F 00 15 10 CC D7 20 FF FF 7F CF FF [FD BRS]
0.0155326 1 D9x Rx d 13 39 13 00 15 56 91 D9 21 A0 3D 8D 4C 2F [FD BRS]
0.0159097 1 18E19490x Rx d 15 01 02 00 37 0D 01 01 80 0C 07 01 BC 02 06 06 [FD BRS]
0.0209379 1 2Dx Rx d 14 61 69 E0 05 C4 09 00 90 70 97 58 62 6F 52 [FD BRS]
0.0214643 1 E3x Rx d 10 32 04 00 0C A2 DD 6C 53 67 07 [FD BRS]
0.0255697 1 E3x Rx d 8 00 80 00 04 48 12 F8 04 [FD BRS]
0.0258318 1 DCx Rx d 13 39 10 00 16 C1 32 DB AE 2A 0A FA DC DC [FD BRS]
0.0300939 1 DBx Rx d 14 39 0E 00 20 C6 99 D7 F3 97 7E 83 1A 3F D6 [FD BRS]
0.0351482 1 DBx Rx d 13 39 0F 00 15 AE 39 D8 20 FF FF 7F CF FF [FD BRS]
0.0355894 1 E3x Rx d 9 41 00 05 08 00 80 03 43 CC [FD BRS]
0.0365227 1 D9x Rx d 13 39 13 00 15 9E F1 DA 21 A0 3D CD 4A 2F [FD BRS]
0.0409560 1 2Dx Rx d 14 7E 60 E1 05 C4 09 00 90 70 97 58 62 6F 52 [FD BRS]
0.0414813 1 D4x Rx d 8 39 04 06 04 1A 3A 32 89 [FD BRS]
0.0456117 1 E3x Rx d 10 05 00 00 0C F5 FC FF 00 00 00 [FD BRS]
0.0458478 1 DCx Rx d 14 39 10 01 10 15 3F 42 30 46 00 66 06 11 9C [FD BRS]
0.0463661 1 18E19490x Rx d 15 02 88 00 64 64 64 01 00 00 00 A2 12 66 B1 00 [FD BRS]
0.0042720 1 E3x Rx d 10 3A 02 00 04 F4 FF FF FF 00 80 [FD BRS]
0.0045051 1 DCx Rx d 13 39 10 00 16 78 E9 B3 AE 2A 0A FA DC DC [FD BRS]
0.0088132 1 DBx Rx d 14 39 0E 00 20 1C 63 AF F3 97 7E 83 1A 3F D6 [FD BRS]
0.0138495 1 DBx Rx d 13 39 0F 00 15 B8 FA B0 20 FF FF 7F CF FF [FD BRS]
0.0142856 1 E3x Rx d 12 41 00 05 08 00 80 03 43 CC 0F 11 B7 [FD BRS]
0.0145908 1 18E19490x Rx d 15 00 00 00 A5 00 00 00 50 01 00 00 00 00 00 00 [FD BRS]
0.0153111 1 D9x Rx d 13 39 13 00 15 2D 6B B2 21 A0 3D 8D 4B 2F [FD BRS]
0.0196564 1 2Dx Rx d 14 F4 DE B9 05 C4 09 00 90 70 97 58 62 6F 52 [FD BRS]
0.0201808 1 D4x Rx d 8 39 04 06 04 7E A4 2A 89 [FD BRS]
0.0203411 1 E3x Rx d 10 05 00 00 0C F5 FC FF 00 00 00 [FD BRS]
0.0244353 1 DCx Rx d 14 39 10 01 10 15 3F 42 30 47 00 26 52 11 9C [FD BRS]
0.0288464 1 DBx Rx d 15 39 0E 01 0F 0C 35 FF FF FF FF FF FF FF BF D2 [FD BRS]
0.0338497 1 DBx Rx d 13 39 0F 00 15 5A EA B1 20 FF FF 7F CF FF [FD BRS]
0.0342340 1 D9x Rx d 13 39 13 00 15 BF 94 B3 21 A0 3D 4D 4B 2F [FD BRS]
0.0346152 1 E3x Rx d 9 41 00 05 08 01 9D DE 93 FF [FD BRS]
0.0396556 1 2Dx Rx d 14 D5 C5 BA 05 C4 09 00 90 70 97 58 62 6F 52 [FD BRS]
0.0401799 1 D4x Rx d 13 39 04 0C 05 0E 0F F4 FF FF 39 0C 14 0C [FD BRS]
0.0442613 1 E3x Rx d 15 39 06 0B 08 00 51 51 14 00 C0 CF FF 39 04 22 [FD BRS]
0.0449244 1 DCx Rx d 13 39 10 00 16 C3 29 B5 AE 2A 0A FA DC DC [FD BRS]
0.0453038 1 18E19490x Rx d 15 01 02 00 37 0D 00 01 80 0C 07 01 BC 02 06 06 [FD BRS]
0.0489109 1 DBx Rx d 14 39 0E 00 20 DC 8B B1 F3 97 7E 83 1A 3F D5 [FD BRS]
0.0027506 1 DCx Rx d 13 39 10 00 16 6F EA 94 AE 32 0A FA DC DC [FD BRS]
0.0031309 1 18E19490x Rx d 15 04 03 00 03 00 03 00 7E 36 ED 0C 3D 0D 22 01 [FD BRS]
0.0072360 1 DBx Rx d 14 39 0E 00 20 36 0B 90 F3 97 7E 83 1A 3F D4 [FD BRS]
0.0120725 1 D9x Rx d 13 39 13 00 15 70 D5 93 23 A0 3C CD 3F 2F [FD BRS]
0.0124497 1 DBx Rx d 13 39 0F 00 15 58 D6 91 20 FF FF 7F CF FF [FD BRS]
0.0180939 1 2Dx Rx d 14 62 ED 9A 05 C4 09 00 90 70 97 58 22 6F 52 [FD BRS]
0.0186203 1 E3x Rx d 9 41 00 01 08 03 90 77 1B AA [FD BRS]
0.0227575 1 DCx Rx d 13 39 10 00 16 7E EF 95 AE 32 0A FA DC D8 [FD BRS]
0.0231417 1 E3x Rx d 8 00 80 00 04 87 E4 EA 04 [FD BRS]
0.0272548 1 DBx Rx d 14 39 0E 00 20 44 33 91 F2 97 7E 83 1A 3F D3 [FD BRS]
0.0323781 1 DBx Rx d 13 39 0F 00 15 7E E7 92 20 FF FF 7F CF FF [FD BRS]
0.0327673 1 E3x Rx d 12 41 00 05 08 00 80 03 43 CC 0E D5 DD [FD BRS]
0.0330764 1 DCx Rx d 9 39 FE 6F 08 94 01 00 80 01 [FD BRS]
0.0332747 1 18E19490x Rx d 15 00 00 00 A5 00 00 00 50 01 00 00 00 00 00 00 [FD BRS]
0.0339900 1 D9x Rx d 13 39 13 00 15 7E 12 94 23 A0 3C 4D 3F 2F [FD BRS]
0.0381753 1 2Dx Rx d 14 7D E4 9B 05 C4 09 00 90 70 97 58 22 6F 52 [FD BRS]
0.0387036 1 D4x Rx d 8 39 04 06 04 24 06 24 89 [FD BRS]
0.0427200 1 E3x Rx d 10 05 00 00 0C F5 FC FF 00 00 00 [FD BRS]
0.0429551 1 DCx Rx d 14 39 10 01 10 15 3F 42 00 47 00 F6 42 10 9C [FD BRS]
0.0473063 1 DBx Rx d 15 39 0E 01 0F 18 35 FF FF FF FF FF FF FF BF D2 [FD BRS]
0.0012024 1 E3x Rx d 8 00 80 00 04 F0 17 E3 04 [FD BRS]
0.0013666 1 DCx Rx d 13 39 10 00 16 AC 45 72 AE 32 0A FA DC D8 [FD BRS]
0.0057667 1 DBx Rx d 14 39 0E 00 20 01 4E 6E F2 97 7E 83 1A 3F D3 [FD BRS]
0.0106119 1 44 Rx d 1 04
0.0108920 1 DBx Rx d 13 39 0F 00 15 0B 99 6F 20 FF FF 7F CF FF [FD BRS]
0.0112772 1 E3x Rx d 9 41 00 05 08 00 80 03 43 CC [FD BRS]
0.0116705 1 D9x Rx d 13 39 13 00 15 20 C4 71 24 A0 3C 0D 3E 2F [FD BRS]
0.0165947 1 2Dx Rx d 14 1B 64 78 05 C4 09 00 90 70 97 58 22 6F 52 [FD BRS]
0.0171181 1 D4x Rx d 8 39 04 06 04 BA D9 1D 89 [FD BRS]
0.0212013 1 DCx Rx d 14 39 10 01 10 15 3F 42 00 47 00 BE 12 0D 9C [FD BRS]
0.0217207 1 18E19490x Rx d 15 02 88 00 64 64 64 01 00 00 00 84 12 D1 9B 00 [FD BRS]
0.0258178 1 DBx Rx d 15 39 0E 01 0F 08 35 FF FF FF FF FF FF FF BF D2 [FD BRS]
0.0307723 1 D9x Rx d 13 39 13 00 15 D6 AF 72 24 A0 3C 4D 3E 2F [FD BRS]
0.0311495 1 DBx Rx d 13 39 0F 00 15 B4 72 70 20 FF FF 7F CF FF [FD BRS]
0.0315357 1 E3x Rx d 9 41 00 05 08 01 16 C4 98 D9 [FD BRS]
0.0366970 1 2Dx Rx d 14 04 6D 79 05 C4 09 00 90 70 97 58 22 6F 52 [FD BRS]
0.0372244 1 D4x Rx d 15 39 04 0C 05 0E 0F F4 FF FF 39 15 01 14 45 01 [FD BRS]
0.0411888 1 E3x Rx d 12 39 06 0B 08 00 51 51 14 00 C0 CF FF [FD BRS]
0.0414940 1 DCx Rx d 13 39 10 00 16 17 85 74 AE 32 0A FA DC D8 [FD BRS]
0.0458101 1 DBx Rx d 14 39 0F 01 06 4D 85 04 60 20 19 39 0E 00 20 [FD BRS]
0.0000793 1 D9x Rx d 14 39 13 00 15 9B 5F 4C 20 A0 3C CD 52 2F 12 [FD BRS]
0.0005905 1 DBx Rx d 13 39 0F 00 15 63 F6 4A 20 FF FF 7F CF FF [FD BRS]
0.0009766 1 18E19490x Rx d 15 02 88 00 64 64 64 01 00 00 00 66 12 A5 D4 00 [FD BRS]
0.0061528 1 2Dx Rx d 14 03 04 53 05 C4 09 00 90 70 97 58 22 6F 52 [FD BRS]
0.0107590 1 DCx Rx d 13 39 10 00 16 E5 B1 4E AE 32 0A FA DC D8 [FD BRS]
0.0153351 1 DBx Rx d 14 39 0E 00 20 18 AF 4A F2 97 7E 83 1A 3F D8 [FD BRS]
0.0200737 1 D9x Rx d 13 39 13 00 15 46 FF 4D 20 A0 3C 4D 51 2F [FD BRS]
0.0205169 1 DBx Rx d 13 39 0F 00 15 81 E6 4B 20 FF FF 7F CF FF [FD BRS]
0.0210581 1 4Fx Rx d 8 28 C3 02 00 09 40 5B 0A [FD BRS]
0.0261664 1 2Dx Rx d 14 5E 3B 54 05 C4 09 00 90 70 97 58 22 6F 52 [FD BRS]
0.0306946 1 DCx Rx d 13 39 10 00 16 C1 19 4F AE 32 0A FA DC D8 [FD BRS]
0.0310788 1 E3x Rx d 10 3A 02 00 04 F4 FF FF FF 00 80 [FD BRS]
0.0313130 1 18E19490x Rx d 15 03 00 00 96 01 96 01 00 00 00 00 00 00 00 00 [FD BRS]
0.0353551 1 DBx Rx d 14 39 0E 00 20 8C 98 4B F2 97 7E 83 1A 3F D6 [FD BRS]
0.0404804 1 DBx Rx d 13 39 0F 00 15 2F 94 4C 20 FF FF 7F CF FF [FD BRS]
0.0408656 1 E3x Rx d 12 41 00 05 08 00 80 03 43 CC 0E 49 F8 [FD BRS]
0.0411709 1 D9x Rx d 13 39 13 00 15 B0 94 4E 20 A0 3C 0D 51 2F [FD BRS]
0.0461891 1 2Dx Rx d 14 41 32 55 05 C4 09 00 90 70 97 58 22 6F 52 [FD BRS]
0.0467145 1 D4x Rx d 8 39 04 06 04 A5 C7 16 89 [FD BRS]
0.0010356 1 DCx Rx d 13 39 10 00 16 0B FB 2A AE 32 0A FA DC D8 [FD BRS]
0.0056707 1 DBx Rx d 14 39 0E 00 20 3A 3B 26 F2 87 7E 83 1A 3F D3 [FD BRS]
0.0103172 1 D9x Rx d 14 39 13 00 15 06 F3 29 23 A0 3C 0D 41 2F 12 [FD BRS]
0.0108314 1 DBx Rx d 13 39 0F 00 15 1F 66 27 20 FF FF 7F CF FF [FD BRS]
0.0164326 1 2Dx Rx d 14 61 4B 30 05 C4 09 00 90 70 97 58 22 6F 52 [FD BRS]
0.0209018 1 DCx Rx d 13 39 10 00 16 2F 53 2B AE 32 0A FA DC D8 [FD BRS]
0.0212831 1 18E19490x Rx d 15 04 03 00 03 00 03 00 7E 36 EE 0C 3C 0D 22 01 [FD BRS]
0.0256202 1 DBx Rx d 14 39 0E 00 20 2E 16 27 F2 87 7E 83 1A 3F D4 [FD BRS]
0.0304027 1 D9x Rx d 13 39 13 00 15 1A F3 2A 24 A0 3C 4D 40 2F [FD BRS]
0.0307789 1 DBx Rx d 13 39 0F 00 15 A1 93 28 20 FF FF 7F CF FF [FD BRS]
0.0364791 1 2Dx Rx d 14 7E 42 31 05 C4 09 00 90 70 97 58 22 6F 52 [FD BRS]
0.0409083 1 DCx Rx d 13 39 10 00 16 B0 3B 2C AE 32 0A FA DC D8 [FD BRS]
0.0412915 1 E3x Rx d 8 00 80 00 04 80 1C D5 04 [FD BRS]
0.0456396 1 DBx Rx d 14 39 0E 00 20 43 DD 28 F2 87 7E 83 1A 3F D4 [FD BRS]
0.0044944 1 2Dx Rx d 14 9E 6A 12 05 C4 09 00 90 70 97 58 22 6F 52 [FD BRS]
0.0089166 1 DCx Rx d 13 39 10 00 16 80 D5 0D AE 32 0A FA DC D8 [FD BRS]
0.0092999 1 18E19490x Rx d 15 04 03 00 03 00 03 00 7E 36 EE 0C 3C 0D 22 01 [FD BRS]
0.0136980 1 DBx Rx d 14 39 0E 00 20 E7 62 09 F1 87 7E 83 1A 3F D5 [FD BRS]
0.0185996 1 D9x Rx d 13 39 13 00 15 55 53 0C 22 A0 3B 4D 4A 2F [FD BRS]
0.0189767 1 DBx Rx d 13 39 0F 00 15 67 8E 0A 20 FF FF 7F CF FF [FD BRS]
0.0245099 1 2Dx Rx d 14 81 63 13 05 C4 09 00 90 70 97 58 22 6F 52 [FD BRS]
0.0289242 1 DCx Rx d 13 39 10 00 16 CD 3D 0E AE 32 0A FA DC D8 [FD BRS]
0.0293054 1 E3x Rx d 8 00 80 00 04 8C 6F CF 04 [FD BRS]
0.0337685 1 DBx Rx d 14 39 0E 00 20 60 61 0A F1 87 7E 83 1A 3F D6 [FD BRS]
0.0385657 1 44 Rx d 1 04
0.0388378 1 DBx Rx d 13 39 0F 00 15 85 9E 0B 20 FF FF 7F CF FF [FD BRS]
0.0392250 1 18E19490x Rx d 15 00 00 00 A5 00 00 00 50 01 00 00 00 00 00 00 [FD BRS]
0.0399412 1 D9x Rx d 13 39 13 00 15 B7 43 0D 22 A0 3B 4D 4A 2F [FD BRS]
0.0403195 1 E3x Rx d 9 41 00 05 08 00 80 03 43 CC [FD BRS]
0.0445169 1 2Dx Rx d 14 DC 5C 14 05 C4 09 00 90 70 97 58 22 6F 52 [FD BRS]
0.0450452 1 D4x Rx d 8 39 04 06 04 EC 08 09 89 [FD BRS]
0.0490064 1 DCx Rx d 14 39 10 01 10 15 3F 42 39 47 00 1E 12 11 9C [FD BRS]
0.0016079 1 DBx Rx d 14 39 0E 00 20 AC D0 E0 D5 B7 7C 83 1A 3F 4D [FD BRS]
0.0063955 1 D9x Rx d 14 39 13 00 15 DE 1A E3 1E A0 1E 4D 5E 2F 12 [FD BRS]
0.0069046 1 DBx Rx d 13 39 0F 00 15 5F 8C E1 20 FF FF 7F CF FF [FD BRS]
0.0072918 1 18E19490x Rx d 15 02 88 00 64 64 64 01 00 00 00 5B 12 8B FE 00 [FD BRS]
0.0123430 1 2Dx Rx d 14 14 06 EA 05 C4 09 00 90 70 97 58 62 6E 52 [FD BRS]
0.0168282 1 DCx Rx d 13 39 10 00 16 C7 EE E5 AE 3A 0A FA DC 60 [FD BRS]
0.0215564 1 DBx Rx d 14 39 0E 00 20 83 B5 E1 D5 B7 7C 83 1A 3F 55 [FD BRS]
0.0263999 1 D9x Rx d 13 39 13 00 15 D7 EF E4 1E A0 1F CD 60 2F [FD BRS]
0.0267801 1 DBx Rx d 13 39 0F 00 15 79 BD E2 20 FF FF 7F CF FF [FD BRS]
0.0271643 1 DC08E2 Rx d 8 40 02 00 00 00 00 00 00
0.0323445 1 2Dx Rx d 14 0B 0F EB 05 C4 09 00 90 70 97 58 62 6E 52 [FD BRS]
0.0367877 1 DCx Rx d 13 39 10 00 16 8A 06 E6 AE 3A 0A FA DC 60 [FD BRS]
0.0371699 1 E3x Rx d 8 00 80 00 04 4F EA C7 04 [FD BRS]
0.0373330 1 18E19490x Rx d 15 03 00 00 8C 01 8C 01 00 00 00 00 00 00 05 00 [FD BRS]
0.0415741 1 DBx Rx d 14 39 0E 00 20 5E C2 E2 D5 A7 7C 83 1A 3F 58 [FD BRS]
0.0463703 1 44 Rx d 1 04
0.0466945 1 DBx Rx d 13 39 0F 00 15 9B AD E3 20 FF FF 7F CF FF [FD BRS]
0.0470807 1 E3x Rx d 9 41 00 05 08 00 80 03 43 CC [FD BRS]
0.0476640 1 D9x Rx d 13 39 13 00 15 1F 60 E5 1E A0 1F 4D 61 2F [FD BRS]
0.0037619 1 D9x Rx d 14 39 13 00 15 78 82 C0 1E A0 3A 8D 60 2F 12 [FD BRS]
0.0042751 1 DBx Rx d 13 39 0F 00 15 E4 1F BE 20 FF FF 7F CF FF [FD BRS]
0.0096624 1 2Dx Rx d 14 FD 65 C7 05 C4 09 00 90 70 97 58 62 6F 52 [FD BRS]
0.0139806 1 DCx Rx d 13 39 10 00 16 88 62 C2 AE 32 0A FA DC D0 [FD BRS]
0.0143609 1 18E19490x Rx d 15 04 03 00 03 00 03 00 7E 36 ED 0C 3B 0D 22 01 [FD BRS]
0.0188780 1 DBx Rx d 14 39 0E 00 20 78 C3 BE EE 47 7E 83 1A 3F CB [FD BRS]
0.0236775 1 D9x Rx d 13 39 13 00 15 2B B3 C1 1E A0 3B CD 60 2F [FD BRS]
0.0240547 1 DBx Rx d 13 39 0F 00 15 06 0F BF 20 FF FF 7F CF FF [FD BRS]
0.0296579 1 2Dx Rx d 14 58 12 C8 05 C4 09 00 90 70 97 58 62 6F 52 [FD BRS]
0.0340031 1 DCx Rx d 13 39 10 00 16 99 67 C3 AE 32 0A FA DC D4 [FD BRS]
0.0343993 1 E3x Rx d 8 00 80 00 04 62 BB C0 04 [FD BRS]
0.0388965 1 DBx Rx d 14 39 0E 00 20 4A ED BF EE 57 7E 83 1A 3F D5 [FD BRS]
0.0439937 1 18E19490x Rx d 15 00 00 00 A5 00 00 00 50 01 00 00 00 00 00 00 [FD BRS]
0.0447118 1 DBx Rx d 13 39 0F 00 15 BF A0 C0 20 FF FF 7F CF FF [FD BRS]
0.0451000 1 D9x Rx d 13 39 13 00 15 DD D8 C2 1E A0 3B 8D 60 2F [FD BRS]
0.0454763 1 E3x Rx d 9 41 00 05 08 00 80 03 43 CC [FD BRS]
0.0001129 1 DCx Rx d 14 3A 00 51 08 06 01 00 00 00 00 00 00 39 10 [FD BRS]
0.0006421 1 E3x Rx d 14 39 06 0B 08 00 51 51 14 00 C0 CF FF 39 04 [FD BRS]
0.0011615 1 4Fx Rx d 8 20 97 0B A0 00 49 9C B8 [FD BRS]
0.0051486 1 DBx Rx d 14 39 0E 00 20 45 08 99 E8 E7 7D 83 1A 3F EC [FD BRS]
0.0096831 1 D9x Rx d 13 39 13 00 15 CA 2F 9C 1F A0 2A CD 59 2F [FD BRS]
0.0101893 1 DBx Rx d 13 39 0F 00 15 6E 60 9A 20 FF FF 7F CF FF [FD BRS]
0.0157735 1 2Dx Rx d 14 EB 0D A3 05 C4 09 00 90 70 97 58 A2 6E 52 [FD BRS]
0.0201037 1 DCx Rx d 13 39 10 00 16 0F 5D 9E AE 32 0A FA DC 8C [FD BRS]
0.0204860 1 18E19490x Rx d 15 00 00 00 A5 00 00 00 50 01 00 00 00 00 00 00 [FD BRS]
0.0248186 1 D9x Rx d 14 39 FE 28 08 29 00 00 00 00 00 00 00 39 13 [FD BRS]
0.0253427 1 DBx Rx d 14 39 0E 00 20 CC 72 9A E5 C7 7D 83 1A 3F D9 [FD BRS]
0.0300820 1 21Cx Rx d 15 11 02 01 0C 0B B8 0B 54 0A 28 09 C4 07 D0 05 [FD BRS]
0.0307843 1 DBx Rx d 13 39 0F 00 15 8C 70 9B 20 FF FF 7F CF FF [FD BRS]
0.0311715 1 21Dx Rx d 3 30 40 28 [FD BRS]
0.0313267 1 21Cx Rx d 15 21 00 00 00 00 00 00 00 00 00 00 00 00 00 00 [FD BRS]
0.0346511 1 D9x Rx d 10 39 13 01 0B 55 BA 58 55 95 00 [FD BRS]
0.0358053 1 2Dx Rx d 14 2C 1F A4 05 C4 09 00 90 70 97 58 62 6E 52 [FD BRS]
0.0400495 1 DCx Rx d 13 39 10 00 16 1E 58 9F AE 32 0A FA DC 88 [FD BRS]
0.0451486 1 DBx Rx d 14 39 0E 00 20 17 B7 9B E3 A7 7D 83 1A 3F C9 [FD BRS]
0.0495031 1 D9x Rx d 13 39 13 00 15 83 A7 9E 1F A0 28 8D 5A 2F [FD BRS]
0.0010974 1 2Dx Rx d 14 3D 34 81 05 C4 09 00 90 70 97 58 62 6F 52 [FD BRS]
0.0053516 1 DCx Rx d 13 39 10 00 16 EC 73 7C AE 32 0A FA DC D4 [FD BRS]
0.0103277 1 DBx Rx d 14 39 0E 00 20 83 E8 78 F1 77 7E 83 1A 3F D3 [FD BRS]
0.0147703 1 D9x Rx d 13 39 13 00 15 C9 C0 7B 1D A0 3B 0D 60 2F [FD BRS]
0.0155054 1 DBx Rx d 13 39 0F 00 15 46 E5 79 20 FF FF 7F CF FF [FD BRS]
0.0158926 1 E3x Rx d 10 32 04 00 0C 40 95 65 53 67 07 [FD BRS]
0.0210950 1 2Dx Rx d 14 1C 2F 82 05 C4 09 00 90 70 97 58 62 6F 52 [FD BRS]
0.0253002 1 DCx Rx d 13 39 10 00 16 C8 DB 7D AE 32 0A FA DC D4 [FD BRS]
0.0256835 1 18E19490x Rx d 15 03 00 00 98 01 98 01 00 00 00 00 00 00 00 00 [FD BRS]
0.0264057 1 E3x Rx d 8 00 80 00 04 7F 14 B2 04 [FD BRS]
0.0303469 1 DBx Rx d 14 39 0E 00 20 D8 79 79 F1 77 7E 83 1A 3F D9 [FD BRS]
0.0354671 1 DBx Rx d 13 39 0F 00 15 60 D4 7A 20 FF FF 7F CF FF [FD BRS]
0.0358543 1 D9x Rx d 13 39 13 00 15 17 5D 7C 1D A0 3B CD 60 2F [FD BRS]
0.0362316 1 E3x Rx d 9 41 00 05 08 00 80 03 43 CC [FD BRS]
0.0411310 1 2Dx Rx d 14 75 3D 83 05 C4 09 00 90 70 97 58 22 6F 52 [FD BRS]
0.0416553 1 D4x Rx d 8 39 04 06 04 43 30 EC 89 [FD BRS]
0.0453105 1 DCx Rx d 14 39 10 01 10 15 3F 42 32 47 00 36 46 11 9C [FD BRS]
0.0005572 1 DBx Rx d 15 39 0E 01 0F 48 34 FF FF FF FF FF FF FF BF D2 [FD BRS]
0.0051137 1 D9x Rx d 13 39 13 00 15 4A 5D 5A 1E A0 0F 8D 5F 2F [FD BRS]
0.0056649 1 DBx Rx d 13 39 0F 00 15 A6 C9 58 20 FF FF 7F CF FF [FD BRS]
0.0060521 1 E3x Rx d 9 41 00 05 08 01 DA 3D 68 F1 [FD BRS]
0.0112485 1 2Dx Rx d 14 C9 9A 61 05 C4 09 00 90 70 97 58 62 6E 52 [FD BRS]
0.0117728 1 D4x Rx d 15 39 04 0C 05 41 44 F4 FF FF 39 15 01 14 45 01 [FD BRS]
0.0153820 1 DCx Rx d 13 39 10 00 16 3E 8F 5C AE 42 0A FA DA 24 [FD BRS]
0.0157634 1 18E19490x Rx d 15 01 0A 00 08 0D 00 01 80 0C 0C 01 BC 02 06 06 [FD BRS]
0.0164666 1 E3x Rx d 12 39 06 0B 08 00 51 51 14 00 C0 CF FF [FD BRS]
0.0205507 1 DBx Rx d 14 39 0F 01 06 4D 85 04 60 A8 18 39 0E 00 20 [FD BRS]
0.0248852 1 D9x Rx d 13 39 13 00 15 A8 4D 5B 1E A0 0F 8D 5F 2F [FD BRS]
0.0256604 1 DBx Rx d 13 39 0F 00 15 44 D9 59 20 FF FF 7F CF FF [FD BRS]
0.0312466 1 2Dx Rx d 14 E8 81 62 05 C4 09 00 90 70 97 58 62 6E 52 [FD BRS]
0.0354368 1 DCx Rx d 13 39 10 00 16 47 A7 5D AE 42 2A FA DA 20 [FD BRS]
0.0404829 1 DBx Rx d 14 39 0E 00 20 87 AB 59 C6 B7 7B 83 1A 3F 8A [FD BRS]
0.0448894 1 D9x Rx d 14 39 13 00 15 B5 C0 5C 1E A0 0F 0D 60 2F 12 [FD BRS]
0.0454036 1 18E19490x Rx d 15 02 88 00 64 64 64 01 00 00 00 95 12 97 DD 00 [FD BRS]
0.0461117 1 DBx Rx d 13 39 0F 00 15 62 E8 5A 20 FF FF 7F CF FF [FD BRS]
0.0016771 1 DBx Rx d 14 39 0E 00 20 52 99 35 CE 47 7C 83 1A 3F D3 [FD BRS]
0.0062836 1 D9x Rx d 13 39 13 00 15 C6 91 38 1E A0 16 0D 60 2F [FD BRS]
0.0066608 1 18E19490x Rx d 15 03 00 00 98 01 98 01 00 00 00 00 00 00 06 00 [FD BRS]
0.0073830 1 DBx Rx d 13 39 0F 00 15 FC 68 36 20 FF FF 7F CF FF [FD BRS]
0.0124932 1 2Dx Rx d 14 01 12 3F 05 C4 09 00 90 70 97 58 62 6E 52 [FD BRS]
0.0167003 1 DCx Rx d 13 39 10 00 16 6F 92 3A AE 42 0A FA DC 40 [FD BRS]
0.0214039 1 D9x Rx d 14 39 FE 28 08 29 00 00 00 00 00 00 00 39 13 [FD BRS]
0.0219301 1 DBx Rx d 14 39 0E 00 20 8A DC 36 CE 37 7C 83 1A 3F D0 [FD BRS]
0.0268934 1 21Cx Rx d 15 11 02 01 0B 77 04 7C 18 7E 0C 80 00 83 E8 87 [FD BRS]
0.0275937 1 DBx Rx d 13 39 0F 00 15 1E 78 37 20 FF FF 7F CF FF [FD BRS]
0.0279789 1 21Dx Rx d 3 30 40 28 [FD BRS]
0.0281340 1 21Cx Rx d 15 21 00 00 00 00 00 00 00 00 00 00 00 00 00 00 [FD BRS]
0.0312745 1 D9x Rx d 10 39 13 01 0B 55 BA 58 55 95 00 [FD BRS]
0.0324987 1 2Dx Rx d 14 17 A0 40 05 C4 09 00 90 70 97 58 62 6E 52 [FD BRS]
0.0365719 1 DCx Rx d 13 39 10 00 16 4B 3A 3B AE 42 0A FA DC 40 [FD BRS]
0.0369533 1 18E19490x Rx d 15 04 03 00 03 00 03 00 7E 36 ED 0C 16 0D 22 01 [FD BRS]
0.0420284 1 DBx Rx d 14 39 0E 00 20 B4 C7 37 CD 37 7C 83 1A 3F D0 [FD BRS]
0.0461018 1 D9x Rx d 13 39 13 00 15 A2 05 3A 1E A0 16 8D 60 2F [FD BRS]
0.0469520 1 DBx Rx d 13 39 0F 00 15 A0 8D 38 20 FF FF 7F CF FF [FD BRS]
0.0474142 1 4Fx Rx d 8 28 E9 07 00 27 0F E4 24 [FD BRS]
0.0005661 1 DBx Rx d 13 39 0F 00 15 94 07 13 20 FF FF 7F CF FF [FD BRS]
0.0060483 1 2Dx Rx d 14 52 0F 1C 05 C4 09 00 90 70 97 58 62 6F 52 [FD BRS]
0.0101115 1 DCx Rx d 13 39 10 00 16 CF 27 17 AE 2A 0A FA DC DC [FD BRS]
0.0104929 1 18E19490x Rx d 15 00 00 00 A5 00 00 00 50 01 00 00 00 00 00 00 [FD BRS]
0.0151680 1 DBx Rx d 14 39 0E 00 20 DB 58 13 F4 A7 7E 83 1A 3F C8 [FD BRS]
0.0196185 1 D9x Rx d 14 39 13 00 15 79 9D 16 1F A0 3C CD 59 2F 12 [FD BRS]
0.0205797 1 DBx Rx d 13 39 0F 00 15 3A 75 14 20 FF FF 7F CF FF [FD BRS]
0.0260739 1 2Dx Rx d 14 4D 06 1D 05 C4 09 00 90 70 97 58 62 6F 52 [FD BRS]
0.0300611 1 DCx Rx d 13 39 10 00 16 D5 5E 18 AE 2A 0A FA DC DC [FD BRS]
0.0351682 1 DBx Rx d 14 39 0E 00 20 C1 1F 14 F4 A7 7E 83 1A 3F BD [FD BRS]
0.0396117 1 D9x Rx d 13 39 13 00 15 4D A7 17 1F A0 3B 8D 59 2F [FD BRS]
0.0400289 1 18E19490x Rx d 15 01 02 00 34 0D 00 01 80 0C 07 01 BC 02 06 06 [FD BRS]
0.0407331 1 DBx Rx d 13 39 0F 00 15 D8 65 15 20 FF FF 7F CF FF [FD BRS]
0.0460533 1 2Dx Rx d 14 6C 1D 1E 05 C4 09 00 90 70 97 58 62 6F 52 [FD BRS]
0.0465796 1 E3x Rx d 10 32 04 00 0C A1 18 63 53 67 07 [FD BRS]
0.0000043 1 2E8 Rx d 4 8E DB 6C A4
0.0044795 1 DBx Rx d 14 39 0E 00 20 2D 0F ED D0 67 7C 83 1A 3F F7 [FD BRS]
0.0092717 1 18E19490x Rx d 15 00 00 00 A5 00 00 00 50 01 00 00 00 00 00 00 [FD BRS]
0.0099878 1 DBx Rx d 13 39 0F 00 15 E1 79 EE 20 FF FF 7F CF FF [FD BRS]
0.0103740 1 D9x Rx d 13 39 13 00 15 62 B2 F0 20 A0 1A 4D 51 2F [FD BRS]
0.0107533 1 E3x Rx d 12 41 00 05 08 00 80 03 43 CC 0B 8D 3F [FD BRS]
0.0153477 1 2Dx Rx d 14 7F F2 F7 05 C4 09 00 90 70 97 58 62 6E 52 [FD BRS]
0.0158721 1 D4x Rx d 8 39 04 06 04 98 53 D0 89 [FD BRS]
0.0193492 1 DCx Rx d 14 39 10 01 10 15 3F 42 30 46 00 56 12 11 9C [FD BRS]
0.0246683 1 DBx Rx d 15 39 0E 01 0F 78 34 FF FF FF FF FF FF FF BF D2 [FD BRS]
0.0253915 1 E3x Rx d 13 41 00 05 08 01 29 27 49 6F E0 C0 76 05 [FD BRS]
0.0291070 1 D9x Rx d 13 39 13 00 15 53 2A F1 1E A0 1B 0D 5B 2F [FD BRS]
0.0298612 1 DBx Rx d 13 39 0F 00 15 03 69 EF 20 FF FF 7F CF FF [FD BRS]
0.0353594 1 2Dx Rx d 14 DA 85 F8 05 C4 09 00 90 70 97 58 62 6E 52 [FD BRS]
0.0358838 1 D4x Rx d 13 39 04 0C 05 26 2A F4 FF FF 39 0C 14 0C [FD BRS]
0.0392660 1 DCx Rx d 13 39 10 00 16 01 3B F3 AE 42 0A FA DC 50 [FD BRS]
0.0396493 1 18E19490x Rx d 15 01 07 00 14 0D 00 01 80 0C 0C 01 BC 02 06 06 [FD BRS]
0.0403555 1 E3x Rx d 15 39 06 0B 08 00 51 51 14 00 C0 CF FF 39 04 22 [FD BRS]
0.0445196 1 DBx Rx d 14 39 0E 00 20 38 8C EF D0 67 7C 83 1A 3F 0B [FD BRS]
0.0488481 1 D9x Rx d 13 39 13 00 15 07 D3 F2 1E A0 1C 8D 5F 2F [FD BRS]
0.0023758 1 2Dx Rx d 14 A1 C8 D6 05 C4 09 00 90 70 97 58 62 6E 52 [FD BRS]
0.0063840 1 DCx Rx d 13 39 10 00 16 A8 32 D1 AE 3A 0A FA DC 74 [FD BRS]
0.0115171 1 DBx Rx d 14 39 0E 00 20 E8 81 CD DC 27 7D 83 1A 3F 65 [FD BRS]
0.0161206 1 D9x Rx d 14 39 13 00 15 FC B6 D0 1F A0 23 4D 59 2F 12 [FD BRS]
0.0169298 1 DBx Rx d 13 39 0F 00 15 E3 45 CE 20 FF FF 7F CF FF [FD BRS]
0.0223820 1 2Dx Rx d 14 24 EC D7 05 C4 09 00 90 70 97 58 A2 6E 52 [FD BRS]
0.0262581 1 DCx Rx d 13 39 10 00 16 D0 77 D2 AE 3A 0A FA DC 70 [FD BRS]
0.0266405 1 18E19490x Rx d 15 04 03 00 03 00 03 00 7E 36 ED 0C 23 0D 22 01 [FD BRS]
0.0315146 1 DBx Rx d 14 39 0E 00 20 08 9F CE DB 17 7D 83 1A 3F 5E [FD BRS]
0.0361051 1 D9x Rx d 13 39 13 00 15 0A DE D1 1F A0 22 4D 58 2F [FD BRS]
0.0369113 1 DBx Rx d 13 39 0F 00 15 01 55 CF 20 FF FF 7F CF FF [FD BRS]
0.0423975 1 2Dx Rx d 14 1B B6 D8 05 C4 09 00 90 70 97 58 62 6E 52 [FD BRS]
0.0462807 1 DCx Rx d 13 39 10 00 16 F4 DF D3 AE 3A 0A FA DC 70 [FD BRS]
0.0470319 1 E3x Rx d 8 00 80 00 04 59 CE 90 04 [FD BRS]
0.0015092 1 D9x Rx d 13 39 13 00 15 58 A6 AB 1E A0 3D 4D 5E 2F [FD BRS]
0.0018874 1 18E19490x Rx d 15 04 03 00 03 00 03 00 88 36 ED 0C 3E 0D 22 01 [FD BRS]
0.0026135 1 DBx Rx d 13 39 0F 00 15 4B 73 A9 20 FF FF 7F CF FF [FD BRS]
0.0078408 1 2Dx Rx d 14 B7 A0 B2 05 C4 09 00 90 70 97 58 A2 6F 52 [FD BRS]
0.0083681 1 D4x Rx d 13 39 04 0C 05 0E 0F F4 FF FF 39 0C 14 0C [FD BRS]
0.0117683 1 DCx Rx d 13 39 10 00 16 D0 36 AD AE 32 0A FA DC DC [FD BRS]
0.0124545 1 E3x Rx d 15 39 06 0B 08 00 51 51 14 00 C0 CF FF 39 04 22 [FD BRS]
0.0170366 1 DBx Rx d 14 39 0E 00 20 4C 69 A9 F0 67 7E 83 1A 3F C0 [FD BRS]
0.0212481 1 D9x Rx d 13 39 13 00 15 86 3B AC 1E A0 3D 8D 5E 2F [FD BRS]
0.0224403 1 DBx Rx d 13 39 0F 00 15 6D 42 AA 20 FF FF 7F CF FF [FD BRS]
0.0278025 1 2Dx Rx d 14 44 9F B3 05 C4 09 00 90 70 97 58 22 6F 52 [FD BRS]
0.0317356 1 DCx Rx d 13 39 10 00 16 9D DE AE AE 32 0A FA DC DC [FD BRS]
0.0321160 1 18E19490x Rx d 15 00 00 00 A5 00 00 00 50 01 00 00 00 00 00 00 [FD BRS]
0.0369541 1 DBx Rx d 14 39 0E 00 20 D2 09 AA F1 77 7E 83 1A 3F C6 [FD BRS]
0.0414196 1 D9x Rx d 14 39 13 00 15 C2 4A AD 1E A0 3E 4D 5F 2F 12 [FD BRS]
0.0423608 1 DBx Rx d 13 39 0F 00 15 8F 52 AB 20 FF FF 7F CF FF [FD BRS]
0.0478270 1 2Dx Rx d 14 F5 96 B4 05 C4 09 00 90 70 97 58 A2 6F 52 [FD BRS]
0.0009620 1 2Dx Rx d 14 B3 BD 92 05 C4 09 00 90 70 97 58 E2 6E 52 [FD BRS]
0.0046682 1 DCx Rx d 13 39 10 00 16 0E E5 8D AE 32 0A FA DC A4 [FD BRS]
0.0050505 1 18E19490x Rx d 15 03 00 00 95 01 95 01 00 00 00 00 00 00 04 00 [FD BRS]
0.0057707 1 E3x Rx d 10 3A 02 00 04 F4 FF FF FF 00 80 [FD BRS]
0.0101779 1 DBx Rx d 14 39 0E 00 20 4A 23 89 E9 F7 7D 83 1A 3F FA [FD BRS]
0.0154311 1 DBx Rx d 13 39 0F 00 15 6F 7E 8A 20 FF FF 7F CF FF [FD BRS]
0.0158193 1 D9x Rx d 13 39 13 00 15 E0 5D 8C 1F A0 2F 0D 5A 2F [FD BRS]
0.0161996 1 E3x Rx d 12 41 00 05 08 00 80 03 43 CC 0A C5 5E [FD BRS]
0.0209770 1 2Dx Rx d 14 DA AF 93 05 C4 09 00 90 70 97 58 A2 6E 52 [FD BRS]
0.0215023 1 D4x Rx d 8 39 04 06 04 78 45 BC 89 [FD BRS]
0.0246815 1 DCx Rx d 14 39 10 01 10 15 3F 42 00 46 00 B6 52 11 9C [FD BRS]
0.0303146 1 DBx Rx d 15 39 0E 01 0F D8 34 FF FF FF FF FF FF FF CF D2 [FD BRS]
0.0309778 1 E3x Rx d 13 41 00 05 08 01 0C DF 76 A5 CC 49 84 05 [FD BRS]
0.0346133 1 D9x Rx d 13 39 13 00 15 D3 C0 8D 21 A0 2F 0D 4F 2F [FD BRS]
0.0349885 1 18E19490x Rx d 15 04 03 00 03 00 03 00 7E 36 ED 0C 2E 0D 22 01 [FD BRS]
0.0357126 1 DBx Rx d 13 39 0F 00 15 8D 6E 8B 20 FF FF 7F CF FF [FD BRS]
0.0409799 1 2Dx Rx d 14 F1 8B 94 05 C4 09 00 90 70 97 58 E2 6E 52 [FD BRS]
0.0415052 1 D4x Rx d 13 39 04 0C 05 2D 30 F4 FF FF 39 0C 14 0C [FD BRS]
0.0447344 1 DCx Rx d 13 39 10 00 16 52 08 8F AE 32 0A FA DC A0 [FD BRS]
0.0455646 1 E3x Rx d 15 39 06 0B 08 00 51 51 14 00 C0 CF FF 39 04 22 [FD BRS]
0.0043012 1 DBx Rx d 14 39 0E 00 20 A2 61 69 F5 B7 7E 83 1A 3F D9 [FD BRS]
0.0085097 1 D9x Rx d 14 39 13 00 15 D7 AD 6C 1E A0 40 8D 5F 2F 12 [FD BRS]
0.0090248 1 18E19490x Rx d 15 02 88 00 64 64 64 01 00 00 00 EF 12 9D EF 00 [FD BRS]
0.0098030 1 DBx Rx d 13 39 0F 00 15 61 CA 6A 20 FF FF 7F CF FF [FD BRS]
0.0151432 1 2Dx Rx d 14 B4 2C 73 05 C4 09 00 90 70 97 58 62 6F 52 [FD BRS]
0.0188594 1 DCx Rx d 13 39 10 00 16 F6 77 6E AE 2A 0A FA DC E8 [FD BRS]
0.0243005 1 DBx Rx d 14 39 0E 00 20 00 41 6A F5 C7 7E 83 1A 3F D5 [FD BRS]
0.0285040 1 D9x Rx d 13 39 13 00 15 35 BD 6D 1E A0 40 8D 5F 2F [FD BRS]
0.0297422 1 DBx Rx d 13 39 0F 00 15 83 DA 6B 20 FF FF 7F CF FF [FD BRS]
0.0351404 1 2Dx Rx d 14 E9 13 74 05 C4 09 00 90 70 97 58 62 6F 52 [FD BRS]
0.0387926 1 DCx Rx d 13 39 10 00 16 D2 DF 6F AE 2A 0A FA DC E8 [FD BRS]
0.0391769 1 18E19490x Rx d 15 03 00 00 95 01 95 01 00 00 00 00 00 00 00 00 [FD BRS]
0.0398981 1 E3x Rx d 8 00 80 00 04 81 05 7C 04 [FD BRS]
0.0443212 1 DBx Rx d 14 39 0E 00 20 05 27 6B F6 C7 7E 83 1A 3F D8 [FD BRS]
0.0488394 1 DCx Rx d 9 39 FE 6F 08 94 01 00 80 01 [FD BRS]
0.0494737 1 D9x Rx d 13 39 13 00 15 66 8F 6E 1E A0 40 8D 5E 2F [FD BRS]
0.0007995 1 DBx Rx d 13 39 0F 00 15 CD 84 4D 20 FF FF 7F CF FF [FD BRS]
0.0011847 1 E3x Rx d 10 32 04 00 0C CE 3C 5F 53 67 07 [FD BRS]
0.0062150 1 2Dx Rx d 14 3F 2A 56 05 C4 09 00 90 70 97 58 A2 6E 52 [FD BRS]
0.0098072 1 DCx Rx d 13 39 10 00 16 DA 34 51 AE 32 0A FA DC 9C [FD BRS]
0.0101885 1 18E19490x Rx d 15 03 00 00 90 01 90 01 00 00 00 00 00 00 03 00 [FD BRS]
0.0109077 1 E3x Rx d 8 00 80 00 04 2A 6D 76 04 [FD BRS]
0.0153039 1 DBx Rx d 14 39 0E 00 20 76 9F 4D E5 C7 7D 83 1A 3F D8 [FD BRS]
0.0204664 1 D9x Rx d 13 39 13 00 15 C7 16 50 1F A0 2D CD 5A 2F [FD BRS]
0.0208426 1 DBx Rx d 13 39 0F 00 15 EB B5 4E 20 FF FF 7F CF FF [FD BRS]
0.0212278 1 E3x Rx d 9 41 00 05 08 00 80 03 43 CC [FD BRS]
0.0263421 1 2Dx Rx d 14 56 38 57 05 C4 09 00 90 70 97 58 E2 6E 52 [FD BRS]
0.0268675 1 D4x Rx d 8 39 04 06 04 4A 0A B0 89 [FD BRS]
0.0298317 1 DCx Rx d 14 39 10 01 10 15 3F 42 30 46 00 56 12 11 9C [FD BRS]
0.0355918 1 DBx Rx d 15 39 0E 01 0F F0 34 FF FF FF FF FF FF FF CF D2 [FD BRS]
0.0362940 1 E3x Rx d 13 41 00 05 08 01 FD 88 49 92 6B 44 87 05 [FD BRS]
0.0398064 1 D9x Rx d 13 39 13 00 15 EA 13 51 1E A0 2D 4D 5D 2F [FD BRS]
0.0401826 1 18E19490x Rx d 15 04 03 00 03 00 03 00 88 36 ED 0C 2D 0D 22 01 [FD BRS]
0.0409068 1 DBx Rx d 13 39 0F 00 15 09 A5 4F 20 FF FF 7F CF FF [FD BRS]
0.0462430 1 2Dx Rx d 14 85 54 58 05 C4 09 00 90 70 97 58 A2 6E 52 [FD BRS]
0.0467684 1 D4x Rx d 13 39 04 0C 05 2D 30 F4 FF FF 39 0C 14 0C [FD BRS]
0.0000460 1 DCx Rx d 13 39 10 00 16 94 EE 30 AE 2A 0A FA DC E4 [FD BRS]
0.0004273 1 18E19490x Rx d 15 01 02 00 3A 0D 00 01 80 0C 07 01 BC 02 06 06 [FD BRS]
0.0011315 1 E3x Rx d 12 39 06 0B 08 00 51 51 14 00 C0 CF FF [FD BRS]
0.0056436 1 DBx Rx d 14 39 0F 01 06 4D 85 04 60 A8 18 39 0E 00 20 [FD BRS]
0.0097901 1 D9x Rx d 13 39 13 00 15 D6 AC 2F 23 A0 3F 8D 42 2F [FD BRS]
0.0110543 1 DBx Rx d 13 39 0F 00 15 CB C0 2D 20 FF FF 7F CF FF [FD BRS]
0.0165045 1 2Dx Rx d 14 23 7D 36 05 C4 09 00 90 70 97 58 22 6F 52 [FD BRS]
0.0200937 1 DCx Rx d 13 39 10 00 16 CE A1 31 AE 2A 0A FA DC E8 [FD BRS]
0.0256678 1 DBx Rx d 14 39 0E 00 20 31 E4 2D F5 C7 7E 83 1A 3F CE [FD BRS]
0.0297923 1 D9x Rx d 14 39 13 00 15 53 F6 30 23 A0 40 CD 42 2F 12 [FD BRS]
0.0303055 1 18E19490x Rx d 15 02 88 00 64 64 64 01 00 00 00 62 12 F8 A9 00 [FD BRS]
0.0310986 1 DBx Rx d 13 39 0F 00 15 ED F1 2E 20 FF FF 7F CF FF [FD BRS]
0.0364978 1 2Dx Rx d 14 3C 74 37 05 C4 09 00 90 70 97 58 22 6F 52 [FD BRS]
0.0401010 1 DCx Rx d 13 39 10 00 16 83 49 32 AE 2A 0A FA DC E8 [FD BRS]
0.0457191 1 DBx Rx d 14 39 0E 00 20 F9 48 2E F5 C7 7E 83 1A 3F CE [FD BRS]
0.0044659 1 D9x Rx d 14 39 FE 28 08 29 00 00 00 00 00 00 00 39 13 [FD BRS]
0.0051221 1 DBx Rx d 14 39 0E 00 20 84 D1 0A F6 C7 7E 83 1A 3F D1 [FD BRS]
0.0103683 1 21Cx Rx d 15 11 02 01 08 00 01 00 1D 00 4F 00 F8 02 9A 04 [FD BRS]
0.0110505 1 DBx Rx d 13 39 0F 00 15 85 9E 0B 20 FF FF 7F CF FF [FD BRS]
0.0114369 1 21Dx Rx d 3 30 40 28 [FD BRS]
0.0115920 1 21Cx Rx d 15 21 00 F8 02 9A 04 95 05 C0 05 C0 00 00 00 01 [FD BRS]
0.0142964 1 D9x Rx d 10 39 13 01 0B 55 BA 58 55 95 00 [FD BRS]
0.0158946 1 2Dx Rx d 14 AA 47 14 05 C4 09 00 90 70 97 58 62 6F 52 [FD BRS]
0.0193708 1 DCx Rx d 13 39 10 00 16 EE 15 0F AE 2A 0A FA DC E8 [FD BRS]
0.0197542 1 18E19490x Rx d 15 04 03 00 03 00 03 00 7E 36 ED 0C 41 0D 22 01 [FD BRS]
0.0250393 1 DBx Rx d 14 39 0E 00 20 A9 8F 0B F6 C7 7E 83 1A 3F D3 [FD BRS]
0.0291488 1 D9x Rx d 13 39 13 00 15 F8 02 0E 22 A0 40 0D 47 2F [FD BRS]
0.0307210 1 DBx Rx d 13 39 0F 00 15 2B EC 0C 20 FF FF 7F CF FF [FD BRS]
0.0311081 1 4Fx Rx d 8 28 93 0B 00 27 15 2C D2 [FD BRS]
0.0350502 1 21Cx Rx d 15 22 C0 00 00 00 01 00 1D 00 3B 00 B2 02 36 04 [FD BRS]
0.0359234 1 2Dx Rx d 14 B5 4E 15 05 C4 09 00 90 70 97 58 62 6F 52 [FD BRS]
0.0393766 1 DCx Rx d 13 39 10 00 16 FE 4F 10 AE 2A 0A FA DC E8 [FD BRS]
0.0405888 1 E3x Rx d 8 00 80 00 04 63 A2 69 04 [FD BRS]
0.0450110 1 DBx Rx d 14 39 FE 0B 08 61 00 00 00 01 00 00 00 39 0E [FD BRS]
0.0013504 1 2Dx Rx d 14 A5 D5 F6 05 C4 09 00 90 70 97 58 22 6F 52 [FD BRS]
0.0047686 1 DCx Rx d 13 39 10 00 16 97 25 F1 AE 2A 0A FA DC E8 [FD BRS]
0.0051510 1 18E19490x Rx d 15 04 04 00 03 00 03 00 7E 36 ED 0C 41 0D 22 01 [FD BRS]
0.0104501 1 DBx Rx d 14 39 0E 00 20 98 8C ED F6 D7 7E 83 1A 3F D8 [FD BRS]
0.0145686 1 D9x Rx d 13 39 13 00 15 C1 78 F0 21 A0 40 CD 4F 2F [FD BRS]
0.0149498 1 DC08E2 Rx d 8 40 02 00 00 00 00 00 00
0.0159439 1 DBx Rx d 13 39 0F 00 15 E1 79 EE 20 FF FF 7F CF FF [FD BRS]
0.0214171 1 2Dx Rx d 14 BA DC F7 05 C4 09 00 90 70 97 58 22 6F 52 [FD BRS]
0.0247763 1 DCx Rx d 13 39 10 00 16 EF 60 F2 AE 2A 0A FA DC EC [FD BRS]
0.0260835 1 E3x Rx d 8 00 80 00 04 C8 CA 63 04 [FD BRS]
0.0304656 1 DBx Rx d 14 39 0E 00 20 54 1A EE F6 D7 7E 83 1A 3F D4 [FD BRS]
0.0348648 1 18E19490x Rx d 15 00 00 00 A5 00 00 00 50 01 00 00 00 00 00 00 [FD BRS]
0.0355810 1 44 Rx d 1 04
0.0358312 1 DBx Rx d 13 39 0F 00 15 03 69 EF 20 FF FF 7F CF FF [FD BRS]
0.0362194 1 D9x Rx d 13 39 13 00 15 14 51 F1 20 A0 40 4D 50 2F [FD BRS]
0.0366017 1 E3x Rx d 9 41 00 05 08 00 80 03 43 CC [FD BRS]
0.0413761 1 2Dx Rx d 14 1F AB F8 05 C4 09 00 90 70 97 58 22 6F 52 [FD BRS]
0.0419034 1 D4x Rx d 8 39 04 06 04 82 04 9D 89 [FD BRS]
0.0448566 1 DCx Rx d 14 39 10 01 10 15 3F 42 00 47 00 BE 12 11 9C [FD BRS]
0.0011839 1 2Dx Rx d 14 47 1B C9 05 C4 09 00 90 70 97 58 62 6F 52 [FD BRS]
0.0045121 1 DCx Rx d 13 39 10 00 16 01 8F C4 AE 2A 0A FA DC E4 [FD BRS]
0.0048944 1 18E19490x Rx d 15 04 03 00 03 00 03 00 7E 36 ED 0C 3F 0D 22 01 [FD BRS]
0.0102855 1 DBx Rx d 14 39 0E 00 20 0B F9 C0 F5 B7 7E 83 1A 3F BD [FD BRS]
0.0144860 1 D9x Rx d 13 39 13 00 15 8D 31 C3 25 A0 3E 0D 38 2F [FD BRS]
0.0157612 1 DBx Rx d 13 39 0F 00 15 5D B0 C1 20 FF FF 7F CF FF [FD BRS]
0.0161474 1 4Fx Rx d 8 28 D7 08 00 09 45 70 6B [FD BRS]
0.0212078 1 2Dx Rx d 14 66 00 CA 05 C4 09 00 90 70 97 58 62 6F 52 [FD BRS]
0.0245180 1 DCx Rx d 13 39 10 00 16 25 27 C5 AE 2A 0A FA DC E4 [FD BRS]
0.0259152 1 E3x Rx d 10 3A 02 00 04 F4 FF FF FF 00 80 [FD BRS]
0.0303073 1 DBx Rx d 14 39 0E 00 20 A6 BD C1 F5 B7 7E 83 1A 3F B6 [FD BRS]
0.0344278 1 D9x Rx d 13 39 13 00 15 80 65 C4 21 A0 3E 0D 4E 2F [FD BRS]
0.0348060 1 18E19490x Rx d 15 00 00 00 A5 00 00 00 50 01 00 00 00 00 00 00 [FD BRS]
0.0357602 1 DBx Rx d 13 39 0F 00 15 7B 81 C2 20 FF FF 7F CF FF [FD BRS]
0.0361463 1 E3x Rx d 12 41 00 05 08 00 80 03 43 CC 09 35 D8 [FD BRS]
0.0412057 1 2Dx Rx d 14 79 09 CB 05 C4 09 00 90 70 97 58 62 6F 52 [FD BRS]
0.0417280 1 D4x Rx d 8 39 04 06 04 F5 F7 94 89 [FD BRS]
0.0446022 1 DCx Rx d 14 39 10 01 10 15 3F 42 30 47 00 76 06 10 9C [FD BRS]
0.0005645 1 DBx Rx d 13 39 0F 00 15 7D C5 A2 20 FF FF 7F CF FF [FD BRS]
0.0059667 1 2Dx Rx d 14 3A 5D AB 05 C4 09 00 90 70 97 58 62 6F 52 [FD BRS]
0.0092329 1 DCx Rx d 13 39 10 00 16 2A E2 A6 AE 2A 0A FA DC E8 [FD BRS]
0.0096162 1 18E19490x Rx d 15 04 03 00 03 00 03 00 7E 36 EE 0C 41 0D 22 01 [FD BRS]
0.0151213 1 DBx Rx d 14 39 0E 00 20 DA F2 A2 F6 D7 7E 83 1A 3F CE [FD BRS]
0.0190828 1 D9x Rx d 13 39 13 00 15 CE 46 A5 28 A0 40 8D 28 2F [FD BRS]
0.0205460 1 DBx Rx d 13 39 0F 00 15 9F D5 A3 20 FF FF 7F CF FF [FD BRS]
0.0259772 1 2Dx Rx d 14 67 62 AC 05 C4 09 00 90 70 97 58 62 6F 52 [FD BRS]
0.0292414 1 DCx Rx d 13 39 10 00 16 0E 4A A7 AE 2A 0A FA DC E8 [FD BRS]
0.0306906 1 E3x Rx d 8 00 80 00 04 0C B7 54 04 [FD BRS]
0.0350877 1 DBx Rx d 14 39 0E 00 20 4E D6 A3 F6 D7 7E 83 1A 3F CE [FD BRS]
0.0392789 1 DCx Rx d 9 39 FE 6F 08 94 01 00 80 01 [FD BRS]
0.0394773 1 18E19490x Rx d 15 00 00 00 A5 00 00 00 50 01 00 00 00 00 00 00 [FD BRS]
0.0404376 1 D9x Rx d 13 39 13 00 15 DB 3E A6 28 A0 40 CD 27 2F [FD BRS]
0.0408157 1 DBx Rx d 13 39 0F 00 15 31 A7 A4 20 FF FF 7F CF FF [FD BRS]
0.0412020 1 E3x Rx d 9 41 00 05 08 00 80 03 43 CC [FD BRS]
0.0460623 1 2Dx Rx d 14 78 6B AD 05 C4 09 00 90 70 97 58 62 6F 52 [FD BRS]
0.0465877 1 D4x Rx d 8 39 04 06 04 F9 84 8E 89 [FD BRS]
0.0493219 1 DCx Rx d 14 39 10 01 10 15 3F 42 38 46 00 46 06 10 9C [FD BRS]
0.0014498 1 DCx Rx d 13 39 10 00 16 0B 09 86 AE 2A 0A FA DC EC [FD BRS]
0.0028531 1 E3x Rx d 12 39 06 0B 08 00 51 51 14 00 C0 CF FF [FD BRS]
0.0073961 1 DBx Rx d 14 39 0F 01 06 4D 85 04 60 A0 1C 39 0E 00 20 [FD BRS]
0.0113086 1 D9x Rx d 13 39 13 00 15 6C CF 85 28 A0 40 0D 28 2F [FD BRS]
0.0116888 1 18E19490x Rx d 15 03 00 00 8B 01 8B 01 00 00 00 00 00 00 00 00 [FD BRS]
0.0128110 1 DBx Rx d 13 39 0F 00 15 9D E9 83 20 FF FF 7F CF FF [FD BRS]
0.0182092 1 2Dx Rx d 14 A6 51 8C 05 C4 09 00 90 70 97 58 62 6F 52 [FD BRS]
0.0215574 1 DCx Rx d 13 39 10 00 16 2F A1 87 AE 2A 0A FA DC EC [FD BRS]
0.0273335 1 DBx Rx d 14 39 0E 00 20 58 F6 83 F7 D7 7E 83 1A 3F D2 [FD BRS]
0.0313100 1 D9x Rx d 14 39 13 00 15 13 21 86 27 A0 40 8D 27 2F 12 [FD BRS]
0.0328141 1 DBx Rx d 13 39 0F 00 15 33 9B 84 20 FF FF 7F CF FF [FD BRS]
0.0382193 1 2Dx Rx d 14 B9 58 8D 05 C4 09 00 90 70 97 58 62 6F 52 [FD BRS]
0.0414345 1 DCx Rx d 13 39 10 00 16 35 D8 88 AE 2A 0A FA DC EC [FD BRS]
0.0418139 1 18E19490x Rx d 15 04 03 00 03 00 03 00 7E 36 EE 0C 41 0D 22 01 [FD BRS]
0.0473340 1 DBx Rx d 14 39 0E 00 20 B4 09 84 F7 D7 7E 83 1A 3F D2 [FD BRS]
0.0022042 1 DCx Rx d 13 39 10 00 16 35 F2 6B AE 2A 0A FA DC EC [FD BRS]
0.0036714 1 E3x Rx d 8 00 80 00 04 99 E3 48 04 [FD BRS]
0.0081755 1 DBx Rx d 14 39 0E 00 20 30 6F 67 F6 D7 7E 83 1A 3F D2 [FD BRS]
0.0122927 1 18E19490x Rx d 15 00 00 00 A5 00 00 00 50 01 00 00 00 00 00 00 [FD BRS]
0.0130160 1 D9x Rx d 13 39 13 00 15 9F 28 6A 28 A0 40 8D 27 2F [FD BRS]
0.0135822 1 DBx Rx d 13 39 0F 00 15 A5 EB 68 20 FF FF 7F CF FF [FD BRS]
0.0139683 1 E3x Rx d 9 41 00 05 08 00 80 03 43 CC [FD BRS]
0.0190567 1 2Dx Rx d 14 8A 3E 71 05 C4 09 00 90 70 97 58 62 6F 52 [FD BRS]
0.0195831 1 D4x Rx d 8 39 04 06 04 CB CB 82 89 [FD BRS]
0.0222853 1 DCx Rx d 14 39 10 01 10 15 3F 42 00 46 00 E6 42 10 9C [FD BRS]
0.0281724 1 DBx Rx d 15 39 0E 01 0F 0C 35 FF FF FF FF FF FF FF CF D2 [FD BRS]
0.0291185 1 E3x Rx d 13 41 00 05 08 01 05 18 35 D7 18 C0 69 05 [FD BRS]
0.0323530 1 D9x Rx d 13 39 13 00 15 C7 F4 6B 27 A0 40 0D 27 2F [FD BRS]
0.0336502 1 DBx Rx d 13 39 0F 00 15 47 FB 69 20 FF FF 7F CF FF [FD BRS]
0.0390464 1 2Dx Rx d 14 AB 25 72 05 C4 09 00 90 70 97 58 62 6F 52 [FD BRS]
0.0395687 1 D4x Rx d 13 39 04 0C 05 0E 0F F4 FF FF 39 0C 14 0C [FD BRS]
0.0399601 1 DC085B Rx d 8 40 03 08 04 00 00 00 00
0.0422143 1 DCx Rx d 13 39 10 00 16 8E 32 6D AE 2A 0A FA DC EC [FD BRS]
0.0425946 1 18E19490x Rx d 15 01 01 00 3B 0D 00 01 80 0C 07 01 BC 02 06 06 [FD BRS]
0.0436769 1 E3x Rx d 14 39 06 0B 08 00 51 51 14 00 C0 CF FF 39 04 [FD BRS]
0.0482260 1 DBx Rx d 14 39 0E 00 20 C9 80 69 F6 D7 7E 83 1A 3F D2 [FD BRS]
0.0025779 1 DCx Rx d 14 39 10 01 10 15 3F 42 00 46 00 AE 42 10 9C [FD BRS]
0.0030943 1 18E19490x Rx d 15 02 88 00 64 64 64 01 00 00 00 BF 12 F2 D3 00 [FD BRS]
0.0041234 1 DBx Rx d 14 39 0E 02 2A 3E 00 4A 00 65 0A A8 01 17 70 [FD BRS]
0.0085387 1 DBx Rx d 13 39 0E 01 0F 2C 35 FF FF FF FF FF FF FF [FD BRS]
0.0089270 1 21Cx Rx d 15 23 00 00 00 00 00 00 00 00 00 00 00 00 00 00 [FD BRS]
0.0124195 1 D9x Rx d 13 39 13 00 15 D0 B0 48 27 A0 40 4D 28 2F [FD BRS]
0.0139157 1 DBx Rx d 15 39 0E 00 20 8C 34 45 F7 D7 7E 83 1A 3F D3 7F [FD BRS]
0.0145718 1 E3x Rx d 9 41 00 05 08 01 13 B6 50 13 [FD BRS]
0.0195172 1 2Dx Rx d 14 01 E2 4F 05 C4 09 00 90 70 97 58 62 6F 52 [FD BRS]
0.0200426 1 D4x Rx d 15 39 04 0C 05 0E 0F F4 FF FF 39 15 01 14 45 01 [FD BRS]
0.0225748 1 DCx Rx d 13 39 10 00 16 05 1C 4A AE 2A 0A FA DC EC [FD BRS]
0.0240010 1 E3x Rx d 12 39 06 0B 08 00 51 51 14 00 C0 CF FF [FD BRS]
0.0243062 1 DBx Rx d 13 39 0E 04 10 5C E3 0B 4C 24 B4 DB FF FF [FD BRS]
0.0285815 1 DBx Rx d 14 39 0E 00 20 C6 8C 46 F7 D7 7E 83 1A 3F D2 [FD BRS]
0.0324180 1 D9x Rx d 13 39 13 00 15 6B 7F 49 28 A0 40 CD 27 2F [FD BRS]
0.0327951 1 18E19490x Rx d 15 03 00 00 9A 01 9A 01 00 00 00 00 00 00 00 00 [FD BRS]
0.0340043 1 DBx Rx d 13 39 0F 00 15 19 22 47 20 FF FF 7F CF FF [FD BRS]
0.0385716 1 21Cx Rx d 8 24 00 00 00 00 00 00 00 [FD BRS]
0.0394008 1 2Dx Rx d 14 54 04 50 05 C4 09 00 90 70 97 58 62 6F 52 [FD BRS]
0.0426930 1 DCx Rx d 13 39 10 00 16 21 B4 4B AE 2A 0A FA DC EC [FD BRS]
0.0485791 1 DBx Rx d 14 39 0E 00 20 52 A8 47 F7 D7 7E 83 1A 3F D2 [FD BRS]
0.0050283 1 DBx Rx d 15 39 0E 01 0F 2C 35 FF FF FF FF FF FF FF CF D2 [FD BRS]
0.0059415 1 E3x Rx d 13 41 00 05 08 01 41 AC C0 A6 81 02 E0 05 [FD BRS]
0.0089397 1 18E19490x Rx d 15 04 03 00 03 00 03 00 88 36 EE 0C 41 0D 22 01 [FD BRS]
0.0096660 1 D9x Rx d 13 39 13 00 15 9F 69 25 27 A0 40 0D 27 2F [FD BRS]
0.0104461 1 DBx Rx d 13 39 0F 00 15 97 25 23 20 FF FF 7F CF FF [FD BRS]
0.0158864 1 2Dx Rx d 14 63 AD 2C 05 C4 09 00 90 70 97 58 62 6F 52 [FD BRS]
0.0164107 1 D4x Rx d 13 39 04 0C 05 0E 0F F4 FF FF 39 0C 14 0C [FD BRS]
0.0190199 1 DCx Rx d 13 39 10 00 16 4A EF 27 AE 2A 0A FA DC EC [FD BRS]
0.0205041 1 E3x Rx d 14 39 06 0B 08 00 51 51 14 00 C0 CF FF 39 04 [FD BRS]
0.0250812 1 DBx Rx d 14 39 0E 00 20 2F 5C 23 F7 D7 7E 83 1A 3F D2 [FD BRS]
0.0288507 1 D9x Rx d 13 39 13 00 15 03 94 26 28 A0 40 8D 27 2F [FD BRS]
0.0304918 1 DBx Rx d 13 39 0F 00 15 39 57 24 20 FF FF 7F CF FF [FD BRS]
0.0358670 1 2Dx Rx d 14 7C A4 2D 05 C4 09 00 90 70 97 58 62 6F 52 [FD BRS]
0.0390152 1 DCx Rx d 13 39 10 00 16 50 96 28 AE 2A 0A FA DC EC [FD BRS]
0.0393956 1 18E19490x Rx d 15 00 00 00 A5 00 00 00 50 01 00 00 00 00 00 00 [FD BRS]
0.0450666 1 DBx Rx d 14 39 0E 00 20 C3 A3 24 F7 D7 7E 83 1A 3F D2 [FD BRS]
0.0488561 1 D9x Rx d 14 39 13 00 15 41 31 27 28 A0 40 0D 27 2F 12 [FD BRS]
0.0018383 1 DBx Rx d 15 39 0E 01 0F 24 35 FF FF FF FF FF FF FF CF D2 [FD BRS]
0.0058468 1 D9x Rx d 13 39 13 00 15 59 B1 02 28 A0 40 CD 27 2F [FD BRS]
0.0073019 1 DBx Rx d 13 39 0F 00 15 B3 28 00 20 FF FF 7F CF FF [FD BRS]
0.0076911 1 E3x Rx d 9 41 00 05 08 01 CE A9 B5 78 [FD BRS]
0.0126815 1 2Dx Rx d 14 C1 B3 09 05 C4 09 00 90 70 97 58 62 6F 52 [FD BRS]
0.0132068 1 D4x Rx d 15 39 04 0C 05 0E 0F F4 FF FF 39 15 01 14 45 01 [FD BRS]
0.0157010 1 DCx Rx d 13 39 10 00 16 13 41 04 AE 2A 0A FA DC EC [FD BRS]
0.0160834 1 18E19490x Rx d 15 01 02 00 3B 0D 00 01 80 0C 0C 01 BC 02 06 06 [FD BRS]
0.0173066 1 E3x Rx d 12 39 06 0B 08 00 51 51 14 00 C0 CF FF [FD BRS]
0.0218907 1 DBx Rx d 14 39 0F 01 06 4D 85 04 60 64 1C 39 0E 00 20 [FD BRS]
0.0256151 1 D9x Rx d 13 39 13 00 15 BB A1 03 28 A0 40 CD 27 2F [FD BRS]
0.0273013 1 DBx Rx d 13 39 0F 00 15 51 38 01 20 FF FF 7F CF FF [FD BRS]
0.0326785 1 2Dx Rx d 14 E0 A8 0A 05 C4 09 00 90 70 97 58 62 6F 52 [FD BRS]
0.0357547 1 DCx Rx d 13 39 10 00 16 37 E9 05 AE 2A 0A FA DC EC [FD BRS]
0.0418868 1 DBx Rx d 14 39 0E 00 20 03 C7 01 F7 D7 7E 83 1A 3F D2 [FD BRS]
0.0456222 1 D9x Rx d 14 39 13 00 15 60 D0 04 28 A0 40 CD 26 2F 12 [FD BRS]
0.0461344 1 18E19490x Rx d 15 02 88 00 64 64 64 01 00 00 00 CD 12 37 C0 00 [FD BRS]
0.0473046 1 DBx Rx d 13 39 0F 00 15 77 09 02 20 FF FF 7F CF FF [FD BRS]
0.0029177 1 2Dx Rx d 14 55 44 E6 05 C4 09 00 90 70 97 58 22 6F 52 [FD BRS]
0.0034431 1 D4x Rx d 14 39 04 0C 05 0E 0F F4 FF FF 39 FE 1D 08 59 [FD BRS]
0.0058593 1 DCx Rx d 13 39 10 00 16 40 D8 E1 AE 2A 0A FA DC F0 [FD BRS]
0.0075455 1 E3x Rx d 14 39 06 0B 08 00 51 51 14 00 C0 CF FF 39 04 [FD BRS]
0.0080658 1 4Fx Rx d 8 20 D4 0F A0 00 49 9C AA [FD BRS]
0.0121309 1 DBx Rx d 14 39 0E 00 20 EA C0 DD F7 E7 7E 83 1A 3F DA [FD BRS]
0.0158024 1 D9x Rx d 13 39 13 00 15 6E 15 E0 20 A0 41 8D 51 2F [FD BRS]
0.0161796 1 18E19490x Rx d 15 03 00 00 90 01 90 01 00 00 00 00 00 00 00 00 [FD BRS]
0.0175358 1 DBx Rx d 13 39 0F 00 15 E2 5B DE 20 FF FF 7F CF FF [FD BRS]
0.0228980 1 2Dx Rx d 14 4A 4D E7 05 C4 09 00 90 70 97 58 22 6F 52 [FD BRS]
0.0259872 1 DCx Rx d 13 39 10 00 16 E5 43 E2 AE 2A 0A FA DC EC [FD BRS]
0.0311227 1 D9x Rx d 14 39 FE 28 08 29 00 00 00 00 00 00 00 39 13 [FD BRS]
0.0322039 1 DBx Rx d 14 39 0E 00 20 6D C3 DE F7 E7 7E 83 1A 3F D9 [FD BRS]
0.0372752 1 21Cx Rx d 15 11 02 01 05 02 C3 01 C5 01 3D 00 F2 00 AD 00 [FD BRS]
0.0379495 1 DBx Rx d 13 39 0F 00 15 00 4B DF 20 FF FF 7F CF FF [FD BRS]
0.0409509 1 D9x Rx d 10 39 13 01 0B 55 BA 58 55 95 00 [FD BRS]
0.0429011 1 2Dx Rx d 14 EF 3A E8 05 C4 09 00 90 70 97 58 22 6F 52 [FD BRS]
0.0434255 1 21Dx Rx d 3 30 02 28 [FD BRS]
0.0435826 1 21Cx Rx d 15 21 00 B9 00 7B 00 50 00 40 00 38 00 33 02 12 [FD BRS]
0.0458728 1 DCx Rx d 13 39 10 00 16 C1 EB E3 AE 2A 0A FA DC EC [FD BRS]
0.0462561 1 18E19490x Rx d 15 04 03 00 03 00 03 00 7E 36 EE 0C 42 0D 22 01 [FD BRS]
0.0004604 1 D4x Rx d 8 39 04 06 04 49 A2 60 89 [FD BRS]
0.0028166 1 DCx Rx d 14 39 10 01 10 15 3F 42 00 46 00 D6 42 11 9C [FD BRS]
0.0033349 1 18E19490x Rx d 15 02 88 00 64 64 64 01 00 00 00 EA 11 D7 07 00 [FD BRS]
0.0090860 1 DBx Rx d 15 39 0E 01 0F 2C 35 FF FF FF FF FF FF FF CF D2 [FD BRS]
0.0099732 1 E3x Rx d 13 41 00 05 08 01 25 9D 6D 99 44 7C 52 05 [FD BRS]
0.0128526 1 D9x Rx d 13 39 13 00 15 E4 68 C1 21 A0 41 8D 4E 2F [FD BRS]
0.0145638 1 DBx Rx d 13 39 0F 00 15 06 0F BF 20 FF FF 7F CF FF [FD BRS]
0.0199290 1 2Dx Rx d 14 2E 09 C8 05 C4 09 00 90 70 97 58 22 6F 52 [FD BRS]
0.0204573 1 D4x Rx d 13 39 04 0C 05 0E 0F F4 FF FF 39 0C 14 0C [FD BRS]
0.0228065 1 DCx Rx d 13 39 10 00 16 D5 AD C3 AE 2A 0A FA DC EC [FD BRS]
0.0245137 1 E3x Rx d 14 39 06 0B 08 00 51 51 14 00 C0 CF FF 39 04 [FD BRS]
0.0291399 1 DBx Rx d 14 39 0E 00 20 22 54 BF F7 E7 7E 83 1A 3F D8 [FD BRS]
0.0327800 1 18E19490x Rx d 15 03 00 00 92 01 92 01 00 00 00 00 00 00 00 00 [FD BRS]
0.0335003 1 D9x Rx d 13 39 13 00 15 C3 E2 C2 21 A0 41 0D 4B 2F [FD BRS]
0.0344925 1 DBx Rx d 13 39 0F 00 15 BF A0 C0 20 FF FF 7F CF FF [FD BRS]
0.0399007 1 2Dx Rx d 14 31 00 C9 05 C4 09 00 90 70 97 58 22 6F 52 [FD BRS]
0.0429319 1 DCx Rx d 13 39 10 00 16 4A C5 C4 AE 2A 0A FA DC EC [FD BRS]
0.0490740 1 DBx Rx d 14 39 0E 00 20 60 90 C0 F7 E7 7E 83 1A 3F D8 [FD BRS]
0.0036041 1 2Dx Rx d 14 04 4F A9 05 C4 09 00 90 70 97 58 62 6F 52 [FD BRS]
0.0041315 1 D4x Rx d 8 39 04 06 04 0B E6 5A 89 [FD BRS]
0.0064347 1 DCx Rx d 14 39 10 01 10 15 3F 42 00 47 00 A6 42 10 9C [FD BRS]
0.0069521 1 18E19490x Rx d 15 02 88 00 64 64 64 01 00 00 00 C2 12 F4 9F 00 [FD BRS]
0.0127671 1 DBx Rx d 15 39 0E 01 0F 20 35 FF FF FF FF FF FF FF CF D2 [FD BRS]
0.0136503 1 E3x Rx d 13 41 00 05 08 01 3B CC B2 D0 BA B8 9C 05 [FD BRS]
0.0166618 1 D9x Rx d 13 39 13 00 15 04 1B A3 20 A0 41 0D 53 2F [FD BRS]
0.0182470 1 DBx Rx d 13 39 0F 00 15 5B F4 A1 20 FF FF 7F CF FF [FD BRS]
0.0236102 1 2Dx Rx d 14 53 4F AA 05 C4 09 00 90 70 97 58 22 6F 52 [FD BRS]
0.0241365 1 D4x Rx d 13 39 04 0C 05 0E 0F F4 FF FF 39 0C 14 0C [FD BRS]
0.0245279 1 DC085B Rx d 8 40 03 08 04 00 00 00 00
0.0264321 1 DCx Rx d 13 39 10 00 16 BA D4 A5 AE 2A 0A FA DC F0 [FD BRS]
0.0283093 1 E3x Rx d 14 39 06 0B 08 00 51 51 14 00 C0 CF FF 39 04 [FD BRS]
0.0328214 1 DBx Rx d 14 39 0E 00 20 14 69 A1 F7 E7 7E 83 1A 3F DA [FD BRS]
0.0363986 1 18E19490x Rx d 15 03 00 00 95 01 95 01 00 00 00 00 00 00 00 00 [FD BRS]
0.0371188 1 D9x Rx d 13 39 13 00 15 1E 48 A4 20 A0 41 0D 54 2F [FD BRS]
0.0382690 1 DBx Rx d 13 39 0F 00 15 7D C5 A2 20 FF FF 7F CF FF [FD BRS]
0.0435792 1 2Dx Rx d 14 4C 46 AB 05 C4 09 00 90 70 97 58 22 6F 52 [FD BRS]
0.0465504 1 DCx Rx d 13 39 10 00 16 F7 3C A6 AE 2A 0A FA DC F0 [FD BRS]
0.0029924 1 DBx Rx d 14 39 0E 00 20 B5 23 7F F7 E7 7E 83 1A 3F DA [FD BRS]
0.0066048 1 D9x Rx d 14 39 13 00 15 36 99 82 20 A0 41 4D 53 2F 12 [FD BRS]
0.0084710 1 DBx Rx d 13 39 0F 00 15 BB D8 80 20 FF FF 7F CF FF [FD BRS]
0.0138302 1 2Dx Rx d 14 B3 67 89 05 C4 09 00 90 70 97 58 22 6F 52 [FD BRS]
0.0166084 1 DCx Rx d 13 39 10 00 16 8A 3A 84 AE 2A 0A FA DC F0 [FD BRS]
0.0229925 1 DBx Rx d 14 39 0E 00 20 84 9F 80 F7 E7 7E 83 1A 3F DA [FD BRS]
0.0265617 1 18E19490x Rx d 15 01 02 00 3C 0D 00 01 80 0C 0C 01 BC 02 06 06 [FD BRS]
0.0272699 1 D9x Rx d 13 39 13 00 15 D1 65 83 20 A0 41 8D 52 2F [FD BRS]
0.0284582 1 E3x Rx d 9 41 00 00 08 00 57 31 4B 41 [FD BRS]
0.0286533 1 DBx Rx d 13 39 0F 00 15 59 C8 81 20 FF FF 7F CF FF [FD BRS]
0.0338075 1 2Dx Rx d 14 92 7C 8A 05 C4 09 00 90 70 97 58 22 6F 52 [FD BRS]
0.0366697 1 DCx Rx d 13 39 10 00 16 AE 92 85 AE 2A 0A FA DC F0 [FD BRS]
0.0429938 1 DBx Rx d 14 39 0E 00 20 2B D5 81 F7 E7 7E 83 1A 3F D9 [FD BRS]
0.0439130 1 E3x Rx d 13 00 80 00 04 CA 7B 1A 04 41 00 05 08 00 [FD BRS]
0.0475555 1 D9x Rx d 13 39 13 00 15 E0 12 84 20 A0 41 8D 51 2F [FD BRS]
0.0484487 1 DBx Rx d 13 39 0F 00 15 7F F9 82 20 FF FF 7F CF FF [FD BRS]
