date 2025-01-01 00:00:00.000
base hex  timestamps absolute
no internal events logged

0.0007044 1 D9x Rx d 14 39 13 00 15 DF 5D 4D 23 A0 41 4D 41 4F 12 [FD BRS]
0.0016515 1 DBx Rx d 14 39 0E 00 20 71 3C 4A F7 E7 7E 83 1A 3F C2 [FD BRS]
0.0068648 1 DBx Rx d 13 39 0F 00 15 81 E6 4B 20 FF FF 7F CF FF [FD BRS]
0.0085439 1 DCx Rx d 13 39 10 00 16 1B 47 4F AE 2A 0A FA DC F0 [FD BRS]
0.0115992 1 2Dx Rx d 14 AC D5 54 05 C4 09 00 90 70 97 D5 61 6F 52 [FD BRS]
0.0206989 1 D9x Rx d 13 39 13 00 15 F9 6C 4E 23 A0 41 4D 41 4F [FD BRS]
0.0215611 1 DBx Rx d 14 39 0E 00 20 11 0C 4B F8 E7 7E 83 1A 3F C3 [FD BRS]
0.0268544 1 DBx Rx d 13 39 0F 00 15 2F 94 4C 20 FF FF 7F CF FF [FD BRS]
0.0284786 1 DCx Rx d 13 39 10 00 16 0B 1D 50 AE 2A 0A FA DC F0 [FD BRS]
0.0288609 1 18E19490x Rx d 15 03 00 00 96 01 96 01 00 00 00 00 00 00 00 00 [FD BRS]
0.0315951 1 2Dx Rx d 14 DB 6A 55 05 C4 09 00 90 70 97 D6 61 6F 52 [FD BRS]
0.0414671 1 DBx Rx d 14 39 0E 00 20 FD F3 4C F8 E7 7E 83 1A 3F C3 [FD BRS]
0.0419903 1 D9x Rx d 13 39 13 00 15 24 CC 4F 23 A0 41 CD 42 4F [FD BRS]
0.0423666 1 E3x Rx d 11 00 80 00 04 C7 11 A9 04 41 00 05 [FD BRS]
0.0456639 1 44 Rx d 1 04
0.0469781 1 DBx Rx d 13 39 0F 00 15 CD 84 4D 20 FF FF 7F CF FF [FD BRS]
0.0485133 1 DCx Rx d 14 39 10 01 10 15 3F 42 00 46 00 EE 46 10 9C [FD BRS]
0.0006349 1 E3x Rx d 12 39 06 0B 08 00 51 51 14 00 C0 CF FF [FD BRS]
0.0050734 1 D9x Rx d 13 39 13 00 15 8E D7 24 23 A0 41 0D 40 4F [FD BRS]
0.0059936 1 DBx Rx d 14 39 0E 00 20 E1 D6 21 F8 E7 7E 83 1A 3F C3 [FD BRS]
0.0106538 1 E3x Rx d 10 39 80 00 0C 00 7F A2 90 BE F1 [FD BRS]
0.0113010 1 DBx Rx d 13 39 0F 00 15 75 35 22 20 FF FF 7F CF FF [FD BRS]
0.0128601 1 DCx Rx d 13 39 10 00 16 86 34 26 AE 2A 0A FA DC F0 [FD BRS]
0.0132424 1 18E19490x Rx d 15 00 00 00 A5 00 00 00 50 01 00 00 00 00 00 00 [FD BRS]
0.0159967 1 2Dx Rx d 14 36 EB 2B 05 C4 09 00 90 70 97 BC 61 6F 52 [FD BRS]
0.0251504 1 D9x Rx d 14 39 13 00 15 19 C4 25 23 A0 41 0D 41 4F 12 [FD BRS]
0.0259216 1 DBx Rx d 14 39 0E 00 20 AB 6E 22 F8 E7 7E 83 1A 3F C2 [FD BRS]
0.0313709 1 DBx Rx d 13 39 0F 00 15 97 25 23 20 FF FF 7F CF FF [FD BRS]
0.0328121 1 DCx Rx d 13 39 10 00 16 4A EF 27 AE 2A 0A FA DC EC [FD BRS]
0.0360213 1 2Dx Rx d 14 B3 B9 2C 05 C4 09 00 90 70 97 BD 61 6F 52 [FD BRS]
0.0428665 1 18E19490x Rx d 15 01 01 00 3C 0D FF 00 80 0C 07 01 BC 02 06 06 [FD BRS]
0.0450569 1 D9x Rx d 13 39 13 00 15 4F 1A 26 23 A0 41 CD 41 4F [FD BRS]
0.0459721 1 DBx Rx d 14 39 0E 00 20 C9 9F 23 F8 E7 7E 83 1A 3F C3 [FD BRS]
0.0049876 1 18E19490x Rx d 15 00 00 00 A5 00 00 00 50 01 00 00 00 00 00 00 [FD BRS]
0.0080538 1 DBx Rx d 14 39 FE 0B 08 61 00 00 00 01 00 00 00 39 0E [FD BRS]
0.0085710 1 D9x Rx d 13 39 13 00 15 36 3A FF 23 A0 41 4D 3F 4F [FD BRS]
0.0089503 1 E3x Rx d 11 00 80 00 04 2E 3D 99 04 41 00 05 [FD BRS]
0.0121916 1 44 Rx d 1 04
0.0135558 1 DBx Rx d 13 39 0F 00 15 C6 56 FD 20 FF FF 7F CF FF [FD BRS]
0.0150789 1 DCx Rx d 14 39 10 01 10 15 3F 42 30 46 00 6E 06 10 9C [FD BRS]
0.0181851 1 2Dx Rx d 14 39 85 06 05 C4 09 00 90 70 97 A6 61 6F 52 [FD BRS]
0.0187085 1 D4x Rx d 8 39 04 06 04 44 C8 D3 89 [FD BRS]
0.0234556 1 DBx Rx d 14 39 0E 02 2A 3E 00 4A 00 65 0A B0 41 17 74 [FD BRS]
0.0274081 1 D9x Rx d 13 39 13 00 15 87 65 00 23 A0 41 4D 3F 4F [FD BRS]
0.0282342 1 DBx Rx d 13 39 0E 01 0F 14 35 FF FF FF FF FF FF FF [FD BRS]
0.0286626 1 21Cx Rx d 15 23 00 00 00 00 00 00 00 00 00 00 00 00 00 00 [FD BRS]
0.0329168 1 E3x Rx d 9 41 00 05 08 01 A1 8D 9C C8 [FD BRS]
0.0333749 1 DBx Rx d 15 39 0E 00 20 9E 00 FD F8 E7 7E 83 1A 3F C2 7F [FD BRS]
0.0349610 1 DCx Rx d 13 39 10 00 16 40 F2 02 AE 2A 0A FA DC F0 [FD BRS]
0.0353454 1 18E19490x Rx d 15 01 02 00 3B 0D FE 00 80 0C 07 01 BC 02 06 06 [FD BRS]
0.0381676 1 2Dx Rx d 14 FE E1 07 05 C4 09 00 90 70 97 A7 61 6F 52 [FD BRS]
0.0386940 1 D4x Rx d 15 39 04 0C 05 0E 0F F4 FF FF 39 15 01 14 43 FD [FD BRS]
0.0428074 1 E3x Rx d 12 39 06 0B 08 00 51 51 14 00 C0 CF FF [FD BRS]
0.0434665 1 DBx Rx d 13 39 0E 04 10 5C E3 0B 4C 24 B4 DB FF FF [FD BRS]
0.0473820 1 D9x Rx d 13 39 13 00 15 E6 B8 01 23 A0 41 0D 40 4F [FD BRS]
0.0481732 1 DBx Rx d 14 39 0E 00 20 D4 B8 FE F8 E7 7E 83 1A 3F C3 [FD BRS]
0.0007203 1 2Dx Rx d 14 EA 7C E4 05 C4 09 00 90 70 97 92 61 6F 52 [FD BRS]
0.0012446 1 D4x Rx d 13 39 04 0C 05 0E 0F F4 FF FF 39 0C 14 0C [FD BRS]
0.0053370 1 E3x Rx d 14 39 06 0B 08 00 51 51 14 00 C0 CF FF 39 04 [FD BRS]
0.0072832 1 18E19490x Rx d 15 03 00 00 97 01 97 01 00 00 00 00 00 00 00 00 [FD BRS]
0.0096095 1 D9x Rx d 13 39 13 00 15 B6 57 DE 24 A0 41 4D 3F 4F [FD BRS]
0.0106617 1 DBx Rx d 14 39 0E 00 20 14 DC DB F8 E7 7E 83 1A 3F C3 [FD BRS]
0.0159350 1 DBx Rx d 13 39 0F 00 15 26 7A DC 20 FF FF 7F CF FF [FD BRS]
0.0174482 1 DCx Rx d 13 39 10 00 16 64 70 E0 AE 2A 0A FA DC F0 [FD BRS]
0.0205964 1 2Dx Rx d 14 F5 75 E5 05 C4 09 00 90 70 97 92 61 6F 52 [FD BRS]
0.0295861 1 D9x Rx d 14 39 13 00 15 84 1D DF 24 A0 41 0D 3F 4F 12 [FD BRS]
0.0305953 1 DBx Rx d 14 39 0E 00 20 0E F6 DC F8 E7 7E 83 1A 3F C2 [FD BRS]
0.0358996 1 DBx Rx d 13 39 0F 00 15 C4 6A DD 20 FF FF 7F CF FF [FD BRS]
0.0373818 1 DCx Rx d 13 39 10 00 16 40 D8 E1 AE 2A 0A FA DC F0 [FD BRS]
0.0377631 1 18E19490x Rx d 15 04 03 00 03 00 03 00 88 36 EE 0C 42 0D 22 01 [FD BRS]
0.0405993 1 2Dx Rx d 14 0C 03 E6 05 C4 09 00 90 70 97 93 61 6F 52 [FD BRS]
0.0471936 1 DC08E2 Rx d 8 40 02 00 00 00 00 00 00
0.0495800 1 D9x Rx d 13 39 13 00 15 99 7F E0 24 A0 41 8D 3F 4F [FD BRS]
0.0029701 1 D9x Rx d 13 39 13 00 15 65 A5 BE 24 A0 41 CD 3E 4F [FD BRS]
0.0033493 1 DBx Rx d 14 39 0E 00 20 F6 E9 BB F8 E7 7E 83 1A 3F C3 [FD BRS]
0.0038685 1 E3x Rx d 11 00 80 00 04 CC 9A 8C 04 41 00 05 [FD BRS]
0.0085246 1 DBx Rx d 13 39 0F 00 15 20 3E BC 20 FF FF 7F CF FF [FD BRS]
0.0097938 1 DCx Rx d 14 39 10 01 10 15 3F 42 30 46 00 06 06 11 9C [FD BRS]
0.0103131 1 18E19490x Rx d 15 02 88 00 64 64 64 01 00 00 00 C4 12 67 B4 00 [FD BRS]
0.0131353 1 2Dx Rx d 14 6C D7 C5 05 C4 09 00 90 70 97 7F 61 6F 52 [FD BRS]
0.0136607 1 D4x Rx d 8 39 04 06 04 A6 6F C6 89 [FD BRS]
0.0222754 1 D9x Rx d 13 39 13 00 15 87 B5 BF 24 A0 41 CD 3E 4F [FD BRS]
0.0231316 1 DBx Rx d 15 39 0E 01 0F 20 35 FF FF FF FF FF FF FF DF D2 [FD BRS]
0.0237918 1 E3x Rx d 13 41 00 05 08 01 BE 5B 3F 16 7D 8D 2B 05 [FD BRS]
0.0284109 1 DBx Rx d 13 39 0F 00 15 C2 2E BD 20 FF FF 7F CF FF [FD BRS]
0.0297791 1 DCx Rx d 13 39 10 00 16 54 9E C1 AE 2A 0A FA DC F0 [FD BRS]
0.0331333 1 2Dx Rx d 14 E3 3B C6 05 C4 09 00 90 70 97 80 61 6F 52 [FD BRS]
0.0336586 1 D4x Rx d 13 39 04 0C 05 0E 0F F4 FF FF 39 0C 14 0C [FD BRS]
0.0340490 1 DC085B Rx d 8 40 03 08 04 00 00 00 00
0.0377533 1 E3x Rx d 12 39 06 0B 08 00 51 51 14 00 C0 CF FF [FD BRS]
0.0397375 1 18E19490x Rx d 15 03 00 00 9D 01 9D 01 00 00 00 00 00 00 00 00 [FD BRS]
0.0420689 1 D9x Rx d 13 39 13 00 15 EE 40 C0 24 A0 41 8D 3E 4F [FD BRS]
0.0431250 1 DBx Rx d 14 39 0E 00 20 B7 B4 BD F8 E7 7E 83 1A 3F C2 [FD BRS]
0.0477622 1 E3x Rx d 10 39 80 00 0C 00 7F AB 90 C6 F1 [FD BRS]
0.0484324 1 DBx Rx d 13 39 0F 00 15 E4 1F BE 20 FF FF 7F CF FF [FD BRS]
0.0020960 1 DBx Rx d 13 39 0F 00 15 22 02 9C 20 FF FF 7F CF FF [FD BRS]
0.0033992 1 DCx Rx d 13 39 10 00 16 4C FC A0 AE 2A 0A FA DC F0 [FD BRS]
0.0068964 1 2Dx Rx d 14 01 88 A5 05 C4 09 00 90 70 97 6C 61 6F 52 [FD BRS]
0.0133447 1 18E19490x Rx d 15 01 02 00 3C 0D FE 00 80 0C 07 01 BC 02 06 06 [FD BRS]
0.0156860 1 D9x Rx d 13 39 13 00 15 1A 8C 9F 24 A0 41 CD 3D 4F [FD BRS]
0.0167912 1 DBx Rx d 14 39 0E 00 20 1E C4 9C F8 E7 7E 83 1A 3F C3 [FD BRS]
0.0214424 1 E3x Rx d 13 41 00 00 08 00 57 31 4B 41 46 35 45 32 [FD BRS]
0.0221326 1 DBx Rx d 13 39 0F 00 15 C0 12 9D 20 FF FF 7F CF FF [FD BRS]
0.0234588 1 DCx Rx d 13 39 10 00 16 68 54 A1 AE 2A 0A FA DC F0 [FD BRS]
0.0267830 1 2Dx Rx d 14 F8 FE A6 05 C4 09 00 90 70 97 6D 61 6F 52 [FD BRS]
0.0367010 1 DBx Rx d 14 39 0E 00 20 0A E9 9D F8 E7 7E 83 1A 3F C4 [FD BRS]
0.0372222 1 D9x Rx d 13 39 13 00 15 E8 04 A0 24 A0 41 8D 3E 4F [FD BRS]
0.0376025 1 E3x Rx d 13 00 80 00 04 67 F2 86 04 41 00 05 08 00 [FD BRS]
0.0422166 1 DBx Rx d 13 39 0F 00 15 E6 23 9E 20 FF FF 7F CF FF [FD BRS]
0.0434228 1 DCx Rx d 14 39 10 01 10 15 3F 42 00 46 00 D6 42 11 9C [FD BRS]
0.0439401 1 18E19490x Rx d 15 02 88 00 64 64 64 01 00 00 00 E0 12 DE BB 00 [FD BRS]
0.0468333 1 2Dx Rx d 14 E7 F7 A7 05 C4 09 00 90 70 97 6D 61 6F 52 [FD BRS]
0.0473597 1 D4x Rx d 8 39 04 06 04 3F 48 C0 89 [FD BRS]
0.0007063 1 D9x Rx d 13 39 13 00 15 91 F9 81 24 A0 42 CD 3C 4F [FD BRS]
0.0018515 1 DBx Rx d 14 39 0E 00 20 C6 3C 7E F8 F7 7E 83 1A 3F C4 [FD BRS]
0.0064907 1 E3x Rx d 8 3A 02 00 04 F4 FF FF FF [FD BRS]
0.0067460 1 4Fx Rx d 8 28 8C 06 00 09 79 FA 3D [FD BRS]
0.0072662 1 DBx Rx d 13 39 0F 00 15 0A 87 7F 20 FF FF 7F CF FF [FD BRS]
0.0084464 1 DCx Rx d 13 39 10 00 16 15 52 83 AE 2A 0A FA DC F0 [FD BRS]
0.0118356 1 2Dx Rx d 14 99 18 88 05 C4 09 00 90 70 97 5B 61 6F 52 [FD BRS]
0.0218106 1 DBx Rx d 14 39 0E 00 20 A4 CD 7F F8 F7 7E 83 1A 3F C5 [FD BRS]
0.0223298 1 D9x Rx d 13 39 13 00 15 17 7D 82 24 A0 42 4D 3C 4F [FD BRS]
0.0227081 1 E3x Rx d 11 00 80 00 04 FE D5 80 04 41 00 05 [FD BRS]
0.0272682 1 DBx Rx d 13 39 0F 00 15 BB D8 80 20 FF FF 7F CF FF [FD BRS]
0.0284104 1 DCx Rx d 14 39 10 01 10 15 3F 42 00 46 00 A6 42 10 9C [FD BRS]
0.0289268 1 18E19490x Rx d 15 02 88 00 64 64 64 01 00 00 00 83 12 09 CB 00 [FD BRS]
0.0318750 1 2Dx Rx d 14 86 11 89 05 C4 09 00 90 70 97 5B 61 6F 52 [FD BRS]
0.0323974 1 D4x Rx d 8 39 04 06 04 E1 62 BA 89 [FD BRS]
0.0365287 1 E3x Rx d 9 02 80 00 08 D5 F2 58 01 83 [FD BRS]
0.0409572 1 D9x Rx d 13 39 13 00 15 85 82 83 24 A0 42 8D 3C 4F [FD BRS]
0.0418664 1 DBx Rx d 15 39 0E 01 0F 2C 35 FF FF FF FF FF FF FF DF D2 [FD BRS]
0.0425266 1 E3x Rx d 13 41 00 05 08 01 FC BA 5C 42 82 5E 76 05 [FD BRS]
0.0471547 1 DBx Rx d 13 39 0F 00 15 59 C8 81 20 FF FF 7F CF FF [FD BRS]
0.0483959 1 DCx Rx d 13 39 10 00 16 AE 92 85 AE 2A 0A FA DC F0 [FD BRS]
0.0035822 1 DCx Rx d 9 39 FE 6F 08 94 01 00 80 01 [FD BRS]
0.0069006 1 D9x Rx d 13 39 13 00 15 EF BD 64 25 A0 42 CD 3A 4F [FD BRS]
0.0072778 1 DBx Rx d 14 39 0E 00 20 64 25 61 F8 F7 7E 83 1A 3F C6 [FD BRS]
0.0077960 1 E3x Rx d 11 00 80 00 04 18 22 7A 04 41 00 05 [FD BRS]
0.0125781 1 DBx Rx d 13 39 0F 00 15 71 4D 62 20 FF FF 7F CF FF [FD BRS]
0.0136593 1 DCx Rx d 14 39 10 01 10 15 3F 42 30 46 00 76 06 10 9C [FD BRS]
0.0141776 1 18E19490x Rx d 15 02 88 00 64 64 64 01 00 00 00 C3 12 D6 A2 00 [FD BRS]
0.0172509 1 2Dx Rx d 14 09 FE 6B 05 C4 09 00 90 70 97 49 61 6F 52 [FD BRS]
0.0177762 1 D4x Rx d 8 39 04 06 04 BB C0 B4 89 [FD BRS]
0.0218006 1 E3x Rx d 10 05 00 00 0C F5 FC FF 00 00 00 [FD BRS]
0.0262641 1 D9x Rx d 13 39 13 00 15 DD F7 65 25 A0 42 8D 3A 4F [FD BRS]
0.0271713 1 DBx Rx d 15 39 0E 01 0F 2C 35 FF FF FF FF FF FF FF DF D2 [FD BRS]
0.0318135 1 E3x Rx d 9 41 00 05 08 01 DB 11 0C 71 [FD BRS]
0.0324896 1 DBx Rx d 13 39 0F 00 15 93 5D 63 20 FF FF 7F CF FF [FD BRS]
0.0336428 1 DCx Rx d 13 39 10 00 16 8A 10 67 AE 2A 0A FA DC F0 [FD BRS]
0.0371710 1 2Dx Rx d 14 3C 77 6C 05 C4 09 00 90 70 97 4A 61 6F 52 [FD BRS]
0.0376943 1 D4x Rx d 14 39 04 0C 05 0E 0F F4 FF FF 39 FE 1D 08 59 [FD BRS]
0.0417997 1 E3x Rx d 14 39 06 0B 08 00 51 51 14 00 C0 CF FF 39 04 [FD BRS]
0.0423191 1 4Fx Rx d 8 20 09 05 A0 00 49 9C 65 [FD BRS]
0.0436013 1 18E19490x Rx d 15 03 00 00 99 01 99 01 00 00 00 00 00 00 00 00 [FD BRS]
0.0460086 1 D9x Rx d 13 39 13 00 15 2D 48 66 25 A0 41 8D 3B 4F [FD BRS]
0.0472788 1 DBx Rx d 14 39 0E 00 20 4C 6C 63 F8 F7 7E 83 1A 3F C6 [FD BRS]
0.0013605 1 18E19490x Rx d 15 01 02 00 3C 0D FE 00 80 0C 07 01 BC 02 06 06 [FD BRS]
0.0037699 1 D9x Rx d 13 39 13 00 15 0E 51 45 23 A0 42 4D 3D 2F [FD BRS]
0.0049981 1 DBx Rx d 14 39 0E 00 20 61 DA 42 F8 F7 7E 83 1A 3F C8 [FD BRS]
0.0102913 1 DBx Rx d 13 39 0F 00 15 91 61 43 20 FF FF 7F CF FF [FD BRS]
0.0114665 1 DCx Rx d 13 39 10 00 16 9E 56 47 AE 2A 0A FA DC F0 [FD BRS]
0.0149707 1 2Dx Rx d 14 66 67 4C 05 C4 09 00 90 70 97 37 61 6F 52 [FD BRS]
0.0247275 1 D9x Rx d 13 39 13 00 15 B6 72 46 24 A0 42 4D 3D 2F [FD BRS]
0.0251027 1 DBx Rx d 14 39 0E 00 20 03 2B 43 F8 F7 7E 83 1A 3F C9 [FD BRS]
0.0256229 1 E3x Rx d 11 00 80 00 04 42 80 74 04 41 00 05 [FD BRS]
0.0304140 1 DBx Rx d 13 39 0F 00 15 3F 13 44 20 FF FF 7F CF FF [FD BRS]
0.0314312 1 DCx Rx d 14 39 10 01 10 15 3F 42 38 46 00 46 06 10 9C [FD BRS]
0.0319476 1 18E19490x Rx d 15 02 88 00 64 64 64 01 00 00 00 B4 12 8D B8 00 [FD BRS]
0.0350008 1 2Dx Rx d 14 79 6E 4D 05 C4 09 00 90 70 97 37 61 6F 52 [FD BRS]
0.0355251 1 D4x Rx d 8 39 04 06 04 B7 B3 AE 89 [FD BRS]
0.0440089 1 D9x Rx d 13 39 13 00 15 1B 3D 47 24 A0 42 0D 3E 2F [FD BRS]
0.0450090 1 DBx Rx d 15 39 0E 01 0F 20 35 FF FF FF FF FF FF FF DF D2 [FD BRS]
0.0456692 1 E3x Rx d 13 41 00 05 08 01 D0 74 5D 00 2E 74 EE 05 [FD BRS]
0.0031689 1 DBx Rx d 13 39 0F 00 15 97 25 23 20 FF FF 7F CF FF [FD BRS]
0.0042661 1 DCx Rx d 13 39 10 00 16 A2 9C 27 AE 2A 0A FA DC F0 [FD BRS]
0.0046494 1 18E19490x Rx d 15 00 00 00 A5 00 00 00 50 01 00 00 00 00 00 00 [FD BRS]
0.0078526 1 2Dx Rx d 14 CC CF 2C 05 C4 09 00 90 70 97 23 61 6F 52 [FD BRS]
0.0166114 1 D9x Rx d 14 39 13 00 15 E8 3F 26 26 A0 42 0D 38 CF 12 [FD BRS]
0.0178746 1 DBx Rx d 14 39 0E 00 20 D8 98 23 F8 F7 7E 83 1A 3F C8 [FD BRS]
0.0231808 1 DBx Rx d 13 39 0F 00 15 39 57 24 20 FF FF 7F CF FF [FD BRS]
0.0242320 1 DCx Rx d 13 39 10 00 16 B8 E5 28 AE 2A 0A FA DC F0 [FD BRS]
0.0278642 1 2Dx Rx d 14 FA D7 2D 05 C4 09 00 90 70 97 24 61 6F 52 [FD BRS]
0.0341764 1 18E19490x Rx d 15 01 02 00 3C 0D FE 00 80 0C 0C 01 BC 02 06 06 [FD BRS]
0.0366949 1 D9x Rx d 13 39 13 00 15 0A 2F 27 26 A0 42 0D 38 CF [FD BRS]
0.0379250 1 DBx Rx d 14 39 0E 00 20 C2 A1 24 F8 F7 7E 83 1A 3F C7 [FD BRS]
0.0431823 1 DBx Rx d 13 39 0F 00 15 DB 47 25 20 FF FF 7F CF FF [FD BRS]
0.0442825 1 DCx Rx d 13 39 10 00 16 9C 4D 29 AE 2A 0A FA DC F0 [FD BRS]
0.0478457 1 2Dx Rx d 14 03 A1 2E 05 C4 09 00 90 70 97 25 61 6F 52 [FD BRS]
0.0018243 1 E3x Rx d 9 41 00 05 08 01 2E BA 8E 57 [FD BRS]
0.0024255 1 DBx Rx d 15 39 0E 00 20 38 4B 03 F9 F7 7E 83 1A 3F C9 7F [FD BRS]
0.0035546 1 DCx Rx d 13 39 10 00 16 99 0E 08 AE 2A 0A FA DC F4 [FD BRS]
0.0071698 1 2Dx Rx d 14 49 F9 0D 05 C4 09 00 90 70 97 11 61 6F 52 [FD BRS]
0.0076942 1 D4x Rx d 15 39 04 0C 05 0E 0F F4 FF FF 39 15 01 14 43 01 [FD BRS]
0.0117635 1 E3x Rx d 12 39 06 0B 08 00 51 51 14 00 C0 CF FF [FD BRS]
0.0125167 1 DBx Rx d 13 39 0E 04 10 5C E3 0B 4C 24 B4 DB FF FF [FD BRS]
0.0161341 1 D9x Rx d 13 39 13 00 15 3E B6 07 26 A0 42 8D 36 CF [FD BRS]
0.0172063 1 DBx Rx d 14 39 0E 00 20 D4 B4 04 F9 F7 7E 83 1A 3F C9 [FD BRS]
0.0224816 1 DBx Rx d 13 39 0F 00 15 D9 7B 05 20 FF FF 7F CF FF [FD BRS]
0.0235137 1 DCx Rx d 13 39 10 00 16 BD A6 09 AE 2A 0A FA DC F4 [FD BRS]
0.0238951 1 18E19490x Rx d 15 00 00 00 A5 00 00 00 50 01 00 00 00 00 00 00 [FD BRS]
0.0271553 1 2Dx Rx d 14 68 E2 0E 05 C4 09 00 90 70 97 11 61 6F 52 [FD BRS]
0.0276805 1 21Cx Rx d 8 24 00 00 00 00 00 00 00 [FD BRS]
0.0360222 1 D9x Rx d 14 39 13 00 15 55 F5 08 26 A0 42 0D 37 CF 12 [FD BRS]
0.0371874 1 DBx Rx d 14 39 0E 00 20 B6 45 05 F9 F7 7E 83 1A 3F C8 [FD BRS]
0.0424917 1 DBx Rx d 13 39 0F 00 15 FF 4A 06 20 FF FF 7F CF FF [FD BRS]
0.0434809 1 DCx Rx d 13 39 10 00 16 F0 4E 0A AE 2A 0A FA DC F4 [FD BRS]
0.0471741 1 2Dx Rx d 14 1F 5D 0F 05 C4 09 00 90 70 97 12 61 6F 52 [FD BRS]
0.0021840 1 E3x Rx d 9 41 00 05 08 01 33 14 B3 6A [FD BRS]
0.0028811 1 DBx Rx d 13 39 0F 00 15 F1 FE E6 20 FF FF 7F CF FF [FD BRS]
0.0038353 1 DCx Rx d 13 39 10 00 16 BD 8C EA AE 2A 0A FA DC F4 [FD BRS]
0.0075265 1 2Dx Rx d 14 F6 82 EF 05 C4 09 00 90 70 97 FF 60 6F 52 [FD BRS]
0.0080557 1 D4x Rx d 15 39 04 0C 05 0E 0F F4 FF FF 39 15 01 14 43 01 [FD BRS]
0.0087350 1 DC085D Rx d 8 40 02 00 00 00 00 00 00
0.0121432 1 E3x Rx d 12 39 06 0B 08 00 51 51 14 00 C0 CF FF [FD BRS]
0.0124686 1 4Fx Rx d 8 20 16 00 A0 00 49 9C 63 [FD BRS]
0.0164431 1 D9x Rx d 13 39 13 00 15 6C E7 E9 26 A0 42 8D 36 CF [FD BRS]
0.0175813 1 DBx Rx d 14 39 0F 01 06 4C 85 04 60 BC 1C 39 0E 00 20 [FD BRS]
0.0228465 1 DBx Rx d 13 39 0F 00 15 13 EE E7 20 FF FF 7F CF FF [FD BRS]
0.0238177 1 DCx Rx d 13 39 10 00 16 99 24 EB AE 2A 0A FA DC F4 [FD BRS]
0.0242011 1 18E19490x Rx d 15 00 00 00 A5 00 00 00 50 01 00 00 00 00 00 00 [FD BRS]
0.0275113 1 2Dx Rx d 14 A3 64 F0 05 C4 09 00 90 70 97 FF 60 6F 52 [FD BRS]
0.0363470 1 D9x Rx d 14 39 13 00 15 05 89 EA 26 A0 42 CD 35 CF 12 [FD BRS]
0.0375512 1 DBx Rx d 14 39 0E 00 20 0D A9 E7 F9 F7 7E 83 1A 3F CA [FD BRS]
0.0428565 1 DBx Rx d 13 39 0F 00 15 AD 1B E8 20 FF FF 7F CF FF [FD BRS]
0.0437846 1 DCx Rx d 13 39 10 00 16 06 4C EC AE 2A 0A FA DC F4 [FD BRS]
0.0476198 1 2Dx Rx d 14 E4 4F F1 05 C4 09 00 90 70 97 00 61 6F 52 [FD BRS]
0.0036958 1 D4x Rx d 14 39 04 0C 05 0E 0F F4 FF FF 39 15 01 14 43 [FD BRS]
0.0042281 1 E3x Rx d 9 41 00 05 08 01 43 C9 5F 82 [FD BRS]
0.0044225 1 D4x Rx d 15 39 0C 08 3C FE 74 00 80 00 00 08 6C 55 38 2A [FD BRS]
0.0050776 1 DBx Rx d 13 39 0F 00 15 AF 27 C8 20 FF FF 7F CF FF [FD BRS]
0.0054658 1 DCx Rx d 13 39 10 00 16 12 0A CC AE 2A 0A FA DC F4 [FD BRS]
0.0091340 1 2Dx Rx d 14 8B 38 D1 05 C4 09 00 90 70 97 ED 60 6F 52 [FD BRS]
0.0137634 1 D4x Rx d 13 39 0C 14 0C FF FF FF 00 FE FF FF FF FF [FD BRS]
0.0141547 1 E3x Rx d 12 39 06 0B 08 00 51 51 14 00 C0 CF FF [FD BRS]
0.0177982 1 D9x Rx d 13 39 13 00 15 BA D5 CB 26 A0 43 CD 33 CF [FD BRS]
0.0192203 1 DBx Rx d 14 39 0F 01 06 4C 85 04 60 DC 1C 39 0E 00 20 [FD BRS]
0.0244496 1 DBx Rx d 13 39 0F 00 15 4D 37 C9 20 FF FF 7F CF FF [FD BRS]
0.0253618 1 DCx Rx d 13 39 10 00 16 36 A2 CD AE 2A 0A FA DC F4 [FD BRS]
0.0257421 1 18E19490x Rx d 15 00 00 00 A5 00 00 00 50 01 00 00 00 00 00 00 [FD BRS]
0.0291123 1 2Dx Rx d 14 AA 23 D2 05 C4 09 00 90 70 97 ED 60 6F 52 [FD BRS]
0.0377691 1 D9x Rx d 14 39 13 00 15 5A 43 CC 26 A0 43 0D 35 CF 12 [FD BRS]
0.0392082 1 DBx Rx d 14 39 0E 00 20 E5 2F C9 F9 07 7F 83 1A 3F CF [FD BRS]
0.0444615 1 DBx Rx d 13 39 0F 00 15 6B 06 CA 20 FF FF 7F CF FF [FD BRS]
0.0453247 1 DCx Rx d 13 39 10 00 16 7B 4A CE AE 2A 0A FA DC F4 [FD BRS]
0.0491299 1 2Dx Rx d 14 DD 9C D3 05 C4 09 00 90 70 97 EE 60 6F 52 [FD BRS]
0.0081453 1 D9x Rx d 14 39 13 00 15 9D CA AE 26 A0 43 CD 34 CF 12 [FD BRS]
0.0094955 1 DBx Rx d 14 39 0E 00 20 E0 00 AB F9 07 7F 83 1A 3F CF [FD BRS]
0.0148008 1 DBx Rx d 13 39 0F 00 15 21 20 AC 20 FF FF 7F CF FF [FD BRS]
0.0156499 1 DCx Rx d 13 39 10 00 16 73 72 B0 AE 2A 0A FA DC F4 [FD BRS]
0.0194632 1 2Dx Rx d 14 87 F2 B5 05 C4 09 00 90 70 97 DC 60 6F 52 [FD BRS]
0.0255714 1 18E19490x Rx d 15 01 02 00 3D 0D FE 00 80 0C 07 01 BC 02 06 06 [FD BRS]
0.0280608 1 D9x Rx d 13 39 13 00 15 0F 35 AF 26 A0 43 0D 34 CF [FD BRS]
0.0294970 1 DBx Rx d 14 39 0E 00 20 0C FF AC F9 07 7F 83 1A 3F CF [FD BRS]
0.0347912 1 DBx Rx d 13 39 0F 00 15 C3 30 AD 20 FF FF 7F CF FF [FD BRS]
0.0357064 1 DCx Rx d 13 39 10 00 16 57 DA B1 AE 2A 0A FA DC F4 [FD BRS]
0.0394436 1 2Dx Rx d 14 7E 84 B6 05 C4 09 00 90 70 97 DD 60 6F 52 [FD BRS]
0.0489874 1 D9x Rx d 13 39 13 00 15 C0 31 B0 26 A0 43 CD 34 CF [FD BRS]
0.0494946 1 DBx Rx d 14 39 0E 00 20 98 DB AD F9 07 7F 83 1A 3F CF [FD BRS]
0.0007497 1 DBx Rx d 14 39 0E 00 20 ED 74 87 F9 F7 7E 83 1A 3F C8 [FD BRS]
0.0059770 1 DBx Rx d 13 39 0F 00 15 AB 5F 88 20 FF FF 7F CF FF [FD BRS]
0.0067551 1 DCx Rx d 13 39 10 00 16 3A 86 8C AE 2A 0A FA DC F4 [FD BRS]
0.0106594 1 2Dx Rx d 14 6F DD 91 05 C4 09 00 90 70 97 C6 60 6F 52 [FD BRS]
0.0167776 1 18E19490x Rx d 15 02 88 00 64 64 64 01 00 00 00 77 12 F8 B5 00 [FD BRS]
0.0192040 1 D9x Rx d 14 39 13 00 15 48 AB 8B 27 A0 43 8D 33 CF 12 [FD BRS]
0.0206832 1 DBx Rx d 14 39 0E 00 20 8C 15 88 F9 F7 7E 83 1A 3F CF [FD BRS]
0.0259884 1 DBx Rx d 13 39 0F 00 15 49 4F 89 20 FF FF 7F CF FF [FD BRS]
0.0267706 1 DCx Rx d 13 39 10 00 16 1E 2E 8D AE 2A 0A FA DC F4 [FD BRS]
0.0306278 1 2Dx Rx d 14 96 AB 92 05 C4 09 00 90 70 97 C7 60 6F 52 [FD BRS]
0.0391976 1 D9x Rx d 13 39 13 00 15 3D 99 8C 26 A0 43 0D 36 CF [FD BRS]
0.0406847 1 DBx Rx d 14 39 0E 00 20 B8 5A 89 F9 07 7F 83 1A 3F CF [FD BRS]
0.0459779 1 DBx Rx d 13 39 0F 00 15 6F 7E 8A 20 FF FF 7F CF FF [FD BRS]
0.0466931 1 DCx Rx d 13 39 10 00 16 53 C6 8E AE 2A 0A FA DC F4 [FD BRS]
0.0470724 1 18E19490x Rx d 15 03 00 00 97 01 97 01 00 00 00 00 00 00 00 00 [FD BRS]
0.0007695 1 DBx Rx d 14 39 0E 00 20 56 8B 65 F9 F7 7E 83 1A 3F C4 [FD BRS]
0.0060748 1 DBx Rx d 13 39 0F 00 15 F9 0E 66 20 FF FF 7F CF FF [FD BRS]
0.0067029 1 DCx Rx d 13 39 10 00 16 F9 29 6A AE 2A 0A FA DC F0 [FD BRS]
0.0070853 1 18E19490x Rx d 15 04 03 00 03 00 03 00 7E 36 ED 0C 43 0D 22 01 [FD BRS]
0.0107115 1 2Dx Rx d 14 92 0C 6F 05 C4 09 00 90 70 97 B2 60 6F 52 [FD BRS]
0.0192342 1 D9x Rx d 13 39 13 00 15 46 14 69 32 A0 42 8D F7 CE [FD BRS]
0.0207684 1 DBx Rx d 14 39 0E 00 20 EA E6 66 F9 F7 7E 83 1A 3F C4 [FD BRS]
0.0260636 1 DBx Rx d 13 39 0F 00 15 1B 1E 67 20 FF FF 7F CF FF [FD BRS]
0.0267128 1 DCx Rx d 13 39 10 00 16 DD 81 6B AE 2A 0A FA DC F0 [FD BRS]
0.0307160 1 2Dx Rx d 14 1F 87 70 05 C4 09 00 90 70 97 B3 60 6F 52 [FD BRS]
0.0366912 1 DCx Rx d 9 39 FE 6F 08 94 01 00 80 01 [FD BRS]
0.0368895 1 18E19490x Rx d 15 00 00 00 A5 00 00 00 50 01 00 00 00 00 00 00 [FD BRS]
0.0401730 1 D9x Rx d 13 39 13 00 15 C5 7C 6A 32 A0 42 CD F6 CE [FD BRS]
0.0407631 1 DBx Rx d 14 39 0E 00 20 7E C2 67 F9 F7 7E 83 1A 3F C4 [FD BRS]
0.0412843 1 E3x Rx d 11 00 80 00 04 99 E3 48 04 41 00 05 [FD BRS]
0.0461874 1 DBx Rx d 13 39 0F 00 15 A5 EB 68 20 FF FF 7F CF FF [FD BRS]
0.0468125 1 DCx Rx d 14 39 10 01 10 15 3F 42 00 46 00 E6 42 10 9C [FD BRS]
0.0000029 1 5Bx Rx d 6 B6 CD C8 CF 6D B6 [FD]
0.0003664 1 D4x Rx d 8 39 04 06 04 F1 A7 7B 89 [FD BRS]
0.0085201 1 D9x Rx d 13 39 13 00 15 22 38 48 33 A0 42 CD EE CE [FD BRS]
0.0098903 1 DBx Rx d 15 39 0E 01 0F 2C 35 FF FF FF FF FF FF FF DF D2 [FD BRS]
0.0145095 1 E3x Rx d 9 41 00 05 08 01 13 54 5E 96 [FD BRS]
0.0152076 1 DBx Rx d 13 39 0F 00 15 FB 32 46 20 FF FF 7F CF FF [FD BRS]
0.0157608 1 DCx Rx d 13 39 10 00 16 ED 6F 4A AE 2A 0A FA DC F0 [FD BRS]
0.0198410 1 2Dx Rx d 14 C4 C1 4F 05 C4 09 00 90 70 97 9F 60 6F 52 [FD BRS]
0.0203674 1 D4x Rx d 15 39 04 0C 05 0E 0F F4 FF FF 39 15 01 14 43 01 [FD BRS]
0.0245207 1 E3x Rx d 12 39 06 0B 08 00 51 51 14 00 C0 CF FF [FD BRS]
0.0257639 1 18E19490x Rx d 15 03 00 00 99 01 99 01 00 00 00 00 00 00 00 00 [FD BRS]
0.0283233 1 D9x Rx d 13 39 13 00 15 D6 55 49 33 A0 42 8D F0 CE [FD BRS]
0.0299085 1 DBx Rx d 14 39 0F 01 06 4C 85 04 60 20 19 39 0E 00 20 [FD BRS]
0.0351738 1 DBx Rx d 13 39 0F 00 15 19 22 47 20 FF FF 7F CF FF [FD BRS]
0.0358749 1 DCx Rx d 13 39 10 00 16 C9 C7 4B AE 2A 0A FA DC F0 [FD BRS]
0.0398131 1 2Dx Rx d 14 91 27 50 05 C4 09 00 90 70 97 9F 60 6F 52 [FD BRS]
0.0483069 1 D9x Rx d 14 39 13 00 15 BA D7 4A 33 A0 42 0D F2 CE 12 [FD BRS]
0.0022706 1 DBx Rx d 13 39 0F 00 15 DB 47 25 20 FF FF 7F CF FF [FD BRS]
0.0027698 1 DCx Rx d 13 39 10 00 16 A9 E0 29 AE 2A 0A FA DC F4 [FD BRS]
0.0069120 1 2Dx Rx d 14 9F 86 2E 05 C4 09 00 90 70 97 8B 60 6F 52 [FD BRS]
0.0127743 1 18E19490x Rx d 15 01 02 00 3C 0D FE 00 80 0C 07 01 BC 02 06 06 [FD BRS]
0.0155856 1 D9x Rx d 13 39 13 00 15 CB FB 28 34 A0 42 0D EE CE [FD BRS]
0.0169638 1 DBx Rx d 14 39 0E 00 20 09 E3 25 F9 F7 7E 83 1A 3F C2 [FD BRS]
0.0222601 1 DBx Rx d 13 39 0F 00 15 FD 76 26 20 FF FF 7F CF FF [FD BRS]
0.0228342 1 DCx Rx d 13 39 10 00 16 D1 A5 2A AE 2A 0A FA DC F0 [FD BRS]
0.0268984 1 2Dx Rx d 14 A9 9E 2F 05 C4 09 00 90 70 97 8C 60 6F 52 [FD BRS]
0.0368413 1 D9x Rx d 13 39 13 00 15 B8 D9 29 35 A0 42 8D EC CE [FD BRS]
0.0372174 1 DBx Rx d 14 39 0E 00 20 B5 8E 26 F9 F7 7E 83 1A 3F C2 [FD BRS]
0.0377376 1 E3x Rx d 11 00 80 00 04 30 3A 3B 04 41 00 05 [FD BRS]
0.0408910 1 44 Rx d 1 04
0.0423831 1 DBx Rx d 13 39 0F 00 15 1F 66 27 20 FF FF 7F CF FF [FD BRS]
0.0427713 1 DCx Rx d 14 39 10 01 10 15 3F 42 32 46 00 7E 06 11 9C [FD BRS]
0.0432906 1 18E19490x Rx d 15 02 88 00 64 64 64 01 00 00 00 67 12 B6 BB 00 [FD BRS]
0.0469198 1 2Dx Rx d 14 FC 78 30 05 C4 09 00 90 70 97 8C 60 6F 52 [FD BRS]
0.0474472 1 D4x Rx d 8 39 04 06 04 AB 05 75 89 [FD BRS]
0.0076613 1 D9x Rx d 13 39 13 00 15 AE 5F 0B 35 A0 42 4D E9 CE [FD BRS]
0.0080395 1 DBx Rx d 14 39 FE 0B 08 61 00 00 80 01 00 00 00 39 0E [FD BRS]
0.0085537 1 E3x Rx d 11 00 80 00 04 6A 98 35 04 41 00 05 [FD BRS]
0.0117370 1 44 Rx d 1 04
0.0132172 1 DBx Rx d 13 39 0F 00 15 41 BF 09 20 FF FF 7F CF FF [FD BRS]
0.0136083 1 DCx Rx d 14 39 10 01 10 15 3F 42 32 46 00 4E 16 10 9C [FD BRS]
0.0141247 1 18E19490x Rx d 15 02 88 00 64 64 64 01 00 00 00 00 13 7F C3 00 [FD BRS]
0.0177419 1 2Dx Rx d 14 D6 9D 12 05 C4 09 00 90 70 97 7A 60 6F 52 [FD BRS]
0.0182662 1 D4x Rx d 8 39 04 06 04 A7 76 6F 89 [FD BRS]
0.0231063 1 DBx Rx d 14 39 0E 02 2A 3E 00 4A 00 65 0A B0 81 17 78 [FD BRS]
0.0262018 1 D9x Rx d 13 39 13 00 15 D0 77 0C 35 A0 42 0D E9 CE [FD BRS]
0.0278080 1 DBx Rx d 13 39 0E 01 0F 0C 35 FF FF FF FF FF FF FF [FD BRS]
0.0281963 1 21Cx Rx d 15 23 00 00 00 00 00 00 00 00 00 00 00 00 00 00 [FD BRS]
0.0324165 1 E3x Rx d 9 41 00 05 08 01 8D 7A D6 3C [FD BRS]
0.0330386 1 DBx Rx d 15 39 0E 00 20 E7 F9 09 F9 F7 7E 83 1A 3F C1 7F [FD BRS]
0.0336978 1 DCx Rx d 13 39 10 00 16 22 CE 0E AE 2A 0A FA DC F4 [FD BRS]
0.0377560 1 2Dx Rx d 14 11 F9 13 05 C4 09 00 90 70 97 7B 60 6F 52 [FD BRS]
0.0382824 1 D4x Rx d 15 39 04 0C 05 0E 0F F4 FF FF 39 15 01 14 43 01 [FD BRS]
0.0424137 1 E3x Rx d 12 39 06 0B 08 00 51 51 14 00 C0 CF FF [FD BRS]
0.0431308 1 DBx Rx d 13 39 0E 04 10 5C E3 0B 4C 24 B4 DB FF FF [FD BRS]
0.0435610 1 18E19490x Rx d 15 03 00 00 95 01 95 01 00 00 00 00 00 00 00 00 [FD BRS]
0.0464014 1 D9x Rx d 13 39 13 00 15 97 3E 0D 35 A0 42 4D E8 CE [FD BRS]
0.0478206 1 DBx Rx d 14 39 0E 00 20 5B 94 0A F9 F7 7E 83 1A 3F C1 [FD BRS]
0.0079232 1 D9x Rx d 13 39 13 00 15 63 DF F1 35 A0 42 4D E5 CE [FD BRS]
0.0094804 1 DBx Rx d 14 39 0E 00 20 A3 CD EE F9 F7 7E 83 1A 3F C0 [FD BRS]
0.0140736 1 E3x Rx d 11 3E 80 01 08 C3 02 01 E0 B7 10 E0 [FD BRS]
0.0143450 1 4Fx Rx d 8 28 D0 06 00 09 80 4D B6 [FD BRS]
0.0148971 1 DBx Rx d 13 39 0F 00 15 03 69 EF 20 FF FF 7F CF FF [FD BRS]
0.0152833 1 DCx Rx d 13 39 10 00 16 16 16 F3 AE 2A 0A FA DC F4 [FD BRS]
0.0194155 1 2Dx Rx d 14 C9 8C F8 05 C4 09 00 90 70 97 6B 60 6F 52 [FD BRS]
0.0251987 1 18E19490x Rx d 15 00 00 00 A5 00 00 00 50 01 00 00 00 00 00 00 [FD BRS]
0.0291341 1 D9x Rx d 13 39 13 00 15 6F 71 F2 35 A0 42 CD E4 CE [FD BRS]
0.0295113 1 DBx Rx d 14 39 0E 00 20 37 E9 EF F9 F7 7E 83 1A 3F C0 [FD BRS]
0.0300325 1 E3x Rx d 11 00 80 00 04 2F 24 30 04 41 00 05 [FD BRS]
0.0348966 1 DBx Rx d 13 39 0F 00 15 BC 82 F0 20 FF FF 7F CF FF [FD BRS]
0.0352857 1 DCx Rx d 14 39 10 01 10 15 3F 42 30 46 00 26 52 11 9C [FD BRS]
0.0394339 1 2Dx Rx d 14 D6 85 F9 05 C4 09 00 90 70 97 6B 60 6F 52 [FD BRS]
0.0399603 1 D4x Rx d 8 39 04 06 04 E2 CA 6A 89 [FD BRS]
0.0440916 1 E3x Rx d 9 02 80 00 08 0F EC 50 01 83 [FD BRS]
0.0478631 1 D9x Rx d 13 39 13 00 15 65 D0 F3 36 A0 42 8D E5 CE [FD BRS]
0.0494653 1 E3x Rx d 13 41 00 05 08 01 A1 39 2B 59 2B 3A 96 05 [FD BRS]
0.0073214 1 D9x Rx d 13 39 13 00 15 52 4A D3 39 A0 42 8D C5 EE [FD BRS]
0.0090016 1 DBx Rx d 14 39 0E 00 20 11 A0 D0 F9 F7 7E 83 1A 3F BB [FD BRS]
0.0142149 1 DBx Rx d 13 39 0F 00 15 5C AE D1 20 FF FF 7F CF FF [FD BRS]
0.0146020 1 DCx Rx d 13 39 10 00 16 8C 3D D5 AE 2A 0A FA DC F0 [FD BRS]
0.0188433 1 2Dx Rx d 14 93 F2 DA 05 C4 09 00 90 70 97 59 60 6F 52 [FD BRS]
0.0245275 1 DCx Rx d 9 39 FE 6F 08 94 01 00 80 01 [FD BRS]
0.0247258 1 18E19490x Rx d 15 00 00 00 A5 00 00 00 50 01 00 00 00 00 00 00 [FD BRS]
0.0285332 1 D9x Rx d 13 39 13 00 15 D5 27 D4 37 A0 42 8D CC 0E [FD BRS]
0.0289104 1 DBx Rx d 14 39 0E 00 20 C8 36 D1 F9 F7 7E 83 1A 3F BE [FD BRS]
0.0294326 1 E3x Rx d 11 00 80 00 04 23 57 2A 04 41 00 05 [FD BRS]
0.0343377 1 DBx Rx d 13 39 0F 00 15 7A 9F D2 20 FF FF 7F CF FF [FD BRS]
0.0347238 1 DCx Rx d 14 39 10 01 10 15 3F 42 00 46 00 F6 42 10 9C [FD BRS]
0.0389310 1 2Dx Rx d 14 8C FB DB 05 C4 09 00 90 70 97 59 60 6F 52 [FD BRS]
0.0394554 1 D4x Rx d 8 39 04 06 04 B8 68 64 89 [FD BRS]
0.0472511 1 D9x Rx d 13 39 13 00 15 5B 38 D5 39 A0 42 4D C5 0E [FD BRS]
0.0489982 1 DBx Rx d 15 39 0E 01 0F 0C 35 FF FF FF FF FF FF FF DF D2 [FD BRS]
0.0496594 1 E3x Rx d 13 41 00 05 08 01 43 C4 5A F1 B8 49 C6 05 [FD BRS]
0.0009885 1 E3x Rx d 9 41 00 02 08 02 6B 17 8C 4B [FD BRS]
0.0017706 1 DBx Rx d 13 39 0F 00 15 21 20 AC 20 FF FF 7F CF FF [FD BRS]
0.0021578 1 DCx Rx d 13 39 10 00 16 38 38 B0 AE 2A 0A FA DC FC [FD BRS]
0.0025411 1 18E19490x Rx d 15 00 00 00 A5 00 00 00 50 01 00 00 00 00 00 00 [FD BRS]
0.0063363 1 2Dx Rx d 14 CE 47 B5 05 C4 09 00 90 70 97 42 60 6F 52 [FD BRS]
0.0146500 1 D9x Rx d 14 39 13 00 15 B6 90 AF 20 A0 45 CD 3E 2F 10 [FD BRS]
0.0165002 1 DBx Rx d 14 39 0E 00 20 52 A5 AC FC 27 7F 83 1A 3F D8 [FD BRS]
0.0217355 1 DBx Rx d 13 39 0F 00 15 C3 30 AD 20 FF FF 7F CF FF [FD BRS]
0.0221197 1 DCx Rx d 13 39 10 00 16 1C 90 B1 AE 2A 0A FA DC FC [FD BRS]
0.0263559 1 2Dx Rx d 14 37 31 B6 05 C4 09 00 90 70 97 43 60 6F 52 [FD BRS]
0.0319881 1 18E19490x Rx d 15 01 02 00 3F 0D FE 00 80 0C 07 01 BC 02 06 06 [FD BRS]
0.0347335 1 D9x Rx d 13 39 13 00 15 19 6E B0 21 A0 44 CD 36 2F [FD BRS]
0.0365027 1 DBx Rx d 14 39 0E 00 20 B4 67 AD FC 27 7F 83 1A 3F D2 [FD BRS]
0.0417249 1 DBx Rx d 13 39 0F 00 15 E5 01 AE 20 FF FF 7F CF FF [FD BRS]
0.0421101 1 DCx Rx d 13 39 10 00 16 51 78 B2 AE 2A 0A FA DC FC [FD BRS]
0.0463503 1 2Dx Rx d 14 EF CF B7 05 C4 09 00 90 70 97 44 60 6F 52 [FD BRS]
0.0014850 1 18E19490x Rx d 15 01 02 00 42 0D FE 00 80 0C 07 01 BC 02 06 06 [FD BRS]
0.0043494 1 D9x Rx d 13 39 13 00 15 22 59 92 00 A0 49 8D 00 70 [FD BRS]
0.0060636 1 DBx Rx d 14 39 0E 00 20 D7 46 8F FE 47 7F 83 1A 3F FF [FD BRS]
0.0112829 1 DBx Rx d 13 39 0F 00 15 BA C6 90 20 FF FF 7F CF FF [FD BRS]
0.0116710 1 DCx Rx d 13 39 10 00 16 5D 83 94 AE 2A 0A FA DC 08 [FD BRS]
0.0159002 1 2Dx Rx d 14 F3 6D 99 05 C4 09 00 10 00 80 00 20 FA 50 [FD BRS]
0.0205466 1 E3x Rx d 8 00 80 00 04 63 6B 1C 05 [FD BRS]
0.0251332 1 D9x Rx d 13 39 13 00 15 13 2B 93 00 A0 4A 4D 00 70 [FD BRS]
0.0260663 1 DBx Rx d 14 39 0E 00 20 B8 E4 90 FE 47 7F 83 1A 3F FF [FD BRS]
0.0299096 1 44 Rx d 1 04
0.0312837 1 DBx Rx d 13 39 0F 00 15 58 D6 91 20 FF FF 7F CF FF [FD BRS]
0.0316688 1 DCx Rx d 14 39 10 01 10 15 3F 42 2D 46 00 8E 46 10 9C [FD BRS]
0.0321862 1 18E19490x Rx d 15 02 88 00 64 64 64 01 00 00 00 D2 12 57 13 00 [FD BRS]
0.0359134 1 2Dx Rx d 14 53 C8 9A 05 C4 09 00 10 70 97 32 A0 6F 52 [FD BRS]
0.0364428 1 D4x Rx d 8 39 04 06 04 09 9E 56 88 [FD BRS]
0.0444275 1 D9x Rx d 13 39 13 00 15 7C 17 94 FF 9F 4A 0D 00 70 [FD BRS]
0.0460726 1 DBx Rx d 15 39 0E 01 0F 24 35 FF FF FF FF FF FF FF DF D2 [FD BRS]
0.0036271 1 DBx Rx d 14 39 0E 00 20 E6 80 70 FE 47 7F 83 1A 3F 00 [FD BRS]
0.0072236 1 D9x Rx d 10 39 13 01 0B 52 00 08 55 85 00 [FD BRS]
0.0082858 1 E3x Rx d 9 41 00 05 08 00 80 03 43 CB [FD BRS]
0.0088070 1 21Cx Rx d 15 11 02 01 0E 00 00 01 F4 05 DC 09 38 0F A0 13 [FD BRS]
0.0094941 1 DCx Rx d 13 39 10 00 16 F6 1A 75 AE 2A 0A FA DC AC [FD BRS]
0.0098772 1 DBx Rx d 13 39 0F 00 15 56 62 71 20 FF FF 7F CF FF [FD BRS]
0.0102634 1 21Dx Rx d 3 30 40 28 [FD BRS]
0.0104186 1 21Cx Rx d 15 21 00 00 00 00 00 00 00 00 00 00 00 00 00 00 [FD BRS]
0.0136988 1 2Dx Rx d 14 46 B6 7A 04 C4 09 00 10 00 80 00 20 FA 60 [FD BRS]
0.0190810 1 18E19490x Rx d 15 01 02 00 1C 00 FF 00 80 0C 07 01 BC 02 06 06 [FD BRS]
0.0217844 1 D9x Rx d 13 39 13 00 15 55 8C 74 00 A0 01 40 00 90 [FD BRS]
0.0236526 1 DBx Rx d 14 39 0E 00 20 72 A4 71 FE 47 7F 83 1A 3F 00 [FD BRS]
0.0282058 1 E3x Rx d 9 41 00 05 08 01 CE 56 1A 9E [FD BRS]
0.0284881 1 4Fx Rx d 8 28 83 01 00 27 52 80 F3 [FD BRS]
0.0291173 1 DCx Rx d 13 39 10 00 16 BB F2 76 AE 2A 0A FA DC AC [FD BRS]
0.0294994 1 DBx Rx d 13 39 0F 00 15 70 53 72 20 FF FF 7F CF FF [FD BRS]
0.0335496 1 2Dx Rx d 14 8B 44 7B 04 C4 09 00 10 00 80 00 20 FA 60 [FD BRS]
0.0340827 1 DC085B Rx d 8 40 01 00 04 00 00 00 00
0.0343711 1 21Cx Rx d 15 22 00 00 00 00 00 00 00 00 00 00 00 00 00 00 [FD BRS]
0.0382053 1 E3x Rx d 8 00 80 00 04 C8 03 16 05 [FD BRS]
0.0427528 1 D9x Rx d 13 39 13 00 15 17 29 75 00 A0 01 C0 00 90 [FD BRS]
0.0437780 1 DBx Rx d 14 39 FE 0B 08 61 00 00 00 00 00 00 00 39 0E [FD BRS]
0.0475802 1 44 Rx d 1 04
0.0489423 1 DBx Rx d 13 39 0F 00 15 92 43 73 20 FF FF 7F CF FF [FD BRS]
0.0493285 1 DCx Rx d 14 39 10 01 10 15 3F 42 38 46 00 5E 06 11 9C [FD BRS]
0.0024770 1 2Dx Rx d 14 A6 9E 59 04 C4 09 00 10 00 80 00 20 FA 60 [FD BRS]
0.0030124 1 D4x Rx d 8 39 04 06 04 95 52 48 84 [FD BRS]
0.0079336 1 18E19490x Rx d 15 04 03 00 03 00 03 00 F6 36 ED 0C 2B 00 22 01 [FD BRS]
0.0108910 1 D9x Rx d 13 39 13 00 15 F3 87 53 00 A0 01 80 00 B0 [FD BRS]
0.0126262 1 DBx Rx d 15 39 0E 01 0F 78 00 FF FF FF FF FF FF FF DF D2 [FD BRS]
0.0178374 1 DBx Rx d 13 39 0F 00 15 54 5E 51 20 FF FF 7F CF FF [FD BRS]
0.0182216 1 DCx Rx d 13 39 10 00 16 E2 5C 55 AE 2A 0A FA DC AC [FD BRS]
0.0224448 1 2Dx Rx d 14 87 85 5A 04 C4 09 00 10 00 80 00 20 FA 60 [FD BRS]
0.0229792 1 D4x Rx d 13 39 04 0C 05 0E 0F F4 FF FF 39 0C 14 0C [FD BRS]
0.0270906 1 E3x Rx d 14 39 06 0B 08 00 51 51 18 00 C0 CF FF 39 04 [FD BRS]
0.0306860 1 D9x Rx d 13 39 13 00 15 8D AF 54 00 A0 01 C0 00 B0 [FD BRS]
0.0324543 1 E3x Rx d 10 05 00 00 0C F6 FC FF 00 00 00 [FD BRS]
0.0327914 1 DBx Rx d 14 39 0E 00 20 76 76 51 FE 47 7F 83 1A 3F 00 [FD BRS]
0.0377607 1 DBx Rx d 13 39 0F 00 15 72 6F 52 20 FF FF 7F CF FF [FD BRS]
0.0381459 1 DCx Rx d 13 39 10 00 16 AF B4 56 AE 2A 0A FA DC AC [FD BRS]
0.0385282 1 18E19490x Rx d 15 00 00 00 A5 00 00 00 50 01 00 00 00 00 00 00 [FD BRS]
0.0424344 1 2Dx Rx d 14 98 8C 5B 04 C4 09 00 10 00 80 00 20 FA 60 [FD BRS]
0.0020138 1 DBx Rx d 13 39 0F 00 15 0F E1 2F 20 FF FF 7F CF FF [FD BRS]
0.0023990 1 DCx Rx d 13 39 10 00 16 65 56 33 AE 2A 0A FA DC AC [FD BRS]
0.0067022 1 2Dx Rx d 14 FA C3 38 04 C4 09 00 10 00 80 00 20 FA 60 [FD BRS]
0.0120764 1 18E19490x Rx d 15 02 88 00 64 64 64 01 00 00 00 90 12 D0 23 00 [FD BRS]
0.0148478 1 D9x Rx d 14 39 13 00 15 1B B0 32 00 A0 02 80 00 D0 0F [FD BRS]
0.0168700 1 DBx Rx d 14 39 0E 00 20 A0 96 2F FE 47 7F 83 1A 3F 00 [FD BRS]
0.0213962 1 E3x Rx d 9 41 00 05 08 00 80 03 43 CB [FD BRS]
0.0221484 1 DBx Rx d 13 39 0F 00 15 B0 0A 30 20 FF FF 7F CF FF [FD BRS]
0.0225365 1 DCx Rx d 13 39 10 00 16 FA 3E 34 AE 2A 0A FA DC AC [FD BRS]
0.0266898 1 2Dx Rx d 14 E5 CA 39 04 C4 09 00 10 00 80 00 20 FA 60 [FD BRS]
0.0348415 1 D9x Rx d 13 39 13 00 15 29 FA 33 00 A0 02 C0 00 D0 [FD BRS]
0.0368687 1 DBx Rx d 14 39 0E 00 20 CF 34 30 FE 47 7F 83 1A 3F 00 [FD BRS]
0.0413529 1 E3x Rx d 9 41 00 05 08 01 BE 05 BC F6 [FD BRS]
0.0421021 1 DCx Rx d 13 39 10 00 16 DE 96 35 AE 2A 0A FA DC AC [FD BRS]
0.0424842 1 DBx Rx d 13 39 0F 00 15 52 1A 31 20 FF FF 7F CF FF [FD BRS]
0.0428684 1 18E19490x Rx d 15 03 00 00 94 01 94 01 00 00 00 00 00 00 00 00 [FD BRS]
0.0466886 1 2Dx Rx d 14 C4 D1 3A 04 C4 09 00 10 00 80 00 20 FA 60 [FD BRS]
0.0005121 1 D9x Rx d 13 39 13 00 15 29 5F 10 01 A0 02 C0 00 D0 [FD BRS]
0.0021923 1 DBx Rx d 14 39 0E 00 20 8C 0D 0D FE 47 7F 83 1A 3F 00 [FD BRS]
0.0066225 1 E3x Rx d 9 41 00 05 08 01 7F CF 70 B3 [FD BRS]
0.0068899 1 4Fx Rx d 8 28 7D 0D 00 27 54 0E 6E [FD BRS]
0.0073700 1 DCx Rx d 13 39 10 00 16 55 B8 12 AE 2A 0A FA DC AC [FD BRS]
0.0077542 1 DBx Rx d 13 39 0F 00 15 EF CD 0E 20 FF FF 7F CF FF [FD BRS]
0.0119814 1 2Dx Rx d 14 9E 87 17 04 C4 09 00 10 00 80 00 20 FA 60 [FD BRS]
0.0125168 1 DC085B Rx d 8 40 01 00 04 00 00 00 00
0.0166151 1 E3x Rx d 8 00 80 00 04 71 87 FE 02 [FD BRS]
0.0167795 1 21Dx Rx d 3 30 40 28 [FD BRS]
0.0169346 1 21Cx Rx d 15 21 00 00 00 00 00 00 00 00 00 00 00 00 00 00 [FD BRS]
0.0176448 1 18E19490x Rx d 15 00 00 00 A5 00 00 00 50 01 00 00 00 00 00 00 [FD BRS]
0.0214902 1 D9x Rx d 13 39 13 00 15 FD CB 11 FF 9F 01 40 00 D0 [FD BRS]
0.0221014 1 DBx Rx d 14 39 FE 0B 08 61 00 00 00 00 00 00 00 39 0E [FD BRS]
0.0260316 1 44 Rx d 1 04
0.0273798 1 DCx Rx d 14 39 10 01 10 15 3F 42 00 46 00 BE 12 11 9C [FD BRS]
0.0279019 1 DBx Rx d 13 39 0F 00 15 0D DD 0F 20 FF FF 7F CF FF [FD BRS]
0.0319881 1 2Dx Rx d 14 3B F0 18 04 C4 09 00 10 00 80 00 20 FA 60 [FD BRS]
0.0325245 1 D4x Rx d 8 39 04 06 04 3C 8B 3B 84 [FD BRS]
0.0373856 1 DBx Rx d 14 39 0E 02 2A 3E 00 4A 00 65 0A B0 81 17 78 [FD BRS]
0.0405990 1 D9x Rx d 13 39 13 00 15 57 F6 12 FF 9F 01 80 FF CF [FD BRS]
0.0422361 1 DBx Rx d 13 39 0E 01 0F 78 00 FF FF FF FF FF FF FF [FD BRS]
0.0426274 1 21Cx Rx d 15 22 00 00 00 00 00 00 00 00 00 00 00 00 00 00 [FD BRS]
0.0472077 1 DBx Rx d 15 39 0E 00 20 A4 44 0F FE 47 7F 83 1A 3F 00 80 [FD BRS]
0.0478659 1 DCx Rx d 13 39 10 00 16 EE 78 14 AE 2A 0A FA DC AC [FD BRS]
0.0482492 1 18E19490x Rx d 15 01 02 00 1C 00 FE 00 80 0C 07 01 BC 02 06 06 [FD BRS]
0.0012165 1 D9x Rx d 13 39 13 00 15 B4 B5 F2 00 A0 01 80 00 D0 [FD BRS]
0.0032416 1 DBx Rx d 14 39 0E 00 20 FA 5A EF FE 47 7F 83 1A 3F 00 [FD BRS]
0.0076258 1 E3x Rx d 9 41 00 05 08 01 A2 F5 63 7C [FD BRS]
0.0082660 1 DCx Rx d 13 39 10 00 16 A3 BA F4 AE 2A 0A FA DC AC [FD BRS]
0.0086481 1 DBx Rx d 13 39 0F 00 15 BC 82 F0 20 FF FF 7F CF FF [FD BRS]
0.0129854 1 2Dx Rx d 14 63 62 F9 04 C4 09 00 10 00 80 00 20 FA 60 [FD BRS]
0.0176867 1 E3x Rx d 8 00 80 00 04 E8 A0 F8 02 [FD BRS]
0.0182509 1 18E19490x Rx d 15 00 00 00 A5 00 00 00 50 01 00 00 00 00 00 00 [FD BRS]
0.0210403 1 D9x Rx d 13 39 13 00 15 E4 3C F3 FF 9F 02 80 00 D0 [FD BRS]
0.0232414 1 DBx Rx d 14 39 0E 00 20 95 F8 F0 FE 47 7F 83 1A 3F 00 [FD BRS]
0.0269976 1 44 Rx d 1 04
0.0283098 1 DBx Rx d 13 39 0F 00 15 5E 92 F1 20 FF FF 7F CF FF [FD BRS]
0.0286960 1 DCx Rx d 14 39 10 01 10 15 3F 42 2D 46 00 8E 46 10 9C [FD BRS]
0.0329952 1 2Dx Rx d 14 42 79 FA 04 C4 09 00 10 00 80 00 20 FA 60 [FD BRS]
0.0335295 1 D4x Rx d 8 39 04 06 04 66 29 35 84 [FD BRS]
0.0411312 1 D9x Rx d 13 39 13 00 15 FB EF F4 00 A0 02 00 00 D0 [FD BRS]
0.0432524 1 DBx Rx d 15 39 0E 01 0F 78 00 FF FF FF FF FF FF FF DF D2 [FD BRS]
0.0482576 1 DCx Rx d 13 39 10 00 16 CA FA F6 AE 2A 0A FA DC AC [FD BRS]
0.0486407 1 DBx Rx d 13 39 0F 00 15 78 A3 F2 20 FF FF 7F CF FF [FD BRS]
0.0490279 1 18E19490x Rx d 15 01 02 00 1C 00 FE 00 80 0C 07 01 BC 02 06 06 [FD BRS]
0.0000616 1 D9x Rx d 13 39 13 00 15 9B 10 D4 FF 9F 01 40 00 D0 [FD BRS]
0.0021708 1 DBx Rx d 14 39 0E 00 20 05 0E D1 FE 47 7F 83 1A 3F 00 [FD BRS]
0.0065050 1 E3x Rx d 9 41 00 05 08 01 C1 7E 7F 79 [FD BRS]
0.0071122 1 DCx Rx d 13 39 10 00 16 DE BC D6 AE 2A 0A FA DC AC [FD BRS]
0.0074943 1 DBx Rx d 13 39 0F 00 15 7A 9F D2 20 FF FF 7F CF FF [FD BRS]
0.0118625 1 2Dx Rx d 14 9C 43 DB 04 C4 09 00 10 00 80 00 20 FA 60 [FD BRS]
0.0164959 1 E3x Rx d 8 00 80 00 04 43 C8 F2 02 [FD BRS]
0.0170740 1 18E19490x Rx d 15 00 00 00 A5 00 00 00 50 01 00 00 00 00 00 00 [FD BRS]
0.0213055 1 D9x Rx d 13 39 13 00 15 79 00 D5 FF 9F 01 40 00 D0 [FD BRS]
0.0219887 1 DBx Rx d 14 39 0E 00 20 B9 63 D2 FE 47 7F 83 1A 3F 00 [FD BRS]
0.0258919 1 44 Rx d 1 04
0.0271520 1 DCx Rx d 14 39 10 01 10 15 3F 42 38 46 00 5E 06 11 9C [FD BRS]
0.0276702 1 DBx Rx d 13 39 0F 00 15 98 8F D3 20 FF FF 7F CF FF [FD BRS]
0.0318734 1 2Dx Rx d 14 C1 7C DC 04 C4 09 00 10 00 80 00 20 FA 60 [FD BRS]
0.0324097 1 D4x Rx d 8 39 04 06 04 6A 5A 2F 84 [FD BRS]
0.0399974 1 D9x Rx d 13 39 13 00 15 2F DE D6 FF 9F 01 80 00 D0 [FD BRS]
0.0421326 1 DBx Rx d 15 39 0E 01 0F 78 00 FF FF FF FF FF FF FF DF D2 [FD BRS]
0.0464258 1 D4x Rx d 14 39 04 0C 05 0E 0F F4 FF FF 39 15 01 14 43 [FD BRS]
0.0469671 1 D4x Rx d 15 39 0C 08 3C FE 74 00 80 00 00 08 6C 55 38 25 [FD BRS]
0.0476262 1 DBx Rx d 13 39 0F 00 15 36 FD D4 20 FF FF 7F CF FF [FD BRS]
0.0480124 1 DCx Rx d 13 39 10 00 16 E0 6D D8 AE 2A 0A FA DC AC [FD BRS]
0.0483947 1 18E19490x Rx d 15 01 02 00 1C 00 FD 00 80 0C 07 01 BC 02 06 06 [FD BRS]
0.0006454 1 DCx Rx d 13 39 10 00 16 E2 76 B6 AE 2A 0A FA DC AC [FD BRS]
0.0010286 1 DBx Rx d 13 39 0F 00 15 7C DB B2 20 FF FF 7F CF FF [FD BRS]
0.0053288 1 2Dx Rx d 14 DF 17 BB 04 C4 09 00 10 00 80 00 20 FA 60 [FD BRS]
0.0134465 1 D9x Rx d 14 39 13 00 15 1E BF B5 00 A0 01 80 00 D0 0F [FD BRS]
0.0156077 1 DBx Rx d 14 39 0E 00 20 94 05 B2 FE 47 7F 83 1A 3F 00 [FD BRS]
0.0200399 1 E3x Rx d 9 41 00 05 08 00 80 03 43 CB [FD BRS]
0.0205430 1 DCx Rx d 13 39 10 00 16 C6 DE B7 AE 2A 0A FA DC AC [FD BRS]
0.0209282 1 DBx Rx d 13 39 0F 00 15 9E CB B3 20 FF FF 7F CF FF [FD BRS]
0.0213133 1 18E19490x Rx d 15 04 03 00 03 00 03 00 C4 36 EE 0C 2B 00 22 01 [FD BRS]
0.0253315 1 2Dx Rx d 14 82 28 BC 04 C4 09 00 10 00 80 00 20 FA 60 [FD BRS]
0.0333382 1 D9x Rx d 13 39 13 00 15 3B B6 B6 00 A0 02 00 00 D0 [FD BRS]
0.0356084 1 DBx Rx d 14 39 0E 00 20 00 21 B3 FE 47 7F 83 1A 3F 00 [FD BRS]
0.0399886 1 E3x Rx d 9 41 00 05 08 01 F7 0E 3D CF [FD BRS]
0.0405487 1 DCx Rx d 13 39 10 00 16 DC A7 B8 AE 2A 0A FA DC AC [FD BRS]
0.0409309 1 DBx Rx d 13 39 0F 00 15 30 B9 B4 20 FF FF 7F CF FF [FD BRS]
0.0453431 1 2Dx Rx d 14 9D 21 BD 04 C4 09 00 10 00 80 00 20 FA 60 [FD BRS]
0.0006831 1 18E19490x Rx d 15 04 03 00 03 00 03 00 BA 36 ED 0C 2B 00 22 01 [FD BRS]
0.0038426 1 D9x Rx d 13 39 13 00 15 67 C4 90 FF 9F 01 80 00 D0 [FD BRS]
0.0059237 1 DBx Rx d 15 39 0E 01 0F 7C 00 FF FF FF FF FF FF FF DF D2 [FD BRS]
0.0107969 1 DCx Rx d 13 39 10 00 16 24 B0 92 AE 2A 0A FA DC AC [FD BRS]
0.0111791 1 DBx Rx d 13 39 0F 00 15 E7 3D 8E 20 FF FF 7F CF FF [FD BRS]
0.0156473 1 2Dx Rx d 14 9A 48 97 04 C4 09 00 10 00 80 00 20 FA 60 [FD BRS]
0.0161826 1 D4x Rx d 15 39 04 0C 05 0E 0F F4 FF FF 39 15 01 14 43 01 [FD BRS]
0.0202540 1 E3x Rx d 12 39 06 0B 08 00 51 51 18 00 C0 CF FF [FD BRS]
0.0205814 1 4Fx Rx d 8 20 D3 08 A0 00 49 9C 57 [FD BRS]
0.0236268 1 D9x Rx d 13 39 13 00 15 94 C0 91 00 A0 01 80 00 D0 [FD BRS]
0.0259260 1 DBx Rx d 14 39 0F 01 06 4C 85 04 60 54 00 39 0E 00 20 [FD BRS]
0.0308062 1 DCx Rx d 13 39 10 00 16 00 18 93 AE 2A 0A FA DC AC [FD BRS]
0.0311894 1 DBx Rx d 13 39 0F 00 15 05 2D 8F 20 FF FF 7F CF FF [FD BRS]
0.0315775 1 18E19490x Rx d 15 00 00 00 A5 00 00 00 50 01 00 00 00 00 00 00 [FD BRS]
0.0356357 1 2Dx Rx d 14 3F 3F 98 04 C4 09 00 10 00 80 00 20 FA 60 [FD BRS]
0.0436034 1 D9x Rx d 14 39 13 00 15 C1 26 92 00 A0 02 C0 00 D0 0F [FD BRS]
0.0459096 1 DBx Rx d 14 39 0E 00 20 D7 3C 8F FE 47 7F 83 1A 3F 00 [FD BRS]
0.0009570 1 D9x Rx d 14 39 13 00 15 AD DC 6A 00 A0 01 80 00 D0 0F [FD BRS]
0.0033082 1 DBx Rx d 14 39 0E 00 20 08 16 67 FE 47 7F 83 1A 3F 00 [FD BRS]
0.0077484 1 E3x Rx d 9 41 00 05 08 00 80 03 43 CB [FD BRS]
0.0080965 1 DCx Rx d 13 39 10 00 16 5D 80 6C AE 2A 0A FA DC AC [FD BRS]
0.0084807 1 DBx Rx d 13 39 0F 00 15 A5 EB 68 20 FF FF 7F CF FF [FD BRS]
0.0088679 1 18E19490x Rx d 15 04 03 00 03 00 03 00 BA 36 ED 0C 2B 00 22 01 [FD BRS]
0.0130431 1 2Dx Rx d 14 9F E5 71 04 C4 09 00 10 00 80 00 20 FA 60 [FD BRS]
0.0209528 1 D9x Rx d 13 39 13 00 15 4F CC 6B 00 A0 01 80 00 D0 [FD BRS]
0.0233600 1 DBx Rx d 14 39 0E 00 20 65 DD 68 FE 47 7F 83 1A 3F 00 [FD BRS]
0.0276971 1 E3x Rx d 9 41 00 05 08 01 E6 AA 11 9C [FD BRS]
0.0281043 1 DCx Rx d 13 39 10 00 16 79 28 6D AE 2A 0A FA DC AC [FD BRS]
0.0284874 1 DBx Rx d 13 39 0F 00 15 47 FB 69 20 FF FF 7F CF FF [FD BRS]
0.0330576 1 2Dx Rx d 14 BE FE 72 04 C4 09 00 10 00 80 00 20 FA 60 [FD BRS]
0.0376940 1 E3x Rx d 8 00 80 00 04 E3 2B DD 02 [FD BRS]
0.0380922 1 18E19490x Rx d 15 00 00 00 A5 00 00 00 50 01 00 00 00 00 00 00 [FD BRS]
0.0418996 1 D9x Rx d 13 39 13 00 15 92 69 6C 00 A0 02 C0 00 D0 [FD BRS]
0.0433078 1 DBx Rx d 14 39 0E 00 20 F1 F9 69 FE 47 7F 83 1A 3F 00 [FD BRS]
0.0481550 1 DCx Rx d 14 39 10 01 10 15 3F 42 00 46 00 B6 52 11 9C [FD BRS]
0.0486741 1 DBx Rx d 13 39 0F 00 15 61 CA 6A 20 FF FF 7F CF FF [FD BRS]
0.0042281 1 DBx Rx d 14 39 0E 02 2A 3E 00 4A 00 65 0A B0 81 17 78 [FD BRS]
0.0069175 1 D9x Rx d 13 39 13 00 15 0C 6D 4A 00 A0 02 80 00 D0 [FD BRS]
0.0090317 1 DBx Rx d 13 39 0E 01 0F 7C 00 FF FF FF FF FF FF FF [FD BRS]
0.0094240 1 21Cx Rx d 15 23 00 00 00 00 00 00 00 00 00 00 00 00 00 00 [FD BRS]
0.0137362 1 DCx Rx d 13 39 10 00 16 49 C6 4C AE 2A 0A FA DC AC [FD BRS]
0.0141174 1 DBx Rx d 15 39 0E 00 20 0C C4 47 FE 47 7F 83 1A 3F 00 80 [FD BRS]
0.0187946 1 2Dx Rx d 14 5E D6 51 04 C4 09 00 10 00 80 00 20 FA 60 [FD BRS]
0.0193290 1 D4x Rx d 15 39 04 0C 05 0E 0F F4 FF FF 39 15 01 14 43 01 [FD BRS]
0.0233883 1 E3x Rx d 12 39 06 0B 08 00 51 51 18 00 C0 CF FF [FD BRS]
0.0236935 1 18E19490x Rx d 15 03 00 00 93 01 93 01 00 00 00 00 00 00 00 00 [FD BRS]
0.0244147 1 DBx Rx d 13 39 0E 04 10 5C E3 0B 4C 24 B4 DB FF FF [FD BRS]
0.0267111 1 D9x Rx d 13 39 13 00 15 4D F0 4B 00 A0 01 80 00 D0 [FD BRS]
0.0290422 1 DBx Rx d 14 39 0E 00 20 61 0F 48 FE 47 7F 83 1A 3F 00 [FD BRS]
0.0338794 1 DCx Rx d 13 39 10 00 16 6D 6E 4D AE 2A 0A FA DC AC [FD BRS]
0.0342616 1 DBx Rx d 13 39 0F 00 15 45 C7 49 20 FF FF 7F CF FF [FD BRS]
0.0387688 1 2Dx Rx d 14 7F CD 52 04 C4 09 00 10 00 80 00 20 FA 60 [FD BRS]
0.0393039 1 21Cx Rx d 8 24 00 00 00 00 00 00 00 [FD BRS]
0.0466556 1 D9x Rx d 14 39 13 00 15 F2 96 4C FF 9F 01 80 00 D0 0F [FD BRS]
0.0490348 1 DBx Rx d 14 39 0E 00 20 F5 2B 49 FE 47 7F 83 1A 3F 00 [FD BRS]
0.0000016 1 1B6EDB6D Rx d 12 
0.0044459 1 2Dx Rx d 14 23 90 33 04 C4 09 00 10 00 80 00 20 FA 60 [FD BRS]
0.0049823 1 D4x Rx d 15 39 04 0C 05 0E 0F F4 FF FF 39 15 01 14 43 01 [FD BRS]
0.0090496 1 E3x Rx d 12 39 06 0B 08 00 51 51 18 00 C0 CF FF [FD BRS]
0.0093548 1 18E19490x Rx d 15 03 00 00 96 01 96 01 00 00 00 00 00 00 00 00 [FD BRS]
0.0100740 1 4Fx Rx d 8 20 F9 04 A0 00 49 9C 55 [FD BRS]
0.0127475 1 D9x Rx d 13 39 13 00 15 77 39 2D 00 A0 01 40 00 D0 [FD BRS]
0.0146996 1 DBx Rx d 14 39 0F 01 06 4C 85 04 60 40 00 39 0E 00 20 [FD BRS]
0.0194738 1 DCx Rx d 13 39 10 00 16 38 E4 2F AE 2A 0A FA DC AC [FD BRS]
0.0198580 1 DBx Rx d 13 39 0F 00 15 87 A2 2B 20 FF FF 7F CF FF [FD BRS]
0.0244202 1 2Dx Rx d 14 7E AF 34 04 C4 09 00 10 00 80 00 20 FA 60 [FD BRS]
0.0325349 1 D9x Rx d 14 39 13 00 15 30 F3 2E FF 9F 01 80 00 D0 0F [FD BRS]
0.0347261 1 DBx Rx d 14 39 0E 00 20 F0 04 2B FE 47 7F 83 1A 3F 00 [FD BRS]
0.0391813 1 E3x Rx d 9 41 00 05 08 00 80 03 43 CB [FD BRS]
0.0393774 1 DCx Rx d 13 39 10 00 16 28 BE 30 AE 2A 0A FA DC AC [FD BRS]
0.0397618 1 18E19490x Rx d 15 04 03 00 03 00 03 00 BA 36 ED 0C 2B 00 22 01 [FD BRS]
0.0404869 1 DBx Rx d 13 39 0F 00 15 29 D0 2C 20 FF FF 7F CF FF [FD BRS]
0.0444271 1 2Dx Rx d 14 61 A6 35 04 C4 09 00 10 00 80 00 20 FA 60 [FD BRS]
0.0008960 1 E3x Rx d 8 00 80 00 04 69 61 CA 02 [FD BRS]
0.0054706 1 D9x Rx d 13 39 13 00 15 C4 A4 0D FF 9F 01 C0 00 D0 [FD BRS]
0.0064958 1 DBx Rx d 14 39 0E 00 20 60 F2 0A FE 47 7F 83 1A 3F 00 [FD BRS]
0.0102870 1 44 Rx d 1 04
0.0111191 1 DCx Rx d 14 39 10 01 10 15 3F 42 39 46 00 1E 12 11 9C [FD BRS]
0.0116393 1 DBx Rx d 13 39 0F 00 15 85 9E 0B 20 FF FF 7F CF FF [FD BRS]
0.0120264 1 18E19490x Rx d 15 02 88 00 64 64 64 01 00 00 00 ED 12 31 24 00 [FD BRS]
0.0162777 1 2Dx Rx d 14 BF 9C 14 04 C4 09 00 10 00 80 00 20 FA 60 [FD BRS]
0.0168150 1 D4x Rx d 8 39 04 06 04 E7 E8 07 84 [FD BRS]
0.0241347 1 D9x Rx d 13 39 13 00 15 60 5C 0E FE 9F 02 00 01 D0 [FD BRS]
0.0265099 1 DBx Rx d 15 39 0E 01 0F 7C 00 FF FF FF FF FF FF FF DF D2 [FD BRS]
0.0308281 1 D4x Rx d 14 39 04 0C 05 0E 0F F4 FF FF 39 15 01 14 43 [FD BRS]
0.0313612 1 DCx Rx d 13 39 10 00 16 3C F8 10 AE 2A 0A FA DC AC [FD BRS]
0.0317444 1 D4x Rx d 15 39 0C 08 3C FE 74 00 80 00 00 08 6C 55 38 23 [FD BRS]
0.0324036 1 DBx Rx d 13 39 0F 00 15 2B EC 0C 20 FF FF 7F CF FF [FD BRS]
0.0363748 1 2Dx Rx d 14 A0 95 15 04 C4 09 00 10 00 80 00 20 FA 60 [FD BRS]
0.0408931 1 D4x Rx d 13 39 0C 14 0C FF FF FF FF FD FF FF FF FF [FD BRS]
0.0412853 1 E3x Rx d 12 39 06 0B 08 00 51 51 18 00 C0 CF FF [FD BRS]
0.0415906 1 18E19490x Rx d 15 03 00 00 93 01 93 01 00 00 00 00 00 00 00 00 [FD BRS]
0.0440930 1 D9x Rx d 13 39 13 00 15 A6 E4 0F FF 9F 02 00 01 D0 [FD BRS]
0.0465582 1 DBx Rx d 14 39 0F 01 06 4C 85 04 60 1C 00 39 0E 00 20 [FD BRS]
0.0034041 1 E3x Rx d 8 00 80 00 04 33 C3 C4 02 [FD BRS]
0.0079387 1 D9x Rx d 13 39 13 00 15 DE 6B EF FF 9F 01 80 00 D0 [FD BRS]
0.0090069 1 DBx Rx d 14 39 0E 00 20 46 37 EC FE 47 7F 83 1A 3F 00 [FD BRS]
0.0128001 1 44 Rx d 1 04
0.0135303 1 DCx Rx d 14 39 10 01 10 15 3F 42 00 46 00 EE 46 10 9C [FD BRS]
0.0140476 1 18E19490x Rx d 15 02 88 00 64 64 64 01 00 00 00 77 12 4D 57 00 [FD BRS]
0.0147497 1 DBx Rx d 13 39 0F 00 15 C7 48 ED 20 FF FF 7F CF FF [FD BRS]
0.0187789 1 2Dx Rx d 14 C6 15 F6 04 C4 09 00 10 00 80 00 20 FA 60 [FD BRS]
0.0193123 1 D4x Rx d 8 39 04 06 04 7E CF 01 84 [FD BRS]
0.0266140 1 D9x Rx d 13 39 13 00 15 61 80 F0 FF 9F 01 80 00 D0 [FD BRS]
0.0290201 1 DBx Rx d 15 39 0E 01 0F 7C 00 FF FF FF FF FF FF FF DF D2 [FD BRS]
0.0335164 1 DCx Rx d 13 39 10 00 16 18 7A F2 AE 2A 0A FA DC AC [FD BRS]
0.0341815 1 DBx Rx d 13 39 0F 00 15 E1 79 EE 20 FF FF 7F CF FF [FD BRS]
0.0387767 1 2Dx Rx d 14 D9 1C F7 04 C4 09 00 10 00 80 00 20 FA 60 [FD BRS]
0.0393101 1 D4x Rx d 15 39 04 0C 05 0E 0F F4 FF FF 39 15 01 14 43 01 [FD BRS]
0.0433914 1 E3x Rx d 12 39 06 0B 08 00 51 51 18 00 C0 CF FF [FD BRS]
0.0436966 1 18E19490x Rx d 15 03 00 00 98 01 98 01 00 00 00 00 00 00 00 00 [FD BRS]
0.0465430 1 D9x Rx d 13 39 13 00 15 53 CA F1 FF 9F 01 C0 00 D0 [FD BRS]
0.0490352 1 DBx Rx d 14 39 0F 01 06 4C 85 04 60 00 00 39 0E 00 20 [FD BRS]
0.0000031 1 2716D9B Rx d 2 8B 6D
0.0003536 1 D4x Rx d 8 39 04 06 04 2C 4E FA 84 [FD BRS]
0.0005139 1 E3x Rx d 9 02 80 00 08 05 99 45 01 83 [FD BRS]
0.0045091 1 18E19490x Rx d 15 04 03 00 03 00 03 00 BA 36 ED 0C 2B 00 22 01 [FD BRS]
0.0077746 1 D9x Rx d 13 39 13 00 15 1B 4E CD FF 9F 02 00 00 D0 [FD BRS]
0.0097938 1 E3x Rx d 10 05 00 00 0C F5 FC FF 00 00 00 [FD BRS]
0.0100559 1 DBx Rx d 15 39 0E 01 0F 78 00 FF FF FF FF FF FF FF DF D2 [FD BRS]
0.0145392 1 DCx Rx d 13 39 10 00 16 75 26 CF AE 2A 0A FA DC AC [FD BRS]
0.0152193 1 DBx Rx d 13 39 0F 00 15 89 16 CB 20 FF FF 7F CF FF [FD BRS]
0.0197845 1 2Dx Rx d 14 39 34 D4 04 C4 09 00 10 00 80 00 20 FA 60 [FD BRS]
0.0203179 1 D4x Rx d 13 39 04 0C 05 0E 0F F4 FF FF 39 0C 14 0C [FD BRS]
0.0244173 1 E3x Rx d 14 39 06 0B 08 00 51 51 18 00 C0 CF FF 39 04 [FD BRS]
0.0275567 1 D9x Rx d 13 39 13 00 15 3E 47 CE FF 9F 01 80 00 D0 [FD BRS]
0.0301089 1 DBx Rx d 14 39 0E 00 20 AE 1A CB FE 47 7F 83 1A 3F 00 [FD BRS]
0.0344281 1 E3x Rx d 9 3E 80 01 08 C3 02 01 D0 B7 [FD BRS]
0.0346222 1 DCx Rx d 13 39 10 00 16 65 7C D0 AE 2A 0A FA DC AC [FD BRS]
0.0350056 1 18E19490x Rx d 15 00 00 00 A5 00 00 00 50 01 00 00 00 00 00 00 [FD BRS]
0.0357237 1 DBx Rx d 13 39 0F 00 15 27 64 CC 20 FF FF 7F CF FF [FD BRS]
0.0397799 1 2Dx Rx d 14 26 3D D5 04 C4 09 00 10 00 80 00 20 FA 60 [FD BRS]
0.0475226 1 D9x Rx d 14 39 13 00 15 8B 28 CF FE 9F 02 C0 00 D0 0F [FD BRS]
0.0012546 1 DBx Rx d 14 39 0E 00 20 17 58 AA FE 47 7F 83 1A 3F 00 [FD BRS]
0.0056189 1 DCx Rx d 13 39 10 00 16 49 EC AF AE 2A 0A FA DC AC [FD BRS]
0.0060021 1 E3x Rx d 9 41 00 05 08 01 9D B3 45 2D [FD BRS]
0.0061942 1 18E19490x Rx d 15 03 00 00 96 01 96 01 00 00 00 00 00 00 00 00 [FD BRS]
0.0069144 1 DBx Rx d 13 39 0F 00 15 8F 52 AB 20 FF FF 7F CF FF [FD BRS]
0.0109776 1 2Dx Rx d 14 7A 60 B4 04 C4 09 00 10 00 80 00 20 FA 60 [FD BRS]
0.0156259 1 E3x Rx d 8 00 80 00 04 9A 1A B7 02 [FD BRS]
0.0157881 1 DCx Rx d 9 39 FE 6F 08 94 01 00 80 00 [FD BRS]
0.0199736 1 D9x Rx d 13 39 13 00 15 4B D4 AE FF 9F 02 C0 00 D0 [FD BRS]
0.0213048 1 DBx Rx d 14 39 0E 00 20 83 7C AB FE 47 7F 83 1A 3F 00 [FD BRS]
0.0256410 1 DCx Rx d 14 39 10 01 10 15 3F 42 82 46 00 86 46 11 9C [FD BRS]
0.0264291 1 DBx Rx d 13 39 0F 00 15 21 20 AC 20 FF FF 7F CF FF [FD BRS]
0.0311043 1 2Dx Rx d 14 65 69 B5 04 C4 09 00 10 00 80 00 20 FA 60 [FD BRS]
0.0316387 1 D4x Rx d 8 39 04 06 04 76 EC F4 84 [FD BRS]
0.0356539 1 18E19490x Rx d 15 04 03 00 03 00 03 00 BA 36 EE 0C 2B 00 22 01 [FD BRS]
0.0389883 1 D9x Rx d 13 39 13 00 15 18 65 AF 00 A0 02 40 00 D0 [FD BRS]
0.0410006 1 E3x Rx d 10 05 00 00 0C F5 FC FF 00 00 00 [FD BRS]
0.0412967 1 DBx Rx d 15 39 0E 01 0F 80 00 FF FF FF FF FF FF FF DF D2 [FD BRS]
0.0456869 1 DCx Rx d 13 39 10 00 16 7D 1E B1 AE 2A 0A FA DC AC [FD BRS]
0.0464281 1 DBx Rx d 13 39 0F 00 15 C3 30 AD 20 FF FF 7F CF FF [FD BRS]
0.0002904 1 DBx Rx d 14 39 0E 00 20 6B 51 8C FE 47 7F 83 1A 3F 00 [FD BRS]
0.0045926 1 DCx Rx d 13 39 10 00 16 69 58 91 AE 2A 0A FA DC AC [FD BRS]
0.0049748 1 E3x Rx d 9 41 00 05 08 01 07 76 39 85 [FD BRS]
0.0051680 1 18E19490x Rx d 15 03 00 00 9F 01 9F 01 00 00 00 00 00 00 00 00 [FD BRS]
0.0058902 1 DBx Rx d 13 39 0F 00 15 C1 0C 8D 20 FF FF 7F CF FF [FD BRS]
0.0100104 1 2Dx Rx d 14 85 41 96 04 C4 09 00 10 00 80 00 20 FA 60 [FD BRS]
0.0146628 1 E3x Rx d 8 00 80 00 04 03 3D B1 02 [FD BRS]
0.0189703 1 D9x Rx d 13 39 13 00 15 06 3F 90 00 A0 01 40 00 D0 [FD BRS]
0.0202905 1 DBx Rx d 14 39 0E 00 20 FF 75 8D FE 47 7F 83 1A 3F 00 [FD BRS]
0.0246137 1 DCx Rx d 14 39 10 01 10 15 3F 42 30 46 00 56 12 11 9C [FD BRS]
0.0254669 1 DBx Rx d 13 39 0F 00 15 E7 3D 8E 20 FF FF 7F CF FF [FD BRS]
0.0301020 1 2Dx Rx d 14 9A 48 97 04 C4 09 00 10 00 80 00 20 FA 60 [FD BRS]
0.0306364 1 D4x Rx d 8 39 04 06 04 7A 9F EE 84 [FD BRS]
0.0346246 1 18E19490x Rx d 15 04 03 00 03 00 03 00 B0 36 ED 0C 2B 00 22 01 [FD BRS]
0.0379330 1 D9x Rx d 13 39 13 00 15 E4 2F 91 00 A0 01 40 00 D0 [FD BRS]
0.0400262 1 E3x Rx d 10 05 00 00 0C F5 FC FF 00 00 00 [FD BRS]
0.0403324 1 DBx Rx d 15 39 0E 01 0F 80 00 FF FF FF FF FF FF FF DF D2 [FD BRS]
0.0446596 1 DCx Rx d 13 39 10 00 16 00 18 93 AE 2A 0A FA DC AC [FD BRS]
0.0454648 1 DBx Rx d 13 39 0F 00 15 05 2D 8F 20 FF FF 7F CF FF [FD BRS]
0.0011473 1 DBx Rx d 14 39 0E 00 20 1D 06 6E FE 47 7F 83 1A 3F 00 [FD BRS]
0.0053865 1 DCx Rx d 13 39 10 00 16 4D DA 73 AE 2A 0A FA DC AC [FD BRS]
0.0057697 1 E3x Rx d 9 41 00 05 08 01 89 EA AF EE [FD BRS]
0.0059629 1 18E19490x Rx d 15 03 00 00 9C 01 9C 01 00 00 00 00 00 00 00 00 [FD BRS]
0.0066831 1 DBx Rx d 13 39 0F 00 15 0B 99 6F 20 FF FF 7F CF FF [FD BRS]
0.0108673 1 2Dx Rx d 14 78 A4 78 04 C4 09 00 10 00 80 00 20 FA 60 [FD BRS]
0.0154946 1 E3x Rx d 8 00 80 00 04 0F 4E AB 02 [FD BRS]
0.0194581 1 D9x Rx d 13 39 13 00 15 6F 27 72 00 A0 02 40 00 D0 [FD BRS]
0.0211463 1 DBx Rx d 14 39 0E 00 20 89 22 6F FE 47 7F 83 1A 3F 00 [FD BRS]
0.0254095 1 DCx Rx d 14 39 10 01 10 15 3F 42 30 46 00 26 52 11 9C [FD BRS]
0.0263226 1 DBx Rx d 13 39 0F 00 15 B4 72 70 20 FF FF 7F CF FF [FD BRS]
0.0309098 1 2Dx Rx d 14 67 AD 79 04 C4 09 00 10 00 80 00 20 FA 60 [FD BRS]
0.0314442 1 D4x Rx d 8 39 04 06 04 E3 B8 E8 84 [FD BRS]
0.0354214 1 18E19490x Rx d 15 04 03 00 03 00 03 00 BA 36 ED 0C 2B 00 22 01 [FD BRS]
0.0387508 1 D9x Rx d 13 39 13 00 15 09 2A 73 01 A0 02 C0 00 D0 [FD BRS]
0.0408811 1 E3x Rx d 10 05 00 00 0C F5 FC FF 00 00 00 [FD BRS]
0.0411892 1 DBx Rx d 15 39 0E 01 0F 7C 00 FF FF FF FF FF FF FF DF D2 [FD BRS]
0.0454544 1 DCx Rx d 13 39 10 00 16 F6 1A 75 AE 2A 0A FA DC AC [FD BRS]
0.0463225 1 DBx Rx d 13 39 0F 00 15 56 62 71 20 FF FF 7F CF FF [FD BRS]
0.0000047 1 F9x Rx d 0  [FD]
0.0085726 1 D9x Rx d 13 39 13 00 15 51 96 54 00 A0 02 80 00 D0 [FD BRS]
0.0096448 1 E3x Rx d 11 00 80 00 04 55 EC A5 02 41 00 00 [FD BRS]
0.0099150 1 DBx Rx d 14 39 0E 00 20 76 76 51 FE 47 7F 83 1A 3F 00 [FD BRS]
0.0140732 1 DCx Rx d 14 39 10 01 10 15 3F 42 00 46 00 F6 42 10 9C [FD BRS]
0.0150683 1 DBx Rx d 13 39 0F 00 15 72 6F 52 20 FF FF 7F CF FF [FD BRS]
0.0196215 1 2Dx Rx d 14 98 8C 5B 04 C4 09 00 10 00 80 00 20 FA 60 [FD BRS]
0.0201539 1 D4x Rx d 8 39 04 06 04 48 D0 E2 84 [FD BRS]
0.0240751 1 18E19490x Rx d 15 04 03 00 03 00 03 00 BA 36 EE 0C 2B 00 22 01 [FD BRS]
0.0274255 1 D9x Rx d 13 39 13 00 15 B3 86 55 00 A0 02 80 00 D0 [FD BRS]
0.0296117 1 E3x Rx d 13 41 00 00 08 02 34 39 37 55 CA 99 7F 05 [FD BRS]
0.0299919 1 DBx Rx d 15 39 0E 01 0F 80 00 FF FF FF FF FF FF FF DF D2 [FD BRS]
0.0341151 1 DCx Rx d 13 39 10 00 16 8B 1C 57 AE 2A 0A FA DC AC [FD BRS]
0.0351472 1 DBx Rx d 13 39 0F 00 15 90 7F 53 20 FF FF 7F CF FF [FD BRS]
0.0395874 1 2Dx Rx d 14 C5 B3 5C 04 C4 09 00 10 00 80 00 20 FA 60 [FD BRS]
0.0401198 1 D4x Rx d 13 39 04 0C 05 0E 0F F4 FF FF 39 0C 14 0C [FD BRS]
0.0441891 1 E3x Rx d 12 39 06 0B 08 00 51 51 18 00 C0 CF FF [FD BRS]
0.0472086 1 D9x Rx d 13 39 13 00 15 E6 60 56 00 A0 01 C0 00 D0 [FD BRS]
0.0021211 1 2Dx Rx d 14 FA C3 38 04 C4 09 00 10 00 80 00 20 FA 60 [FD BRS]
0.0026554 1 D4x Rx d 8 39 04 06 04 D6 0F DB 84 [FD BRS]
0.0099051 1 D9x Rx d 13 39 13 00 15 1B B0 32 00 A0 02 80 00 D0 [FD BRS]
0.0123983 1 DBx Rx d 15 39 0E 01 0F 80 00 FF FF FF FF FF FF FF DF D2 [FD BRS]
0.0165025 1 DCx Rx d 13 39 10 00 16 FA 3E 34 AE 2A 0A FA DC AC [FD BRS]
0.0168868 1 18E19490x Rx d 15 01 02 00 1C 00 FE 00 80 0C 07 01 BC 02 06 06 [FD BRS]
0.0176490 1 DBx Rx d 13 39 0F 00 15 B0 0A 30 20 FF FF 7F CF FF [FD BRS]
0.0221092 1 2Dx Rx d 14 E5 CA 39 04 C4 09 00 10 00 80 00 20 FA 60 [FD BRS]
0.0226415 1 D4x Rx d 15 39 04 0C 05 0E 0F F4 FF FF 39 15 01 14 43 01 [FD BRS]
0.0267069 1 E3x Rx d 12 39 06 0B 08 00 51 51 18 00 C0 CF FF [FD BRS]
0.0270563 1 4Fx Rx d 8 20 4F 0A A0 00 49 9C 50 [FD BRS]
0.0296617 1 D9x Rx d 13 39 13 00 15 29 FA 33 00 A0 02 C0 00 D0 [FD BRS]
0.0324178 1 DBx Rx d 14 39 0F 01 06 4C 85 04 60 50 02 39 0E 00 20 [FD BRS]
0.0365571 1 DCx Rx d 13 39 10 00 16 DE 96 35 AE 2A 0A FA DC AC [FD BRS]
0.0376562 1 DBx Rx d 13 39 0F 00 15 52 1A 31 20 FF FF 7F CF FF [FD BRS]
0.0421084 1 2Dx Rx d 14 C4 D1 3A 04 C4 09 00 10 00 80 00 20 FA 60 [FD BRS]
0.0465527 1 18E19490x Rx d 15 02 88 00 64 64 64 01 00 00 00 B4 12 4E 32 00 [FD BRS]
0.0022321 1 2Dx Rx d 14 05 E2 1A 04 C4 09 00 10 00 80 00 20 FA 60 [FD BRS]
0.0027675 1 D4x Rx d 8 39 04 06 04 8C AD D5 84 [FD BRS]
0.0099691 1 D9x Rx d 13 39 13 00 15 E7 77 14 FF 9F 01 80 00 D0 [FD BRS]
0.0125813 1 DBx Rx d 15 39 0E 01 0F 7C 00 FF FF FF FF FF FF FF DF D2 [FD BRS]
0.0165715 1 DCx Rx d 13 39 10 00 16 87 38 16 AE 2A 0A FA DC AC [FD BRS]
0.0169537 1 D4x Rx d 14 39 04 0C 05 0E 0F F4 FF FF 39 15 01 14 43 [FD BRS]
0.0174868 1 18E19490x Rx d 15 01 02 00 1C 00 FE 00 80 0C 07 01 BC 02 06 06 [FD BRS]
0.0181930 1 D4x Rx d 15 39 0C 08 3C FE 74 00 80 00 00 08 6C 55 B8 20 [FD BRS]
0.0188532 1 DBx Rx d 13 39 0F 00 15 76 17 12 20 FF FF 7F CF FF [FD BRS]
0.0222254 1 2Dx Rx d 14 1A EB 1B 04 C4 09 00 10 00 80 00 20 FA 60 [FD BRS]
0.0268468 1 D4x Rx d 13 39 0C 14 0C FF FF FF FF FD FF FF FF FF [FD BRS]
0.0272391 1 E3x Rx d 12 39 06 0B 08 00 51 51 18 00 C0 CF FF [FD BRS]
0.0297665 1 D9x Rx d 13 39 13 00 15 05 67 15 FF 9F 01 80 00 D0 [FD BRS]
0.0325687 1 DBx Rx d 14 39 0F 01 06 4C 85 04 60 88 02 39 0E 00 20 [FD BRS]
0.0366129 1 DCx Rx d 13 39 10 00 16 A3 90 17 AE 2A 0A FA DC AC [FD BRS]
0.0377690 1 DBx Rx d 13 39 0F 00 15 94 07 13 20 FF FF 7F CF FF [FD BRS]
0.0422132 1 2Dx Rx d 14 47 D4 1C 04 C4 09 00 10 00 80 00 20 FA 60 [FD BRS]
0.0466064 1 18E19490x Rx d 15 02 88 00 64 64 64 01 00 00 00 53 12 80 BD 00 [FD BRS]
