date 2025-01-01 00:00:00.000
base hex  timestamps absolute
no internal events logged

0.0035176 1 E3x Rx d 8 00 80 00 04 A6 C6 F7 04 [FD BRS]
0.0047056 1 DCx Rx d 13 39 10 00 16 08 4D F6 AE 2A 0A FA DC E8 [FD BRS]
0.0066568 1 DBx Rx d 14 39 0E 00 20 B1 36 F0 F7 D7 7E 83 1A 3F 9B [FD BRS]
0.0075220 1 44 Rx d 1 04
0.0079424 1 D9x Rx d 13 39 13 00 15 08 EE F4 2E A0 40 8D 06 4F [FD BRS]
0.0116764 1 DBx Rx d 13 39 0F 00 15 5E 92 F1 20 FF FF 7F CF FF [FD BRS]
0.0134968 1 2Dx Rx d 14 47 17 FA 05 C4 09 00 90 70 97 58 62 6F 52 [FD BRS]
0.0140200 1 D4x Rx d 8 39 04 06 04 83 1D 34 89 [FD BRS]
0.0147900 1 18E19490x Rx d 15 03 00 00 9A 01 9A 01 00 00 00 00 00 00 01 00 [FD BRS]
0.0247496 1 DCx Rx d 13 39 10 00 16 2C E5 F7 AE 2A 0A FA DC E8 [FD BRS]
0.0265728 1 DBx Rx d 15 39 0E 01 0F 14 35 FF FF FF FF FF FF FF 0F D3 [FD BRS]
0.0276620 1 D9x Rx d 13 39 13 00 15 9A 11 F5 2E A0 40 4D 06 4F [FD BRS]
0.0282344 1 E3x Rx d 9 41 00 05 08 00 80 03 43 CB [FD BRS]
0.0316912 1 DBx Rx d 13 39 0F 00 15 78 A3 F2 20 FF FF 7F CF FF [FD BRS]
0.0334976 1 2Dx Rx d 14 58 1E FB 05 C4 09 00 90 70 97 58 62 6F 52 [FD BRS]
0.0340248 1 D4x Rx d 15 39 04 0C 05 0E 0F F4 FF FF 39 15 01 14 3F E9 [FD BRS]
0.0381724 1 E3x Rx d 12 39 06 0B 08 00 51 51 14 00 C0 CF FF [FD BRS]
0.0385116 1 4Fx Rx d 8 20 02 0C A0 00 49 9B 59 [FD BRS]
0.0447448 1 DCx Rx d 13 39 10 00 16 36 9C F8 AE 2A 0A FA DC E8 [FD BRS]
0.0451280 1 18E19490x Rx d 15 04 04 00 03 00 03 00 88 36 EE 0C 41 0D 22 01 [FD BRS]
0.0465404 1 DBx Rx d 14 39 0F 01 06 4B 85 04 60 C0 1A 39 0E 00 20 [FD BRS]
0.0477616 1 D9x Rx d 14 39 13 00 15 CC CF F6 2E A0 40 8D 06 4F 12 [FD BRS]
0.0482740 1 E3x Rx d 9 41 00 05 08 01 E7 12 E7 F5 [FD BRS]
0.0516920 1 DBx Rx d 13 39 0F 00 15 9A B3 F3 20 FF FF 7F CF FF [FD BRS]
0.0534732 1 2Dx Rx d 14 05 21 FC 05 C4 09 00 90 70 97 58 62 6F 52 [FD BRS]
0.0539984 1 DC085B Rx d 8 40 03 08 04 00 00 00 00
0.0646928 1 DCx Rx d 13 39 10 00 16 12 34 F9 AE 2A 0A FA DC E8 [FD BRS]
0.0665108 1 DBx Rx d 14 39 0E 00 20 0D 5B F3 F7 D7 7E 83 1A 3F 9B [FD BRS]
0.0676072 1 D9x Rx d 13 39 13 00 15 FB 69 F7 2E A0 40 0D 07 4F [FD BRS]
0.0716852 1 DBx Rx d 13 39 0F 00 15 34 C1 F4 20 FF FF 7F CF FF [FD BRS]
0.0734804 1 2Dx Rx d 14 1A 28 FD 05 C4 09 00 90 70 97 58 62 6F 52 [FD BRS]
0.0747988 1 18E19490x Rx d 15 00 00 00 A5 00 00 00 50 01 00 00 00 00 00 00 [FD BRS]
0.0848080 1 DCx Rx d 14 39 10 01 10 15 3F 41 00 43 00 96 06 10 9C [FD BRS]
0.0865124 1 DBx Rx d 14 39 0E 00 20 E1 A4 F4 F7 D7 7E 83 1A 3F 9B [FD BRS]
0.0883804 1 4Fx Rx d 8 28 01 0C 00 0A 40 EE 60 [FD BRS]
0.0887056 1 D9x Rx d 13 39 13 00 15 30 9F F8 2E A0 40 0D 06 4F [FD BRS]
0.0916740 1 DBx Rx d 13 39 0F 00 15 D6 D1 F5 20 FF FF 7F CF FF [FD BRS]
0.0935432 1 2Dx Rx d 14 3B 33 FE 05 C4 09 00 90 70 97 58 62 6F 52 [FD BRS]
0.0981096 1 E3x Rx d 8 3A 02 00 04 F4 FF FF FF [FD BRS]
0.1035048 1 E3x Rx d 8 00 80 00 04 48 12 F8 04 [FD BRS]
0.1047108 1 DCx Rx d 13 39 10 00 16 7B 74 FB AE 2A 0A FA DC E8 [FD BRS]
0.1050944 1 18E19490x Rx d 15 01 03 00 3A 0D F8 00 80 0C FF 00 BC 02 06 06 [FD BRS]
0.1066564 1 DBx Rx d 14 39 0E 00 20 75 80 F5 F7 D7 7E 83 1A 3F 9B [FD BRS]
0.1076808 1 D9x Rx d 13 39 13 00 15 9D D0 F9 2E A0 40 4D 05 4F [FD BRS]
0.1116728 1 DBx Rx d 13 39 0F 00 15 F0 E0 F6 20 FF FF 7F CF FF [FD BRS]
0.1135072 1 2Dx Rx d 14 24 3A FF 05 C4 09 00 90 70 97 58 62 6F 52 [FD BRS]
0.1140304 1 D4x Rx d 8 39 04 06 04 37 6B 35 89 [FD BRS]
0.1181656 1 E3x Rx d 9 02 80 00 08 14 07 4B 01 83 [FD BRS]
0.1235380 1 E3x Rx d 13 41 00 05 08 00 80 03 43 CB 83 9E 16 05 [FD BRS]
0.1247052 1 DCx Rx d 13 39 10 00 16 E4 1C FC AE 2A 0A FA DC E8 [FD BRS]
0.1265344 1 DBx Rx d 15 39 0E 01 0F 0C 35 FF FF FF FF FF FF FF 0F D3 [FD BRS]
0.1276808 1 D9x Rx d 13 39 13 00 15 CB 0E FA 2E A0 40 8D 05 4F [FD BRS]
0.1316720 1 DBx Rx d 13 39 0F 00 15 12 F0 F7 20 FF FF 7F CF FF [FD BRS]
0.1334792 1 2Dx Rx d 14 36 47 00 05 C4 09 00 90 70 97 58 62 6F 52 [FD BRS]
0.1340044 1 D4x Rx d 13 39 04 0C 05 0E 0F F4 FF FF 39 0C 14 0C [FD BRS]
0.1348708 1 18E19490x Rx d 15 02 88 00 64 64 64 01 00 00 00 E3 12 A0 EC 00 [FD BRS]
0.1381020 1 E3x Rx d 12 39 06 0B 08 00 51 51 14 00 C0 CF FF [FD BRS]
0.1448172 1 DCx Rx d 13 39 10 00 16 C0 B4 FD AE 2A 0A FA DC E8 [FD BRS]
0.1465292 1 DBx Rx d 14 39 0E 00 20 5D C9 F7 F7 D7 7E 83 1A 3F 9B [FD BRS]
0.1476176 1 D9x Rx d 14 39 13 00 15 C6 F4 FB 2E A0 40 4D 06 4F 12 [FD BRS]
0.1481568 1 E3x Rx d 14 41 00 05 08 01 2A 5E 2B C8 9B B3 C8 39 80 [FD BRS]
0.1517120 1 DBx Rx d 13 39 0F 00 15 AC 05 F8 20 FF FF 7F CF FF [FD BRS]
0.1534940 1 2Dx Rx d 14 29 4E 01 05 C4 09 00 90 70 97 58 62 6F 52 [FD BRS]
0.1646992 1 DCx Rx d 13 39 10 00 16 8D 5C FE AE 2A 0A FA DC E8 [FD BRS]
0.1650804 1 18E19490x Rx d 15 03 00 00 98 01 98 01 00 00 00 00 00 00 02 00 [FD BRS]
0.1665596 1 DBx Rx d 14 39 0E 00 20 30 02 F8 F7 D7 7E 83 1A 3F 9B [FD BRS]
0.1677572 1 D9x Rx d 13 39 13 00 15 CD DF FC 2E A0 40 0D 07 4F [FD BRS]
0.1716824 1 DBx Rx d 13 39 0F 00 15 4E 15 F9 20 FF FF 7F CF FF [FD BRS]
0.1734712 1 2Dx Rx d 14 08 55 02 05 C4 09 00 90 70 97 58 62 6F 52 [FD BRS]
0.1847508 1 DCx Rx d 14 39 10 01 10 15 3F 41 00 43 00 9E 06 10 9C [FD BRS]
0.1865088 1 DBx Rx d 14 39 0E 00 20 A4 26 F9 F7 D7 7E 83 1A 3F 9B [FD BRS]
0.1885780 1 D9x Rx d 13 39 13 00 15 2A 23 FD 2E A0 40 CD 06 4F [FD BRS]
0.1916724 1 DBx Rx d 13 39 0F 00 15 68 24 FA 20 FF FF 7F CF FF [FD BRS]
0.1934936 1 2Dx Rx d 14 17 5C 03 05 C4 09 00 90 70 97 58 62 6F 52 [FD BRS]
0.1948076 1 18E19490x Rx d 15 04 03 00 03 00 03 00 88 36 EE 0C 40 0D 22 01 [FD BRS]
0.0024448 1 DBx Rx d 13 39 0F 00 15 8D 6E 8B 20 FF FF 7F CF FF [FD BRS]
0.0042220 1 2Dx Rx d 14 BE 3D 94 05 C4 09 00 90 70 97 58 62 6F 52 [FD BRS]
0.0053112 1 18E19490x Rx d 15 00 00 00 A5 00 00 00 50 01 00 00 00 00 00 00 [FD BRS]
0.0153916 1 DCx Rx d 14 39 10 01 10 15 3F 41 00 43 00 EE 46 10 9C [FD BRS]
0.0172696 1 DBx Rx d 14 39 0E 00 20 3F 3C 8B F7 E7 7E 83 1A 3F 9F [FD BRS]
0.0182472 1 D9x Rx d 13 39 13 00 15 0D AF 8F 2E A0 41 CD 03 4F [FD BRS]
0.0224340 1 DBx Rx d 13 39 0F 00 15 23 1C 8C 20 FF FF 7F CF FF [FD BRS]
0.0242612 1 2Dx Rx d 14 A1 34 95 05 C4 09 00 90 70 97 58 62 6F 52 [FD BRS]
0.0342596 1 E3x Rx d 8 00 80 00 04 F0 17 E3 04 [FD BRS]
0.0353236 1 DCx Rx d 13 39 10 00 16 D3 AA 92 AE 2A 0A FA DC EC [FD BRS]
0.0357032 1 18E19490x Rx d 15 01 03 00 3B 0D F8 00 80 0C FA 00 BC 02 06 06 [FD BRS]
0.0374144 1 DBx Rx d 14 39 0E 00 20 D3 C3 8C F7 E7 7E 83 1A 3F 9F [FD BRS]
0.0382764 1 44 Rx d 1 04
0.0383928 1 D9x Rx d 13 39 13 00 15 59 F9 90 2E A0 41 4D 04 4F [FD BRS]
0.0424328 1 DBx Rx d 13 39 0F 00 15 C1 0C 8D 20 FF FF 7F CF FF [FD BRS]
0.0442480 1 2Dx Rx d 14 80 2F 96 05 C4 09 00 90 70 97 58 62 6F 52 [FD BRS]
0.0447732 1 D4x Rx d 8 39 04 06 04 D5 CC 20 89 [FD BRS]
0.0553076 1 DCx Rx d 13 39 10 00 16 F7 02 93 AE 2A 0A FA DC EC [FD BRS]
0.0572788 1 DBx Rx d 15 39 0E 01 0F 14 35 FF FF FF FF FF FF FF 0F D3 [FD BRS]
0.0582400 1 D9x Rx d 13 39 13 00 15 E1 75 91 2E A0 40 8D 03 4F [FD BRS]
0.0589344 1 E3x Rx d 9 41 00 05 08 00 80 03 43 CB [FD BRS]
0.0624472 1 DBx Rx d 13 39 0F 00 15 E7 3D 8E 20 FF FF 7F CF FF [FD BRS]
0.0642336 1 2Dx Rx d 14 9F 26 97 05 C4 09 00 90 70 97 58 62 6F 52 [FD BRS]
0.0647588 1 D4x Rx d 15 39 04 0C 05 0E 0F F4 FF FF 39 15 01 14 3F E9 [FD BRS]
0.0654380 1 18E19490x Rx d 15 02 88 00 64 64 64 01 00 00 00 94 12 A0 EC 00 [FD BRS]
0.0688412 1 E3x Rx d 12 39 06 0B 08 00 51 51 14 00 C0 CF FF [FD BRS]
0.0691664 1 4Fx Rx d 8 20 F9 08 A0 00 49 9B 57 [FD BRS]
0.0754508 1 DCx Rx d 13 39 10 00 16 68 6A 94 AE 2A 0A FA DC EC [FD BRS]
0.0772980 1 DBx Rx d 14 39 0F 01 06 4B 85 04 60 C0 1A 39 0E 00 20 [FD BRS]
0.0784532 1 D9x Rx d 14 39 13 00 15 76 65 92 2E A0 41 CD 03 4F 12 [FD BRS]
0.0789684 1 E3x Rx d 9 41 00 05 08 01 EC A2 3C BA [FD BRS]
0.0824476 1 DBx Rx d 13 39 0F 00 15 05 2D 8F 20 FF FF 7F CF FF [FD BRS]
0.0842388 1 2Dx Rx d 14 3A 51 98 05 C4 09 00 90 70 97 58 62 6F 52 [FD BRS]
0.0847620 1 DC085B Rx d 8 40 03 08 04 00 00 00 00
0.0953084 1 DCx Rx d 13 39 10 00 16 4C C2 95 AE 2A 0A FA DC EC [FD BRS]
0.0956888 1 18E19490x Rx d 15 03 00 00 94 01 94 01 00 00 00 00 00 00 01 00 [FD BRS]
0.0973200 1 DBx Rx d 14 39 0E 00 20 6F AE 8F F7 E7 7E 83 1A 3F 9F [FD BRS]
0.0984452 1 D9x Rx d 13 39 13 00 15 0F 27 93 2E A0 41 8D 04 4F [FD BRS]
0.1024404 1 DBx Rx d 13 39 0F 00 15 BA C6 90 20 FF FF 7F CF FF [FD BRS]
0.1042324 1 2Dx Rx d 14 25 58 99 05 C4 09 00 90 70 97 58 62 6F 52 [FD BRS]
0.1153400 1 DCx Rx d 14 39 10 01 10 15 3F 41 00 43 00 F6 42 10 9C [FD BRS]
0.1172680 1 DBx Rx d 14 39 0E 00 20 00 0C 90 F7 E7 7E 83 1A 3F 9F [FD BRS]
0.1182324 1 D9x Rx d 13 39 13 00 15 71 0F 94 2E A0 41 CD 04 4F [FD BRS]
0.1191256 1 4Fx Rx d 8 28 68 08 00 0A 40 BD FB [FD BRS]
0.1224316 1 DBx Rx d 13 39 0F 00 15 58 D6 91 20 FF FF 7F CF FF [FD BRS]
0.1242556 1 2Dx Rx d 14 04 43 9A 05 C4 09 00 90 70 97 58 62 6F 52 [FD BRS]
0.1253708 1 18E19490x Rx d 15 04 03 00 03 00 03 00 88 36 EE 0C 41 0D 22 01 [FD BRS]
0.1288660 1 E3x Rx d 8 3A 02 00 04 F4 FF FF FF [FD BRS]
0.1342536 1 E3x Rx d 8 00 80 00 04 DD 46 E4 04 [FD BRS]
0.1353996 1 DCx Rx d 13 39 10 00 16 25 82 97 AE 2A 0A FA DC EC [FD BRS]
0.1374136 1 DBx Rx d 14 39 0E 00 20 94 28 91 F7 E7 7E 83 1A 3F 9F [FD BRS]
0.1387992 1 D9x Rx d 13 39 13 00 15 93 1F 95 2E A0 41 CD 04 4F [FD BRS]
0.1424312 1 DBx Rx d 13 39 0F 00 15 7E E7 92 20 FF FF 7F CF FF [FD BRS]
0.1442744 1 2Dx Rx d 14 1B 4A 9B 05 C4 09 00 90 70 97 58 62 6F 52 [FD BRS]
0.1447988 1 D4x Rx d 8 39 04 06 04 61 BA 21 89 [FD BRS]
0.1489100 1 E3x Rx d 9 02 80 00 08 B2 88 49 01 83 [FD BRS]
0.1542664 1 E3x Rx d 13 41 00 05 08 00 80 03 43 CB 82 D6 70 05 [FD BRS]
0.1553228 1 DCx Rx d 13 39 10 00 16 3F FB 98 AE 2A 0A FA DC EC [FD BRS]
0.1557040 1 18E19490x Rx d 15 00 00 00 A5 00 00 00 50 01 00 00 00 00 00 00 [FD BRS]
0.1573072 1 DBx Rx d 15 39 0E 01 0F 0C 35 FF FF FF FF FF FF FF 0F D3 [FD BRS]
0.1585724 1 D9x Rx d 13 39 13 00 15 B5 2E 96 2E A0 41 CD 04 4F [FD BRS]
0.1624316 1 DBx Rx d 13 39 0F 00 15 9C F7 93 20 FF FF 7F CF FF [FD BRS]
0.1642300 1 2Dx Rx d 14 46 75 9C 05 C4 09 00 90 70 97 58 62 6F 52 [FD BRS]
0.1647552 1 D4x Rx d 13 39 04 0C 05 0E 0F F4 FF FF 39 0C 14 0C [FD BRS]
0.1688616 1 E3x Rx d 12 39 06 0B 08 00 51 51 14 00 C0 CF FF [FD BRS]
0.1753728 1 DCx Rx d 13 39 10 00 16 1B 53 99 AE 2A 0A FA DC EC [FD BRS]
0.1772880 1 DBx Rx d 14 39 0E 00 20 BC 61 93 F7 E7 7E 83 1A 3F 9F [FD BRS]
0.1785260 1 D9x Rx d 14 39 13 00 15 87 64 97 2E A0 41 8D 04 4F 12 [FD BRS]
0.1790396 1 E3x Rx d 14 41 00 05 08 01 E6 49 3B C7 1A CB EF 39 80 [FD BRS]
0.1824576 1 DBx Rx d 13 39 0F 00 15 32 85 94 20 FF FF 7F CF FF [FD BRS]
0.1842316 1 2Dx Rx d 14 59 7C 9D 05 C4 09 00 90 70 97 58 62 6F 52 [FD BRS]
0.1853808 1 18E19490x Rx d 15 01 03 00 3B 0D F8 00 80 0C FF 00 BC 02 06 06 [FD BRS]
0.1953892 1 DCx Rx d 13 39 10 00 16 56 BB 9A AE 2A 0A FA DC EC [FD BRS]
0.1972664 1 DBx Rx d 14 39 0E 00 20 50 9E 94 F7 E7 7E 83 1A 3F 9F [FD BRS]
0.1985008 1 D9x Rx d 13 39 13 00 15 99 24 98 2E A0 41 0D 04 4F [FD BRS]
0.0000004 1 0 Rx d 0 
0.0015188 1 D9x Rx d 13 39 13 00 15 2F 3A 26 30 A0 41 8D FC 6E [FD BRS]
0.0048672 1 DBx Rx d 13 39 0F 00 15 97 25 23 20 FF FF 7F CF FF [FD BRS]
0.0067864 1 2Dx Rx d 14 9C 84 2C 05 C4 09 00 90 70 97 58 62 6F 52 [FD BRS]
0.0166856 1 E3x Rx d 8 00 80 00 04 38 19 CE 04 [FD BRS]
0.0175288 1 DCx Rx d 13 39 10 00 16 74 3E 29 AE 2A 0A FA DC EC [FD BRS]
0.0179120 1 18E19490x Rx d 15 01 02 00 3B 0D F8 00 80 0C FA 00 BC 02 06 06 [FD BRS]
0.0198472 1 DBx Rx d 14 39 0E 00 20 3D 0F 23 F8 E7 7E 83 1A 3F A2 [FD BRS]
0.0208344 1 D9x Rx d 13 39 13 00 15 56 78 27 30 A0 41 CD FB 6E [FD BRS]
0.0248668 1 DBx Rx d 13 39 0F 00 15 39 57 24 20 FF FF 7F CF FF [FD BRS]
0.0266720 1 2Dx Rx d 14 83 8D 2D 05 C4 09 00 90 70 97 58 62 6F 52 [FD BRS]
0.0271972 1 D4x Rx d 8 39 04 06 04 84 E5 0B 89 [FD BRS]
0.0368304 1 E3x Rx d 13 41 00 05 08 00 80 03 43 CB 81 F9 05 05 [FD BRS]
0.0375436 1 DCx Rx d 13 39 10 00 16 39 D6 2A AE 2A 0A FA DC EC [FD BRS]
0.0397280 1 DBx Rx d 15 39 0E 01 0F 20 35 FF FF FF FF FF FF FF 0F D3 [FD BRS]
0.0406132 1 D9x Rx d 13 39 13 00 15 E8 8D 28 30 A0 41 CD FB 6E [FD BRS]
0.0448672 1 DBx Rx d 13 39 0F 00 15 DB 47 25 20 FF FF 7F CF FF [FD BRS]
0.0466524 1 2Dx Rx d 14 A2 96 2E 05 C4 09 00 90 70 97 58 62 6F 52 [FD BRS]
0.0471760 1 D4x Rx d 13 39 04 0C 05 0E 0F F4 FF FF 39 0C 14 0C [FD BRS]
0.0475660 1 18E19490x Rx d 15 02 88 00 64 64 64 01 00 00 00 B0 12 6A A1 00 [FD BRS]
0.0512672 1 E3x Rx d 12 39 06 0B 08 00 51 51 14 00 C0 CF FF [FD BRS]
0.0576284 1 DCx Rx d 13 39 10 00 16 1D 7E 2B AE 2A 0A FA DC EC [FD BRS]
0.0597224 1 DBx Rx d 14 39 0E 00 20 45 D4 25 F8 E7 7E 83 1A 3F A2 [FD BRS]
0.0606060 1 D9x Rx d 14 39 13 00 15 91 CF 29 30 A0 41 8D FC 6E 12 [FD BRS]
0.0613160 1 E3x Rx d 13 41 00 05 08 01 03 84 D0 B5 A2 7C 14 39 [FD BRS]
0.0648932 1 DBx Rx d 13 39 0F 00 15 FD 76 26 20 FF FF 7F CF FF [FD BRS]
0.0666624 1 2Dx Rx d 14 BD 9F 2F 05 C4 09 00 90 70 97 58 62 6F 52 [FD BRS]
0.0775268 1 DCx Rx d 13 39 10 00 16 82 16 2C AE 2A 0A FA DC EC [FD BRS]
0.0779080 1 18E19490x Rx d 15 03 00 00 9B 01 9B 01 00 00 00 00 00 00 00 00 [FD BRS]
0.0797520 1 DBx Rx d 14 39 0E 00 20 F9 B9 26 F8 E7 7E 83 1A 3F A2 [FD BRS]
0.0805996 1 D9x Rx d 13 39 13 00 15 B7 FE 2A 30 A0 41 8D FC 6E [FD BRS]
0.0848764 1 DBx Rx d 13 39 0F 00 15 1F 66 27 20 FF FF 7F CF FF [FD BRS]
0.0866496 1 2Dx Rx d 14 E8 79 30 05 C4 09 00 90 70 97 58 62 6F 52 [FD BRS]
0.0975688 1 DCx Rx d 14 39 10 01 10 15 3F 41 32 43 00 4E 16 10 9C [FD BRS]
0.0997032 1 DBx Rx d 14 39 0E 00 20 56 F3 27 F8 E7 7E 83 1A 3F A1 [FD BRS]
0.1015144 1 D9x Rx d 13 39 13 00 15 55 EE 2B 30 A0 41 8D FC 6E [FD BRS]
0.1048636 1 DBx Rx d 13 39 0F 00 15 A1 93 28 20 FF FF 7F CF FF [FD BRS]
0.1066688 1 2Dx Rx d 14 F7 70 31 05 C4 09 00 90 70 97 58 62 6F 52 [FD BRS]
0.1075368 1 18E19490x Rx d 15 04 03 00 03 00 03 00 7E 36 ED 0C 41 0D 22 01 [FD BRS]
0.1166832 1 E3x Rx d 8 00 80 00 04 8C 6F CF 04 [FD BRS]
0.1175784 1 DCx Rx d 13 39 10 00 16 EB 56 2E AE 2A 0A FA DC EC [FD BRS]
0.1198476 1 DBx Rx d 14 39 0E 00 20 3B 38 28 F8 E7 7E 83 1A 3F A1 [FD BRS]
0.1207088 1 44 Rx d 1 04
0.1208408 1 D9x Rx d 13 39 13 00 15 8B 73 2C 30 A0 41 4D FC 6E [FD BRS]
0.1248652 1 DBx Rx d 13 39 0F 00 15 43 83 29 20 FF FF 7F CF FF [FD BRS]
0.1266824 1 2Dx Rx d 14 D6 6B 32 05 C4 09 00 90 70 97 58 62 6F 52 [FD BRS]
0.1272076 1 D4x Rx d 8 39 04 06 04 A9 B4 0C 89 [FD BRS]
0.1375260 1 DCx Rx d 13 39 10 00 16 CF FE 2F AE 2A 0A FA DC EC [FD BRS]
0.1379100 1 18E19490x Rx d 15 00 00 00 A5 00 00 00 50 01 00 00 00 00 00 00 [FD BRS]
0.1397124 1 DBx Rx d 15 39 0E 01 0F 0C 35 FF FF FF FF FF FF FF 0F D3 [FD BRS]
0.1405984 1 D9x Rx d 13 39 13 00 15 CC 3A 2D 30 A0 41 0D FD 6E [FD BRS]
0.1413808 1 E3x Rx d 9 41 00 05 08 00 80 03 43 CB [FD BRS]
0.1448820 1 DBx Rx d 13 39 0F 00 15 65 B2 2A 20 FF FF 7F CF FF [FD BRS]
0.1466600 1 2Dx Rx d 14 C9 62 33 05 C4 09 00 90 70 97 58 62 6F 52 [FD BRS]
0.1471844 1 D4x Rx d 15 39 04 0C 05 0E 0F F4 FF FF 39 15 01 14 3F E5 [FD BRS]
0.1512860 1 E3x Rx d 12 39 06 0B 08 00 51 51 14 00 C0 CF FF [FD BRS]
0.1516032 1 4Fx Rx d 8 20 D3 04 A0 00 49 9B 55 [FD BRS]
0.1575772 1 DCx Rx d 13 39 10 00 16 DF A4 30 AE 2A 0A FA DC EC [FD BRS]
0.1597296 1 DBx Rx d 14 39 0F 01 06 4B 85 04 60 FC 1A 39 0E 00 20 [FD BRS]
0.1606148 1 D9x Rx d 14 39 13 00 15 4A BE 2E 30 A0 41 8D FD 6E 12 [FD BRS]
0.1613112 1 E3x Rx d 9 41 00 05 08 01 B1 A3 81 60 [FD BRS]
0.1648832 1 DBx Rx d 13 39 0F 00 15 87 A2 2B 20 FF FF 7F CF FF [FD BRS]
0.1666452 1 2Dx Rx d 14 94 5D 34 05 C4 09 00 90 70 97 58 62 6F 52 [FD BRS]
0.1671716 1 DC085B Rx d 8 40 03 08 04 00 00 00 00
0.1675440 1 18E19490x Rx d 15 01 02 00 3B 0D F7 00 80 0C FA 00 BC 02 06 06 [FD BRS]
0.1775764 1 DCx Rx d 13 39 10 00 16 FB 0C 31 AE 2A 0A FA DC EC [FD BRS]
0.1797004 1 DBx Rx d 14 39 0E 00 20 48 06 2B F8 E7 7E 83 1A 3F A1 [FD BRS]
0.1806048 1 D9x Rx d 13 39 13 00 15 7D 18 2F 30 A0 41 0D FC 6E [FD BRS]
0.1848748 1 DBx Rx d 13 39 0F 00 15 29 D0 2C 20 FF FF 7F CF FF [FD BRS]
0.1866680 1 2Dx Rx d 14 8B 54 35 05 C4 09 00 90 70 97 58 62 6F 52 [FD BRS]
0.1976004 1 DCx Rx d 14 39 10 01 10 15 3F 41 30 43 00 56 12 11 9C [FD BRS]
0.1981168 1 18E19490x Rx d 15 02 88 00 64 64 64 01 00 00 00 3E 12 D2 9A 00 [FD BRS]
0.0050480 1 E3x Rx d 11 00 80 00 04 D4 7C B8 04 41 00 00 [FD BRS]
0.0055972 1 DCx Rx d 13 39 10 00 16 8E 26 BB AE 2A 0A FA DC F0 [FD BRS]
0.0081152 1 DBx Rx d 14 39 0E 00 20 EC B6 B5 F8 F7 7E 83 1A 3F A3 [FD BRS]
0.0089656 1 D9x Rx d 13 39 13 00 15 EA 7E B9 32 A0 42 0D F3 8E [FD BRS]
0.0131164 1 DBx Rx d 13 39 0F 00 15 F4 98 B6 20 FF FF 7F CF FF [FD BRS]
0.0149176 1 2Dx Rx d 14 A6 FE BF 05 C4 09 00 90 70 97 2A 62 6F 52 [FD BRS]
0.0154432 1 D4x Rx d 8 39 04 06 04 93 D8 F5 89 [FD BRS]
0.0156024 1 18E19490x Rx d 15 03 00 00 97 01 97 01 00 00 00 00 00 00 00 00 [FD BRS]
0.0249584 1 E3x Rx d 14 41 00 05 08 00 80 03 43 CB 81 1E 89 41 00 [FD BRS]
0.0256436 1 DCx Rx d 13 39 10 00 16 11 4E BC AE 2A 0A FA DC F0 [FD BRS]
0.0280376 1 DBx Rx d 15 39 0E 01 0F 24 35 FF FF FF FF FF FF FF 0F D3 [FD BRS]
0.0286952 1 D9x Rx d 13 39 13 00 15 1C 15 BA 32 A0 42 4D F3 8E [FD BRS]
0.0331172 1 DBx Rx d 13 39 0F 00 15 16 88 B7 20 FF FF 7F CF FF [FD BRS]
0.0349064 1 2Dx Rx d 14 B0 4C C0 05 C4 09 00 90 70 97 2A 62 6F 52 [FD BRS]
0.0354336 1 D4x Rx d 13 39 04 0C 05 0E 0F F4 FF FF 39 0C 14 0C [FD BRS]
0.0395460 1 E3x Rx d 12 39 06 0B 08 00 51 51 14 00 C0 CF FF [FD BRS]
0.0456452 1 DCx Rx d 13 39 10 00 16 35 E6 BD AE 2A 0A FA DC F0 [FD BRS]
0.0460256 1 18E19490x Rx d 15 04 03 00 03 00 03 00 88 36 ED 0C 42 0D 22 01 [FD BRS]
0.0479736 1 DBx Rx d 14 39 0E 00 20 44 F6 B7 F8 F7 7E 83 1A 3F A4 [FD BRS]
0.0487100 1 D9x Rx d 14 39 13 00 15 B5 0D BB 32 A0 42 4D F4 8E 12 [FD BRS]
0.0495652 1 E3x Rx d 14 41 00 05 08 01 37 5F 4B 0E 73 C2 7A 39 80 [FD BRS]
0.0531552 1 DBx Rx d 13 39 0F 00 15 A8 7D B8 20 FF FF 7F CF FF [FD BRS]
0.0548864 1 2Dx Rx d 14 77 28 C1 05 C4 09 00 90 70 97 2B 62 6F 52 [FD BRS]
0.0579316 1 DC085D Rx d 8 40 02 00 00 00 00 00 00
0.0655420 1 DCx Rx d 13 39 10 00 16 78 0E BE AE 2A 0A FA DC F0 [FD BRS]
0.0679512 1 DBx Rx d 14 39 0E 00 20 A9 34 B8 F8 F7 7E 83 1A 3F A3 [FD BRS]
0.0687064 1 D9x Rx d 13 39 13 00 15 6B 90 BC 32 A0 42 8D F4 8E [FD BRS]
0.0731276 1 DBx Rx d 13 39 0F 00 15 4A 6D B9 20 FF FF 7F CF FF [FD BRS]
0.0748888 1 2Dx Rx d 14 56 33 C2 05 C4 09 00 90 70 97 2B 62 6F 52 [FD BRS]
0.0755360 1 18E19490x Rx d 15 00 00 00 A5 00 00 00 50 01 00 00 00 00 00 00 [FD BRS]
0.0856772 1 DCx Rx d 14 39 10 01 10 15 3F 41 00 43 00 9E 06 10 9C [FD BRS]
0.0879524 1 DBx Rx d 14 39 0E 00 20 3D 10 B9 F8 F7 7E 83 1A 3F A3 [FD BRS]
0.0896276 1 D9x Rx d 13 39 13 00 15 29 35 BD 32 A0 42 0D F4 8E [FD BRS]
0.0931148 1 DBx Rx d 13 39 0F 00 15 6C 5C BA 20 FF FF 7F CF FF [FD BRS]
0.0949232 1 2Dx Rx d 14 60 2B C3 05 C4 09 00 90 70 97 2C 62 6F 52 [FD BRS]
0.1049292 1 E3x Rx d 8 00 80 00 04 60 0A B9 04 [FD BRS]
0.1055744 1 DCx Rx d 13 39 10 00 16 98 45 C0 AE 2A 0A FA DC EC [FD BRS]
0.1059548 1 18E19490x Rx d 15 01 02 00 3B 0D F8 00 80 0C FA 00 BC 02 06 06 [FD BRS]
0.1080968 1 DBx Rx d 14 39 0E 00 20 01 74 BA F8 F7 7E 83 1A 3F A4 [FD BRS]
0.1089320 1 44 Rx d 1 04
0.1090484 1 D9x Rx d 13 39 13 00 15 E4 B9 BE 32 A0 42 8D F3 8E [FD BRS]
0.1131148 1 DBx Rx d 13 39 0F 00 15 8E 4C BB 20 FF FF 7F CF FF [FD BRS]
0.1149088 1 2Dx Rx d 14 E5 79 C4 05 C4 09 00 90 70 97 2D 62 6F 52 [FD BRS]
0.1154320 1 D4x Rx d 8 39 04 06 04 4F 43 F6 89 [FD BRS]
0.1255404 1 DCx Rx d 13 39 10 00 16 BC ED C1 AE 2A 0A FA DC EC [FD BRS]
0.1279616 1 DBx Rx d 15 39 0E 01 0F 20 35 FF FF FF FF FF FF FF 0F D3 [FD BRS]
0.1287188 1 D9x Rx d 13 39 13 00 15 D6 F3 BF 32 A0 42 CD F3 8E [FD BRS]
0.1295872 1 E3x Rx d 9 41 00 05 08 00 80 03 43 CB [FD BRS]
0.1331312 1 DBx Rx d 13 39 0F 00 15 20 3E BC 20 FF FF 7F CF FF [FD BRS]
0.1349012 1 2Dx Rx d 14 FA 70 C5 05 C4 09 00 90 70 97 2D 62 6F 52 [FD BRS]
0.1354256 1 D4x Rx d 15 39 04 0C 05 0E 0F F4 FF FF 39 15 01 14 3E E5 [FD BRS]
0.1361048 1 18E19490x Rx d 15 02 88 00 64 64 64 01 00 00 00 B3 12 C0 D4 00 [FD BRS]
0.1395292 1 E3x Rx d 12 39 06 0B 08 00 51 51 14 00 C0 CF FF [FD BRS]
0.1456944 1 DCx Rx d 13 39 10 00 16 19 76 C2 AE 2A 0A FA DC F0 [FD BRS]
0.1479804 1 DBx Rx d 14 39 0F 01 06 4B 85 04 60 70 1D 39 0E 00 20 [FD BRS]
0.1487136 1 D9x Rx d 14 39 13 00 15 84 E1 C0 32 A0 42 4D F4 8E 12 [FD BRS]
0.1495648 1 E3x Rx d 9 41 00 05 08 01 E9 D8 DE 76 [FD BRS]
0.1531320 1 DBx Rx d 13 39 0F 00 15 C2 2E BD 20 FF FF 7F CF FF [FD BRS]
0.1549024 1 2Dx Rx d 14 B3 DD C6 05 C4 09 00 90 70 97 2E 62 6F 52 [FD BRS]
0.1655656 1 DCx Rx d 13 39 10 00 16 3D DE C3 AE 2A 0A FA DC F0 [FD BRS]
0.1659460 1 18E19490x Rx d 15 03 00 00 9C 01 9C 01 00 00 00 00 00 00 00 00 [FD BRS]
0.1680008 1 DBx Rx d 14 39 0E 00 20 ED 8B BD F8 F7 7E 83 1A 3F A4 [FD BRS]
0.1687092 1 D9x Rx d 13 39 13 00 15 5E 2E C1 32 A0 41 0D F3 8E [FD BRS]
0.1731232 1 DBx Rx d 13 39 0F 00 15 E4 1F BE 20 FF FF 7F CF FF [FD BRS]
0.1748924 1 2Dx Rx d 14 AC D4 C7 05 C4 09 00 90 70 97 2E 62 6F 52 [FD BRS]
0.1856040 1 DCx Rx d 14 39 10 01 10 15 3F 41 00 43 00 A6 42 10 9C [FD BRS]
0.1879508 1 DBx Rx d 14 39 0E 00 20 D1 EF BE F8 F7 7E 83 1A 3F A3 [FD BRS]
0.1896344 1 D9x Rx d 13 39 13 00 15 8A 39 C2 33 A0 42 0D F2 8E [FD BRS]
0.1931144 1 DBx Rx d 13 39 0F 00 15 06 0F BF 20 FF FF 7F CF FF [FD BRS]
0.1949048 1 2Dx Rx d 14 D1 CE C8 05 C4 09 00 90 70 97 2F 62 6F 52 [FD BRS]
0.1955908 1 18E19490x Rx d 15 04 03 00 03 00 03 00 7E 36 ED 0C 42 0D 22 01 [FD BRS]
0.0017364 1 DCx Rx d 13 39 10 00 16 FD 35 55 AE 2A 0A FA DC F0 [FD BRS]
0.0043524 1 DBx Rx d 14 39 0E 00 20 C0 E7 4F F9 F7 7E 83 1A 3F A5 [FD BRS]
0.0051288 1 D9x Rx d 13 39 13 00 15 B0 3B 53 33 A0 42 0D EE 8E [FD BRS]
0.0095280 1 DBx Rx d 13 39 0F 00 15 B6 4E 50 20 FF FF 7F CF FF [FD BRS]
0.0112780 1 2Dx Rx d 14 A6 2E 59 05 C4 09 00 90 70 97 EC 61 6F 52 [FD BRS]
0.0118024 1 18E19490x Rx d 15 00 00 00 A5 00 00 00 50 01 00 00 00 00 00 00 [FD BRS]
0.0218428 1 DCx Rx d 14 39 10 01 10 15 3F 41 00 43 00 F6 42 10 9C [FD BRS]
0.0243528 1 DBx Rx d 14 39 0E 00 20 59 90 50 F9 F7 7E 83 1A 3F A4 [FD BRS]
0.0259388 1 E3x Rx d 9 41 00 00 08 00 57 31 4B 41 [FD BRS]
0.0264124 1 D9x Rx d 13 39 13 00 15 CE 13 54 33 A0 42 4D EE 8E [FD BRS]
0.0295312 1 DBx Rx d 13 39 0F 00 15 54 5E 51 20 FF FF 7F CF FF [FD BRS]
0.0313156 1 2Dx Rx d 14 5F 58 5A 05 C4 09 00 90 70 97 ED 61 6F 52 [FD BRS]
0.0318428 1 DC08E2 Rx d 8 40 02 00 00 00 00 00 00
0.0413308 1 E3x Rx d 11 00 80 00 04 41 28 A4 04 41 00 00 [FD BRS]
0.0418300 1 DCx Rx d 13 39 10 00 16 94 75 57 AE 2A 0A FA DC F0 [FD BRS]
0.0422136 1 18E19490x Rx d 15 01 01 00 3C 0D F8 00 80 0C FF 00 BC 02 06 06 [FD BRS]
0.0445144 1 DBx Rx d 14 39 0E 00 20 3B 61 51 F9 F7 7E 83 1A 3F A5 [FD BRS]
0.0450348 1 D9x Rx d 13 39 13 00 15 5C EC 55 33 A0 42 8D EE 8E [FD BRS]
0.0495160 1 DBx Rx d 13 39 0F 00 15 72 6F 52 20 FF FF 7F CF FF [FD BRS]
0.0513080 1 2Dx Rx d 14 28 E7 5B 05 C4 09 00 90 70 97 EE 61 6F 52 [FD BRS]
0.0518336 1 D4x Rx d 8 39 04 06 04 C5 09 E1 89 [FD BRS]
0.0613688 1 E3x Rx d 14 41 00 05 08 00 80 03 43 CB 80 56 DB 41 00 [FD BRS]
0.0618920 1 DCx Rx d 13 39 10 00 16 8E 0C 58 AE 2A 0A FA DC F0 [FD BRS]
0.0643872 1 DBx Rx d 15 39 0E 01 0F 2C 35 FF FF FF FF FF FF FF 0F D3 [FD BRS]
0.0652492 1 D9x Rx d 13 39 13 00 15 0A 32 56 33 A0 42 4D EE 8E [FD BRS]
0.0695156 1 DBx Rx d 13 39 0F 00 15 90 7F 53 20 FF FF 7F CF FF [FD BRS]
0.0712896 1 2Dx Rx d 14 75 D8 5C 05 C4 09 00 90 70 97 EE 61 6F 52 [FD BRS]
0.0718140 1 D4x Rx d 13 39 04 0C 05 0E 0F F4 FF FF 39 0C 14 0C [FD BRS]
0.0722040 1 18E19490x Rx d 15 02 88 00 64 64 64 01 00 00 00 C4 12 A0 B5 00 [FD BRS]
0.0758992 1 E3x Rx d 12 39 06 0B 08 00 51 51 14 00 C0 CF FF [FD BRS]
0.0819044 1 DCx Rx d 13 39 10 00 16 AA A4 59 AE 2A 0A FA DC F0 [FD BRS]
0.0843728 1 DBx Rx d 14 39 0E 00 20 E5 FD 53 F9 F7 7E 83 1A 3F A4 [FD BRS]
0.0851372 1 D9x Rx d 14 39 13 00 15 D7 FF 57 34 A0 42 CD EE 8E 12 [FD BRS]
0.0859604 1 E3x Rx d 14 41 00 05 08 01 63 97 AA FD 31 31 5C 39 80 [FD BRS]
0.0895552 1 DBx Rx d 13 39 0F 00 15 3E 0D 54 20 FF FF 7F CF FF [FD BRS]
0.0912956 1 2Dx Rx d 14 B2 BC 5D 05 C4 09 00 90 70 97 EF 61 6F 52 [FD BRS]
0.0943308 1 DC085D Rx d 8 40 02 00 00 00 00 00 00
0.1017748 1 DCx Rx d 13 39 10 00 16 E7 4C 5A AE 2A 0A FA DC F0 [FD BRS]
0.1021552 1 18E19490x Rx d 15 03 00 00 9F 01 9F 01 00 00 00 00 00 00 00 00 [FD BRS]
0.1044032 1 DBx Rx d 14 39 0E 00 20 FF D7 54 F9 F7 7E 83 1A 3F A5 [FD BRS]
0.1051296 1 D9x Rx d 13 39 13 00 15 F6 62 58 33 A0 42 CD EE 8E [FD BRS]
0.1095416 1 DBx Rx d 13 39 0F 00 15 DC 1D 55 20 FF FF 7F CF FF [FD BRS]
0.1112820 1 2Dx Rx d 14 93 A7 5E 05 C4 09 00 90 70 97 EF 61 6F 52 [FD BRS]
0.1217892 1 DCx Rx d 14 39 10 01 10 15 3F 41 00 43 00 FE 42 10 9C [FD BRS]
0.1243504 1 DBx Rx d 14 39 0E 00 20 6B F3 55 F9 F7 7E 83 1A 3F A5 [FD BRS]
0.1263548 1 D9x Rx d 13 39 13 00 15 B4 C7 59 33 A0 42 4D EE 8E [FD BRS]
0.1295148 1 DBx Rx d 13 39 0F 00 15 FA 2C 56 20 FF FF 7F CF FF [FD BRS]
0.1312980 1 2Dx Rx d 14 40 5C 5F 05 C4 09 00 90 70 97 F0 61 6F 52 [FD BRS]
0.1318260 1 18E19490x Rx d 15 04 03 00 03 00 03 00 88 36 ED 0C 43 0D 22 01 [FD BRS]
0.1413132 1 E3x Rx d 8 00 80 00 04 F5 5E A5 04 [FD BRS]
0.1418876 1 DCx Rx d 13 39 10 00 16 5C 8C 5C AE 2A 0A FA DC F0 [FD BRS]
0.1444956 1 DBx Rx d 14 39 0E 00 20 D7 9E 56 F9 F7 7E 83 1A 3F A5 [FD BRS]
0.1450160 1 D9x Rx d 13 39 13 00 15 37 AF 5A 33 A0 42 0D EF 8E [FD BRS]
0.1453940 1 44 Rx d 1 04
0.1495164 1 DBx Rx d 13 39 0F 00 15 18 3C 57 20 FF FF 7F CF FF [FD BRS]
0.1513144 1 2Dx Rx d 14 0C E4 60 05 C4 09 00 90 70 97 F1 61 6F 52 [FD BRS]
0.1518448 1 D4x Rx d 8 39 04 06 04 19 92 E2 89 [FD BRS]
0.1617472 1 DCx Rx d 13 39 10 00 16 78 24 5D AE 2A 0A FA DC F0 [FD BRS]
0.1621292 1 18E19490x Rx d 15 00 00 00 A5 00 00 00 50 01 00 00 00 00 00 00 [FD BRS]
0.1643624 1 DBx Rx d 15 39 0E 01 0F 2C 35 FF FF FF FF FF FF FF 0F D3 [FD BRS]
0.1652276 1 D9x Rx d 13 39 13 00 15 A5 50 5B 33 A0 42 CD EF 8E [FD BRS]
0.1659960 1 E3x Rx d 9 41 00 05 08 00 80 03 43 CB [FD BRS]
0.1695300 1 DBx Rx d 13 39 0F 00 15 A6 C9 58 20 FF FF 7F CF FF [FD BRS]
0.1713012 1 2Dx Rx d 14 13 ED 61 05 C4 09 00 90 70 97 F1 61 6F 52 [FD BRS]
0.1718296 1 D4x Rx d 15 39 04 0C 05 0E 0F F4 FF FF 39 15 01 14 3E E1 [FD BRS]
0.1758968 1 E3x Rx d 12 39 06 0B 08 00 51 51 14 00 C0 CF FF [FD BRS]
0.1818240 1 DCx Rx d 13 39 10 00 16 35 CC 5E AE 2A 0A FA DC F0 [FD BRS]
0.1843784 1 DBx Rx d 14 39 0F 01 06 4B 85 04 60 20 19 39 0E 00 20 [FD BRS]
0.1851456 1 D9x Rx d 14 39 13 00 15 C8 E9 5C 33 A0 42 0D F0 8E 12 [FD BRS]
0.1859540 1 E3x Rx d 9 41 00 05 08 01 BA 9C 19 52 [FD BRS]
0.1895308 1 DBx Rx d 13 39 0F 00 15 44 D9 59 20 FF FF 7F CF FF [FD BRS]
0.1912800 1 2Dx Rx d 14 5A 40 62 05 C4 09 00 90 70 97 F2 61 6F 52 [FD BRS]
0.1918064 1 18E19490x Rx d 15 01 02 00 3C 0D F7 00 80 0C FF 00 BC 02 06 06 [FD BRS]
0.0051716 1 E3x Rx d 8 00 80 00 04 10 01 8F 04 [FD BRS]
0.0053888 1 DCx Rx d 13 39 10 00 16 5A A1 EE AE 2A 0A FA DC F0 [FD BRS]
0.0057708 1 18E19490x Rx d 15 01 02 00 3C 0D F8 00 80 0C FF 00 BC 02 06 06 [FD BRS]
0.0083680 1 DBx Rx d 14 39 FE 0B 08 61 00 00 00 01 00 00 00 39 0E [FD BRS]
0.0088984 1 D9x Rx d 13 39 13 00 15 18 F0 EC 34 A0 42 8D E7 8E [FD BRS]
0.0092736 1 44 Rx d 1 04
0.0133796 1 DBx Rx d 13 39 0F 00 15 4F 0B E9 20 FF FF 7F CF FF [FD BRS]
0.0151560 1 2Dx Rx d 14 88 E2 F2 05 C4 09 00 90 70 97 AF 61 6F 52 [FD BRS]
0.0156804 1 D4x Rx d 8 39 04 06 04 0D 07 CC 89 [FD BRS]
0.0229844 1 DBx Rx d 14 39 0E 02 2A 3E 00 4A 00 65 0A BC 41 18 84 [FD BRS]
0.0253524 1 DCx Rx d 13 39 10 00 16 7E 09 EF AE 2A 0A FA DC F0 [FD BRS]
0.0282236 1 DBx Rx d 13 39 0E 01 0F 24 35 FF FF FF FF FF FF FF [FD BRS]
0.0286100 1 21Cx Rx d 15 23 00 00 00 00 00 00 00 00 00 00 00 00 00 00 [FD BRS]
0.0293204 1 D9x Rx d 13 39 13 00 15 D8 3D ED 34 A0 43 0D E8 8E [FD BRS]
0.0298596 1 E3x Rx d 9 41 00 05 08 00 80 03 43 CB [FD BRS]
0.0333056 1 DBx Rx d 15 39 0E 00 20 D8 30 E9 F9 07 7F 83 1A 3F A6 7F [FD BRS]
0.0351576 1 2Dx Rx d 14 97 EB F3 05 C4 09 00 90 70 97 AF 61 6F 52 [FD BRS]
0.0356828 1 D4x Rx d 15 39 04 0C 05 0E 0F F4 FF FF 39 15 01 14 3E DD [FD BRS]
0.0363624 1 18E19490x Rx d 15 02 88 00 64 64 64 01 00 00 00 E1 12 63 81 00 [FD BRS]
0.0397764 1 E3x Rx d 12 39 06 0B 08 00 51 51 14 00 C0 CF FF [FD BRS]
0.0430876 1 DBx Rx d 13 39 0E 04 10 5C E3 0B 4C 24 B4 DB FF EF [FD BRS]
0.0454736 1 DCx Rx d 13 39 10 00 16 6E 53 F0 AE 2A 0A FA DC F0 [FD BRS]
0.0482360 1 DBx Rx d 14 39 0E 00 20 64 5D EA F9 07 7F 83 1A 3F A6 [FD BRS]
0.0489124 1 D9x Rx d 14 39 13 00 15 0C 8B EE 34 A0 42 CD E7 8E 12 [FD BRS]
0.0498136 1 E3x Rx d 9 41 00 05 08 01 90 BD F4 77 [FD BRS]
0.0533944 1 DBx Rx d 13 39 0F 00 15 8B 2A EB 20 FF FF 7F CF FF [FD BRS]
0.0551456 1 2Dx Rx d 14 70 3D F4 05 C4 09 00 90 70 97 B0 21 6F 52 [FD BRS]
0.0582220 1 21Cx Rx d 8 24 00 00 00 00 00 00 00 [FD BRS]
0.0653592 1 DCx Rx d 13 39 10 00 16 4A FB F1 AE 2A 0A FA DC F0 [FD BRS]
0.0657432 1 18E19490x Rx d 15 03 00 00 9A 01 9A 01 00 00 00 00 00 00 00 00 [FD BRS]
0.0682644 1 DBx Rx d 14 39 0E 00 20 F0 79 EB F9 07 7F 83 1A 3F A6 [FD BRS]
0.0687868 1 D9x Rx d 13 39 13 00 15 9E 74 EF 34 A0 42 0D E7 8E [FD BRS]
0.0733900 1 DBx Rx d 13 39 0F 00 15 25 58 EC 20 FF FF 7F CF FF [FD BRS]
0.0751400 1 2Dx Rx d 14 6F 34 F5 05 C4 09 00 90 70 97 B0 21 6F 52 [FD BRS]
0.0853776 1 DCx Rx d 14 39 10 01 10 15 3F 41 30 43 00 56 12 11 9C [FD BRS]
0.0882156 1 DBx Rx d 14 39 0E 00 20 1C 86 EC F9 07 7F 83 1A 3F A6 [FD BRS]
0.0896488 1 D9x Rx d 13 39 13 00 15 F1 C5 F0 34 A0 42 4D E7 8E [FD BRS]
0.0900260 1 E3x Rx d 9 41 00 00 08 00 57 31 4B 41 [FD BRS]
0.0933912 1 DBx Rx d 13 39 0F 00 15 C7 48 ED 20 FF FF 7F CF FF [FD BRS]
0.0951312 1 2Dx Rx d 14 96 42 F6 05 C4 09 00 90 70 97 B1 21 6F 52 [FD BRS]
0.0956564 1 DC08E2 Rx d 8 40 02 00 00 00 00 00 00
0.0959468 1 18E19490x Rx d 15 04 03 00 03 00 03 00 88 36 ED 0C 43 0D 22 01 [FD BRS]
0.1051820 1 E3x Rx d 11 00 80 00 04 59 CE 90 04 41 00 00 [FD BRS]
0.1054524 1 DCx Rx d 13 39 10 00 16 23 BB F3 AE 2A 0A FA DC F0 [FD BRS]
0.1083752 1 DBx Rx d 14 39 0E 00 20 88 A2 ED F9 07 7F 83 1A 3F A6 [FD BRS]
0.1091528 1 D9x Rx d 13 39 13 00 15 13 D5 F1 34 A0 42 4D E7 8E [FD BRS]
0.1133776 1 DBx Rx d 13 39 0F 00 15 E1 79 EE 20 FF FF 7F CF FF [FD BRS]
0.1151840 1 2Dx Rx d 14 E1 FD F7 05 C4 09 00 90 70 97 B2 21 6F 52 [FD BRS]
0.1157112 1 D4x Rx d 8 39 04 06 04 B9 71 CD 89 [FD BRS]
0.1198248 1 E3x Rx d 9 41 00 02 08 00 07 E7 06 17 [FD BRS]
0.1252068 1 E3x Rx d 14 41 00 05 08 00 80 03 43 CB 7F 8E F7 41 00 [FD BRS]
0.1257300 1 DCx Rx d 13 39 10 00 16 89 7E F4 AE 2A 0A FA DC F4 [FD BRS]
0.1261116 1 18E19490x Rx d 15 00 00 00 A5 00 00 00 50 01 00 00 00 00 00 00 [FD BRS]
0.1282468 1 DBx Rx d 15 39 0E 01 0F 24 35 FF FF FF FF FF FF FF 0F D3 [FD BRS]
0.1289060 1 D9x Rx d 13 39 13 00 15 E5 BE F2 34 A0 42 0D E7 8E [FD BRS]
0.1333780 1 DBx Rx d 13 39 0F 00 15 03 69 EF 20 FF FF 7F CF FF [FD BRS]
0.1351672 1 2Dx Rx d 14 44 8A F8 05 C4 09 00 90 70 97 B2 21 6F 52 [FD BRS]
0.1356924 1 D4x Rx d 13 39 04 0C 05 0E 0F F4 FF FF 39 0C 14 0C [FD BRS]
0.1397708 1 E3x Rx d 14 39 06 0B 08 00 51 51 14 00 C0 CF FF 39 04 [FD BRS]
0.1454292 1 DCx Rx d 13 39 10 00 16 98 7B F5 AE 2A 0A FA DC F0 [FD BRS]
0.1482340 1 DBx Rx d 14 39 0E 00 20 A0 EB EF F9 07 7F 83 1A 3F A6 [FD BRS]
0.1487556 1 D9x Rx d 14 39 13 00 15 77 41 F3 34 A0 42 CD E7 8E 12 [FD BRS]
0.1498716 1 E3x Rx d 14 41 00 05 08 01 1F C0 36 21 1F EB 13 39 80 [FD BRS]
0.1534848 1 DBx Rx d 13 39 0F 00 15 BC 82 F0 20 FF FF 7F CF FF [FD BRS]
0.1551488 1 2Dx Rx d 14 83 EE F9 05 C4 09 00 90 70 97 B3 21 6F 52 [FD BRS]
0.1556752 1 18E19490x Rx d 15 01 02 00 3C 0D F7 00 80 0C FA 00 BC 02 06 06 [FD BRS]
0.1581912 1 DC085D Rx d 8 40 02 00 00 00 00 00 00
0.1597736 1 E3x Rx d 9 41 00 02 08 02 C9 1D 10 C4 [FD BRS]
0.1654568 1 DCx Rx d 13 39 10 00 16 D5 93 F6 AE 2A 0A FA DC F0 [FD BRS]
0.1682076 1 DBx Rx d 14 39 0E 00 20 CF 49 F0 F9 07 7F 83 1A 3F A6 [FD BRS]
0.1688932 1 D9x Rx d 13 39 13 00 15 79 86 F4 34 A0 42 4D E7 8E [FD BRS]
0.1733884 1 DBx Rx d 13 39 0F 00 15 5E 92 F1 20 FF FF 7F CF FF [FD BRS]
0.1752392 1 2Dx Rx d 14 A2 F5 FA 05 C4 09 00 90 70 97 B3 21 6F 52 [FD BRS]
0.1853836 1 DCx Rx d 14 39 10 01 10 15 3F 41 38 43 00 5E 06 11 9C [FD BRS]
0.1859008 1 18E19490x Rx d 15 02 88 00 64 64 64 01 00 00 00 AF 12 5F B5 00 [FD BRS]
0.1882140 1 DBx Rx d 14 39 0E 00 20 60 03 F1 F9 07 7F 83 1A 3F A5 [FD BRS]
0.1896544 1 D9x Rx d 13 39 13 00 15 4B CC F5 34 A0 42 0D E7 8E [FD BRS]
0.1933756 1 DBx Rx d 13 39 0F 00 15 78 A3 F2 20 FF FF 7F CF FF [FD BRS]
0.1951356 1 2Dx Rx d 14 94 ED FB 05 C4 09 00 90 70 97 B4 21 6F 52 [FD BRS]
0.0007920 1 DCx Rx d 13 39 10 00 16 9B 3F 85 AE 2A 0A FA DC F4 [FD BRS]
0.0011732 1 E3x Rx d 8 00 80 00 04 18 22 7A 04 [FD BRS]
0.0013376 1 18E19490x Rx d 15 01 02 00 3D 0D F8 00 80 0C FF 00 BC 02 06 06 [FD BRS]
0.0040256 1 DBx Rx d 14 39 0E 00 20 FD EB 7F FA 07 7F 83 1A 3F AB [FD BRS]
0.0045480 1 D9x Rx d 13 39 13 00 15 C1 B1 83 34 A0 43 4D E6 6E [FD BRS]
0.0091192 1 DBx Rx d 13 39 0F 00 15 BB D8 80 20 FF FF 7F CF FF [FD BRS]
0.0108944 1 2Dx Rx d 14 0F 0F 89 05 C4 09 00 90 70 97 70 61 6F 52 [FD BRS]
0.0114224 1 D4x Rx d 8 39 04 06 04 67 5B B7 89 [FD BRS]
0.0207980 1 DCx Rx d 13 39 10 00 16 D6 D7 86 AE 2A 0A FA DC F4 [FD BRS]
0.0211780 1 E3x Rx d 13 41 00 05 08 00 80 03 43 CB 7E B2 21 05 [FD BRS]
0.0239060 1 DBx Rx d 15 39 0E 01 0F 2C 35 FF FF FF FF FF FF FF 0F D3 [FD BRS]
0.0245644 1 D9x Rx d 13 39 13 00 15 6F C3 84 34 A0 43 4D E6 6E [FD BRS]
0.0291164 1 DBx Rx d 13 39 0F 00 15 59 C8 81 20 FF FF 7F CF FF [FD BRS]
0.0307948 1 2Dx Rx d 14 2E 14 8A 05 C4 09 00 90 70 97 70 61 6F 52 [FD BRS]
0.0313200 1 D4x Rx d 14 39 04 0C 05 0E 0F F4 FF FF 39 FE 1D 08 59 [FD BRS]
0.0318512 1 18E0658Dx Rx d 8 03 22 F1 00 AA AA AA AA [FD BRS]
0.0320464 1 18E19490x Rx d 15 02 88 00 64 64 64 01 00 00 00 D1 12 90 CC 00 [FD BRS]
0.0354168 1 E3x Rx d 12 39 06 0B 08 00 51 51 14 00 C0 CF FF [FD BRS]
0.0357220 1 4Fx Rx d 8 20 EB 03 A0 00 49 9B 4C [FD BRS]
0.0395464 1 D9x Rx d 14 39 FE 28 08 29 00 00 00 00 00 00 00 39 13 [FD BRS]
0.0409388 1 DCx Rx d 13 39 10 00 16 F2 7F 87 AE 2A 0A FA DC F4 [FD BRS]
0.0439908 1 DBx Rx d 14 39 0E 00 20 AE A6 81 FA 07 7F 83 1A 3F AA [FD BRS]
0.0454592 1 E3x Rx d 13 41 00 05 08 01 F9 9F 3D 2E 2B 70 D0 39 [FD BRS]
0.0490500 1 DBx Rx d 13 39 0F 00 15 7F F9 82 20 FF FF 7F CF FF [FD BRS]
0.0494404 1 D9x Rx d 10 39 13 01 0B 4B BA E8 54 95 00 [FD BRS]
0.0508448 1 2Dx Rx d 14 07 96 8B 05 C4 09 00 90 70 97 71 61 6F 52 [FD BRS]
0.0608068 1 DCx Rx d 13 39 10 00 16 E8 06 88 AE 2A 0A FA DC F4 [FD BRS]
0.0611884 1 18E19490x Rx d 15 03 00 00 9B 01 9B 01 00 00 00 00 00 00 00 00 [FD BRS]
0.0639912 1 DBx Rx d 14 39 0E 00 20 12 CB 82 FA 07 7F 83 1A 3F AA [FD BRS]
0.0645116 1 D9x Rx d 13 39 13 00 15 44 08 86 34 A0 43 8D E5 6E [FD BRS]
0.0688868 1 21Cx Rx d 15 11 02 01 06 73 80 76 3C 7A 24 7E 0C 81 F4 85 [FD BRS]
0.0696812 1 DBx Rx d 13 39 0F 00 15 9D E9 83 20 FF FF 7F CF FF [FD BRS]
0.0708332 1 2Dx Rx d 14 5A A9 8C 05 C4 09 00 90 70 97 71 61 6F 52 [FD BRS]
0.0808204 1 DCx Rx d 14 39 10 01 10 15 3F 41 00 43 00 AE 42 10 9C [FD BRS]
0.0838816 1 DBx Rx d 14 39 0E 00 20 86 EF 83 FA 07 7F 83 1A 3F AA [FD BRS]
0.0855292 1 D9x Rx d 13 39 13 00 15 06 AD 87 34 A0 43 0D E5 6E [FD BRS]
0.0859044 1 4Fx Rx d 8 28 38 03 00 28 16 89 BE [FD BRS]
0.0891164 1 DBx Rx d 13 39 0F 00 15 33 9B 84 20 FF FF 7F CF FF [FD BRS]
0.0907796 1 2Dx Rx d 14 2D 16 8D 05 C4 09 00 90 70 97 72 61 6F 52 [FD BRS]
0.0913036 1 18E19490x Rx d 15 04 03 00 03 00 03 00 88 36 ED 0C 43 0D 22 01 [FD BRS]
0.1008208 1 E3x Rx d 8 00 80 00 04 AC 54 7B 04 [FD BRS]
0.1009832 1 DCx Rx d 13 39 10 00 16 81 46 8A AE 2A 0A FA DC F4 [FD BRS]
0.1013644 1 21Dx Rx d 3 30 01 28 [FD BRS]
0.1015172 1 21Cx Rx d 15 21 00 00 00 00 00 00 00 00 00 00 00 00 00 00 [FD BRS]
0.1040336 1 DBx Rx d 14 39 FE 0B 08 61 00 00 00 01 00 00 00 39 0E [FD BRS]
0.1045488 1 D9x Rx d 13 39 13 00 15 86 53 88 34 A0 43 0D E3 6E [FD BRS]
0.1049252 1 44 Rx d 1 04
0.1091152 1 DBx Rx d 13 39 0F 00 15 D1 8B 85 20 FF FF 7F CF FF [FD BRS]
0.1109296 1 2Dx Rx d 14 D4 60 8E 05 C4 09 00 90 70 97 73 61 6F 52 [FD BRS]
0.1114548 1 D4x Rx d 8 39 04 06 04 89 8F B8 89 [FD BRS]
0.1186488 1 DBx Rx d 14 39 0E 02 2A 3E 00 49 00 65 0A BC 41 18 84 [FD BRS]
0.1208032 1 DCx Rx d 13 39 10 00 16 A5 EE 8B AE 2A 0A FA DC F4 [FD BRS]
0.1211836 1 18E19490x Rx d 15 00 00 00 A5 00 00 00 50 01 00 00 00 00 00 00 [FD BRS]
0.1238896 1 DBx Rx d 13 39 0E 01 0F 18 35 FF FF FF FF FF FF FF [FD BRS]
0.1242688 1 D9x Rx d 13 39 13 00 15 0D FF 89 37 A0 43 0D D7 6E [FD BRS]
0.1254680 1 E3x Rx d 9 41 00 05 08 00 80 03 43 CB [FD BRS]
0.1290392 1 DBx Rx d 15 39 0E 00 20 C5 5A 85 FA 07 7F 83 1A 3F A9 7F [FD BRS]
0.1308092 1 2Dx Rx d 14 CB 69 8F 05 C4 09 00 90 70 97 73 61 6F 52 [FD BRS]
0.1313356 1 D4x Rx d 15 39 04 0C 05 0E 0F F4 FF FF 39 15 01 14 3E D9 [FD BRS]
0.1354208 1 E3x Rx d 12 39 06 0B 08 00 51 51 14 00 C0 CF FF [FD BRS]
0.1387520 1 DBx Rx d 13 39 0E 04 10 5C E3 0B 4C 24 B4 DB FF EF [FD BRS]
0.1408864 1 DCx Rx d 13 39 10 00 16 3A 86 8C AE 2A 0A FA DC F4 [FD BRS]
0.1439012 1 DBx Rx d 14 39 0E 00 20 C0 5E 86 FA 07 7F 83 1A 3F A5 [FD BRS]
0.1444216 1 D9x Rx d 14 39 13 00 15 41 99 8A 38 A0 43 4D D2 6E 12 [FD BRS]
0.1454348 1 E3x Rx d 9 41 00 05 08 01 29 70 E4 94 [FD BRS]
0.1456272 1 21Dx Rx d 3 30 01 28 [FD BRS]
0.1457804 1 21Cx Rx d 15 22 00 00 00 00 00 00 00 00 00 00 00 00 00 00 [FD BRS]
0.1464984 1 21Dx Rx d 3 30 01 28 [FD BRS]
0.1466536 1 21Cx Rx d 15 23 00 00 00 00 00 00 00 00 00 00 00 00 00 00 [FD BRS]
0.1473700 1 21Dx Rx d 3 30 01 28 [FD BRS]
0.1475172 1 21Cx Rx d 8 24 00 00 00 00 00 00 00 [FD BRS]
0.1491304 1 DBx Rx d 13 39 0F 00 15 15 AA 87 20 FF FF 7F CF FF [FD BRS]
0.1507836 1 2Dx Rx d 14 B7 9E 90 05 C4 09 00 90 70 97 74 61 6F 52 [FD BRS]
0.1513088 1 18E19490x Rx d 15 01 02 00 3D 0D F7 00 80 0C FF 00 BC 02 06 06 [FD BRS]
0.1608932 1 DCx Rx d 13 39 10 00 16 1E 2E 8D AE 2A 0A FA DC F4 [FD BRS]
0.1638804 1 DBx Rx d 14 39 0E 00 20 99 C1 87 FA 07 7F 83 1A 3F A7 [FD BRS]
0.1644004 1 D9x Rx d 13 39 13 00 15 DF CE 8B 36 A0 43 8D D9 8E [FD BRS]
0.1691248 1 DBx Rx d 13 39 0F 00 15 AB 5F 88 20 FF FF 7F CF FF [FD BRS]
0.1708448 1 2Dx Rx d 14 A8 97 91 05 C4 09 00 90 70 97 74 61 6F 52 [FD BRS]
0.1808220 1 DCx Rx d 14 39 10 01 10 15 3F 41 00 43 00 B6 52 11 9C [FD BRS]
0.1813384 1 18E19490x Rx d 15 02 88 00 64 64 64 01 00 00 00 81 12 A0 B5 00 [FD BRS]
0.1838808 1 DBx Rx d 14 39 0E 00 20 02 CC 88 FA 07 7F 83 1A 3F A8 [FD BRS]
0.1851960 1 D9x Rx d 13 39 13 00 15 2F 9B 8C 36 A0 43 8D DC 8E [FD BRS]
0.1891152 1 DBx Rx d 13 39 0F 00 15 49 4F 89 20 FF FF 7F CF FF [FD BRS]
0.1907772 1 2Dx Rx d 14 51 E1 92 05 C4 09 00 90 70 97 75 61 6F 52 [FD BRS]
0.1913024 1 E3x Rx d 9 41 00 00 08 00 57 31 4B 41 [FD BRS]
0.1914976 1 DC08E2 Rx d 8 40 02 00 00 00 00 00 00
0.0026532 1 DBx Rx d 13 39 0F 00 15 D8 65 15 20 FF FF 7F CF FF [FD BRS]
0.0041824 1 18E19490x Rx d 15 00 00 00 A5 00 00 00 50 01 00 00 00 00 00 00 [FD BRS]
0.0048984 1 2Dx Rx d 14 21 86 1E 05 C4 09 00 90 70 97 2F 61 6F 52 [FD BRS]
0.0142068 1 DCx Rx d 14 39 10 01 10 15 3F 41 00 43 00 FE 42 10 9C [FD BRS]
0.0174108 1 DBx Rx d 14 39 0E 00 20 BF FC 15 FA 17 7F 83 1A 3F AC [FD BRS]
0.0190192 1 D9x Rx d 13 39 13 00 15 86 45 19 3A A0 43 4D CC CE [FD BRS]
0.0226436 1 DBx Rx d 13 39 0F 00 15 FE 54 16 20 FF FF 7F CF FF [FD BRS]
0.0243048 1 2Dx Rx d 14 F2 7D 1F 05 C4 09 00 90 70 97 30 61 6F 52 [FD BRS]
0.0341208 1 DCx Rx d 13 39 10 00 16 41 AD 1C AE 2A 0A FA DC F4 [FD BRS]
0.0345012 1 E3x Rx d 8 00 80 00 04 51 ED 65 04 [FD BRS]
0.0346632 1 18E19490x Rx d 15 01 02 00 3D 0D F8 00 80 0C FF 00 BC 02 06 06 [FD BRS]
0.0375544 1 DBx Rx d 14 39 0E 00 20 83 98 16 FA 17 7F 83 1A 3F AB [FD BRS]
0.0380756 1 D9x Rx d 13 39 13 00 15 A3 E8 1A 3A A0 44 8D CD CE [FD BRS]
0.0384528 1 44 Rx d 1 04
0.0426448 1 DBx Rx d 13 39 0F 00 15 1C 44 17 20 FF FF 7F CF FF [FD BRS]
0.0443140 1 2Dx Rx d 14 BE C5 20 05 C4 09 00 90 70 97 31 61 6F 52 [FD BRS]
0.0448424 1 D4x Rx d 8 39 04 06 04 85 FC A2 89 [FD BRS]
0.0541268 1 DCx Rx d 13 39 10 00 16 65 05 1D AE 2A 0A FA DC F4 [FD BRS]
0.0574208 1 DBx Rx d 15 39 0E 01 0F 20 35 FF FF FF FF FF FF FF 0F D3 [FD BRS]
0.0580792 1 D9x Rx d 13 39 13 00 15 E1 4D 1B 3A A0 44 0D CD CE [FD BRS]
0.0588964 1 D4x Rx d 14 39 04 0C 05 0E 0F F4 FF FF 39 15 01 14 3E [FD BRS]
0.0594288 1 E3x Rx d 9 41 00 05 08 00 80 03 43 CB [FD BRS]
0.0596260 1 D4x Rx d 15 39 0C 08 3C FE 74 00 80 00 00 08 6C 34 3F 34 [FD BRS]
0.0626972 1 DBx Rx d 13 39 0F 00 15 A2 B1 18 20 FF FF 7F CF FF [FD BRS]
0.0642452 1 18E19490x Rx d 15 02 88 00 64 64 64 01 00 00 00 D3 12 50 D6 00 [FD BRS]
0.0649456 1 2Dx Rx d 14 A1 CC 21 05 C4 09 00 90 70 97 31 61 6F 52 [FD BRS]
0.0689308 1 D4x Rx d 13 39 0C 14 0C FF FF FF 01 FE FF FF FF FF [FD BRS]
0.0693220 1 E3x Rx d 12 39 06 0B 08 00 51 51 14 00 C0 CF FF [FD BRS]
0.0742672 1 DCx Rx d 13 39 10 00 16 28 ED 1E AE 2A 0A FA DC F4 [FD BRS]
0.0774384 1 DBx Rx d 14 39 0F 01 06 4B 85 04 60 7C 17 39 0E 00 20 [FD BRS]
0.0779508 1 D9x Rx d 14 39 13 00 15 4F 3F 1C 3A A0 44 0D CD CE 12 [FD BRS]
0.0789692 1 E3x Rx d 9 41 00 05 08 01 BB E7 16 46 [FD BRS]
0.0826600 1 DBx Rx d 13 39 0F 00 15 40 A1 19 20 FF FF 7F CF FF [FD BRS]
0.0843144 1 2Dx Rx d 14 E8 61 22 05 C4 09 00 90 70 97 32 61 6F 52 [FD BRS]
0.0941216 1 DCx Rx d 13 39 10 00 16 0C 45 1F AE 2A 0A FA DC F4 [FD BRS]
0.0945040 1 18E19490x Rx d 15 03 00 00 9A 01 9A 01 00 00 00 00 00 00 00 00 [FD BRS]
0.0974612 1 DBx Rx d 14 39 0E 00 20 6E 5A 19 FA 17 7F 83 1A 3F AC [FD BRS]
0.0979844 1 D9x Rx d 13 39 13 00 15 AD 2F 1D 3A A0 44 0D CD CE [FD BRS]
0.1026524 1 DBx Rx d 13 39 0F 00 15 66 90 1A 20 FF FF 7F CF FF [FD BRS]
0.1041364 1 DCx Rx d 9 39 FE 6F 08 94 01 00 80 01 [FD BRS]
0.1043348 1 2Dx Rx d 14 F7 68 23 05 C4 09 00 90 70 97 32 61 6F 52 [FD BRS]
0.1141480 1 DCx Rx d 14 39 10 01 10 15 3F 41 30 43 00 06 06 11 9C [FD BRS]
0.1174100 1 DBx Rx d 14 39 0E 00 20 D2 37 1A FA 17 7F 83 1A 3F AC [FD BRS]
0.1190224 1 D9x Rx d 13 39 13 00 15 5D 34 1E 3A A0 43 4D CD CE [FD BRS]
0.1226416 1 DBx Rx d 13 39 0F 00 15 84 80 1B 20 FF FF 7F CF FF [FD BRS]
0.1242108 1 18E19490x Rx d 15 04 03 00 03 00 03 00 7E 36 EE 0C 44 0D 22 01 [FD BRS]
0.1249380 1 2Dx Rx d 14 72 3A 24 05 C4 09 00 90 70 97 33 61 6F 52 [FD BRS]
0.1341932 1 DCx Rx d 13 39 10 00 16 2C F1 21 AE 2A 0A FA DC F4 [FD BRS]
0.1345736 1 E3x Rx d 12 32 04 00 0C A7 15 F8 53 67 07 00 F0 [FD BRS]
0.1375616 1 DBx Rx d 14 39 0E 00 20 46 13 1B FA 17 7F 83 1A 3F AC [FD BRS]
0.1380820 1 D9x Rx d 13 39 13 00 15 50 CE 1F 3A A0 43 8D CE CE [FD BRS]
0.1426420 1 DBx Rx d 13 39 0F 00 15 2A F2 1C 20 FF FF 7F CF FF [FD BRS]
0.1444172 1 2Dx Rx d 14 54 97 25 05 C4 09 00 90 70 97 34 61 6F 52 [FD BRS]
0.1449424 1 D4x Rx d 8 39 04 06 04 31 8A A3 89 [FD BRS]
0.1541276 1 DCx Rx d 13 39 10 00 16 61 19 22 AE 2A 0A FA DC F4 [FD BRS]
0.1545068 1 E3x Rx d 13 41 00 05 08 00 80 03 43 CB 7D EA 49 05 [FD BRS]
0.1548900 1 18E19490x Rx d 15 00 00 00 A5 00 00 00 50 01 00 00 00 00 00 00 [FD BRS]
0.1574344 1 DBx Rx d 15 39 0E 01 0F 20 35 FF FF FF FF FF FF FF 0F D3 [FD BRS]
0.1580936 1 D9x Rx d 13 39 13 00 15 EB 69 20 3A A0 44 8D CE CE [FD BRS]
0.1626408 1 DBx Rx d 13 39 0F 00 15 C8 E2 1D 20 FF FF 7F CF FF [FD BRS]
0.1643040 1 2Dx Rx d 14 75 8C 26 05 C4 09 00 90 70 97 34 61 6F 52 [FD BRS]
0.1648292 1 D4x Rx d 14 39 04 0C 05 0E 0F F4 FF FF 39 FE 1D 08 59 [FD BRS]
0.1689184 1 E3x Rx d 12 39 06 0B 08 00 51 51 14 00 C0 CF FF [FD BRS]
0.1692240 1 4Fx Rx d 8 20 27 0F A0 00 49 9B 4A [FD BRS]
0.1729464 1 D9x Rx d 14 39 FE 28 08 29 00 00 80 00 00 00 00 39 13 [FD BRS]
0.1741884 1 DCx Rx d 13 39 10 00 16 45 B1 23 AE 2A 0A FA DC F4 [FD BRS]
0.1775188 1 DBx Rx d 14 39 0E 00 20 BE C1 1D FA 17 7F 83 1A 3F AB [FD BRS]
0.1789508 1 E3x Rx d 13 41 00 05 08 01 D0 96 79 E4 F7 FC 3E 39 [FD BRS]
0.1825708 1 DBx Rx d 13 39 0F 00 15 EE D3 1E 20 FF FF 7F CF FF [FD BRS]
0.1829572 1 D9x Rx d 10 39 13 01 0B 4B B9 E8 54 95 00 [FD BRS]
0.1841992 1 18E19490x Rx d 15 01 01 00 3D 0D F8 00 80 0C FF 00 BC 02 06 06 [FD BRS]
0.1849036 1 2Dx Rx d 14 5D 74 27 05 C4 09 00 90 70 97 35 61 6F 52 [FD BRS]
0.1942056 1 DCx Rx d 13 39 10 00 16 DA D9 24 AE 2A 0A FA DC F4 [FD BRS]
0.1975468 1 DBx Rx d 14 39 0E 00 20 F6 64 1E FA 17 7F 83 1A 3F AC [FD BRS]
0.1980692 1 D9x Rx d 13 39 13 00 15 EF 1F 22 3A A0 43 8D D0 CE [FD BRS]
0.0018468 1 DBx Rx d 13 39 0F 00 15 07 11 AF 20 FF FF 7F CF FF [FD BRS]
0.0031352 1 18E19490x Rx d 15 02 88 00 64 64 64 01 00 00 00 84 12 2B B3 00 [FD BRS]
0.0038412 1 2Dx Rx d 14 E3 DF B8 05 C4 09 00 90 70 97 F2 60 6F 52 [FD BRS]
0.0043688 1 D4x Rx d 13 39 04 0C 05 0E 0F F4 FF FF 39 0C 14 0C [FD BRS]
0.0081052 1 E3x Rx d 12 39 06 0B 08 00 51 51 14 00 C0 CF FF [FD BRS]
0.0132972 1 DCx Rx d 13 39 10 00 16 85 5A B5 AE 2A 0A FA DC F4 [FD BRS]
0.0166324 1 DBx Rx d 14 39 0E 00 20 D8 25 AF FA 17 7F 83 1A 3F A8 [FD BRS]
0.0171536 1 D9x Rx d 14 39 13 00 15 51 95 B3 44 A0 43 4D 97 CE 12 [FD BRS]
0.0181400 1 E3x Rx d 13 41 00 05 08 01 2B 4D 11 B2 14 56 26 39 [FD BRS]
0.0218708 1 DBx Rx d 13 39 0F 00 15 B8 FA B0 20 FF FF 7F CF FF [FD BRS]
0.0236040 1 2Dx Rx d 14 24 BB B9 05 C4 09 00 90 70 97 F3 60 6F 52 [FD BRS]
0.0331664 1 DCx Rx d 13 39 10 00 16 C8 B2 B6 AE 2A 0A FA DC F4 [FD BRS]
0.0335468 1 18E19490x Rx d 15 03 00 00 9E 01 9E 01 00 00 00 00 00 00 00 00 [FD BRS]
0.0366620 1 DBx Rx d 14 39 0E 00 20 B7 87 B0 FA 17 7F 83 1A 3F A8 [FD BRS]
0.0371812 1 D9x Rx d 13 39 13 00 15 CC AE B4 44 A0 43 0D 98 CE [FD BRS]
0.0418552 1 DBx Rx d 13 39 0F 00 15 5A EA B1 20 FF FF 7F CF FF [FD BRS]
0.0434736 1 2Dx Rx d 14 05 A0 BA 05 C4 09 00 90 70 97 F3 60 6F 52 [FD BRS]
0.0531736 1 DCx Rx d 14 39 10 01 10 15 3F 41 38 43 00 5E 06 11 9C [FD BRS]
0.0566128 1 DBx Rx d 14 39 0E 00 20 23 A3 B1 FA 17 7F 83 1A 3F A8 [FD BRS]
0.0580892 1 D9x Rx d 13 39 13 00 15 2E BE B5 44 A0 43 0D 98 CE [FD BRS]
0.0618592 1 DBx Rx d 13 39 0F 00 15 7C DB B2 20 FF FF 7F CF FF [FD BRS]
0.0631284 1 18E19490x Rx d 15 04 03 00 03 00 03 00 88 36 EE 0C 44 0D 22 01 [FD BRS]
0.0638556 1 2Dx Rx d 14 33 B8 BB 05 C4 09 00 90 70 97 F4 60 6F 52 [FD BRS]
0.0732308 1 DCx Rx d 13 39 10 00 16 F6 63 B8 AE 2A 0A FA DC F4 [FD BRS]
0.0736112 1 E3x Rx d 8 00 80 00 04 49 0B 51 04 [FD BRS]
0.0767396 1 D9x Rx d 13 39 13 00 15 08 8F B6 44 A0 43 0D 98 CE [FD BRS]
0.0771148 1 DBx Rx d 14 39 0E 00 20 9F CE B2 FA 17 7F 83 1A 3F A8 [FD BRS]
0.0776348 1 44 Rx d 1 04
0.0818448 1 DBx Rx d 13 39 0F 00 15 9E CB B3 20 FF FF 7F CF FF [FD BRS]
0.0835152 1 2Dx Rx d 14 B6 EA BC 05 C4 09 00 90 70 97 F5 60 6F 52 [FD BRS]
0.0840424 1 D4x Rx d 8 39 04 06 04 F9 84 8E 89 [FD BRS]
0.0931788 1 DCx Rx d 13 39 10 00 16 D2 CB B9 AE 2A 0A FA DC F4 [FD BRS]
0.0935592 1 18E19490x Rx d 15 00 00 00 A5 00 00 00 50 01 00 00 00 00 00 00 [FD BRS]
0.0966220 1 DBx Rx d 15 39 0E 01 0F 30 35 FF FF FF FF FF FF FF 0F D3 [FD BRS]
0.0972816 1 D9x Rx d 13 39 13 00 15 2A 6B B7 43 A0 43 8D 98 CE [FD BRS]
0.0981016 1 D4x Rx d 14 39 04 0C 05 0E 0F F4 FF FF 39 15 01 14 3E [FD BRS]
0.0986340 1 E3x Rx d 9 41 00 05 08 00 80 03 43 CB [FD BRS]
0.0988304 1 D4x Rx d 15 39 0C 08 3C FE 74 00 80 00 00 08 6C 34 3F 33 [FD BRS]
0.1018996 1 DBx Rx d 13 39 0F 00 15 30 B9 B4 20 FF FF 7F CF FF [FD BRS]
0.1035368 1 2Dx Rx d 14 A9 E3 BD 05 C4 09 00 90 70 97 F5 60 6F 52 [FD BRS]
0.1081080 1 D4x Rx d 13 39 0C 14 0C FF FF FF 01 FE FF FF FF FF [FD BRS]
0.1084992 1 E3x Rx d 12 39 06 0B 08 00 51 51 14 00 C0 CF FF [FD BRS]
0.1132424 1 DCx Rx d 13 39 10 00 16 9F 23 BA AE 2A 0A FA DC F4 [FD BRS]
0.1166388 1 DBx Rx d 14 39 0F 01 06 4B 85 04 60 50 1D 39 0E 00 20 [FD BRS]
0.1171460 1 D9x Rx d 14 39 13 00 15 AB 43 B8 44 A0 43 0D 98 CE 12 [FD BRS]
0.1181972 1 E3x Rx d 9 41 00 05 08 01 0C B9 35 E5 [FD BRS]
0.1218584 1 DBx Rx d 13 39 0F 00 15 D2 A9 B5 20 FF FF 7F CF FF [FD BRS]
0.1231204 1 18E19490x Rx d 15 01 02 00 3D 0D F7 00 80 0C FF 00 BC 02 06 06 [FD BRS]
0.1238248 1 2Dx Rx d 14 E0 4E BE 05 C4 09 00 90 70 97 F6 60 6F 52 [FD BRS]
0.1332368 1 DCx Rx d 13 39 10 00 16 BB 8B BB AE 2A 0A FA DC F4 [FD BRS]
0.1366100 1 DBx Rx d 14 39 0E 00 20 73 31 B5 FA 17 7F 83 1A 3F A8 [FD BRS]
0.1371292 1 D9x Rx d 13 39 13 00 15 66 20 B9 44 A0 43 4D 98 CE [FD BRS]
0.1418524 1 DBx Rx d 13 39 0F 00 15 F4 98 B6 20 FF FF 7F CF FF [FD BRS]
0.1430776 1 DCx Rx d 9 39 FE 6F 08 94 01 00 80 01 [FD BRS]
0.1435000 1 2Dx Rx d 14 FF 47 BF 05 C4 09 00 90 70 97 F6 60 6F 52 [FD BRS]
0.1531772 1 DCx Rx d 14 39 10 01 10 15 3F 41 30 43 00 66 06 11 9C [FD BRS]
0.1536956 1 18E19490x Rx d 15 02 88 00 64 64 64 01 00 00 00 FD 12 2B B3 00 [FD BRS]
0.1566116 1 DBx Rx d 14 39 0E 00 20 CF 5C B6 FA 17 7F 83 1A 3F A8 [FD BRS]
0.1580940 1 D9x Rx d 13 39 13 00 15 03 B7 BA 44 A0 43 CD 97 CE [FD BRS]
0.1618432 1 DBx Rx d 13 39 0F 00 15 16 88 B7 20 FF FF 7F CF FF [FD BRS]
0.1634732 1 2Dx Rx d 14 31 98 C0 05 C4 09 00 90 70 97 F7 60 6F 52 [FD BRS]
0.1731764 1 DCx Rx d 13 39 10 00 16 00 4B BD AE 2A 0A FA DC F4 [FD BRS]
0.1735588 1 E3x Rx d 12 32 04 00 0C 04 95 F6 53 67 07 00 F0 [FD BRS]
0.1767772 1 D9x Rx d 13 39 13 00 15 72 5B BB 44 A0 43 0D 98 CE [FD BRS]
0.1771532 1 DBx Rx d 14 39 0E 00 20 5B 78 B7 FA 17 7F 83 1A 3F A8 [FD BRS]
0.1818424 1 DBx Rx d 13 39 0F 00 15 A8 7D B8 20 FF FF 7F CF FF [FD BRS]
0.1831296 1 18E19490x Rx d 15 03 00 00 95 01 95 01 00 00 00 00 00 00 00 00 [FD BRS]
0.1838488 1 2Dx Rx d 14 A4 DE C1 05 C4 09 00 90 70 97 F8 60 6F 52 [FD BRS]
0.1843752 1 D4x Rx d 8 39 04 06 04 4D F2 8F 89 [FD BRS]
0.1932564 1 DCx Rx d 13 39 10 00 16 4D A3 BE AE 2A 0A FA DC F4 [FD BRS]
0.1936368 1 E3x Rx d 13 41 00 05 08 00 80 03 43 CB 7D 22 78 05 [FD BRS]
0.1966336 1 DBx Rx d 15 39 0E 01 0F 30 35 FF FF FF FF FF FF FF 0F D3 [FD BRS]
0.1972932 1 D9x Rx d 13 39 13 00 15 AC C6 BC 44 A0 43 CD 98 CE [FD BRS]
0.0032240 1 DCx Rx d 13 39 10 00 16 40 57 50 AE 2A 0A FA DC F8 [FD BRS]
0.0036064 1 18E19490x Rx d 15 00 00 00 A5 00 00 00 50 01 00 00 00 00 00 00 [FD BRS]
0.0043236 1 E3x Rx d 13 41 00 05 08 00 80 03 43 CB 7C 46 55 05 [FD BRS]
0.0068472 1 D9x Rx d 13 39 13 00 15 70 09 4E 47 A0 43 CD 85 CE [FD BRS]
0.0072244 1 DBx Rx d 15 39 0E 01 0F 2C 35 FF FF FF FF FF FF FF 0F D3 [FD BRS]
0.0121916 1 DBx Rx d 13 39 0F 00 15 81 E6 4B 20 FF FF 7F CF FF [FD BRS]
0.0137488 1 2Dx Rx d 14 3B 5A 54 05 C4 09 00 90 70 97 B6 60 6F 52 [FD BRS]
0.0142732 1 D4x Rx d 13 39 04 0C 05 0E 0F F4 FF FF 39 0C 14 0C [FD BRS]
0.0183632 1 E3x Rx d 12 39 06 0B 08 00 51 51 14 00 C0 CF FF [FD BRS]
0.0232968 1 DCx Rx d 13 39 10 00 16 64 FF 51 AE 2A 0A FA DC F8 [FD BRS]
0.0268320 1 D9x Rx d 14 39 13 00 15 AC D3 4F 47 A0 43 4D 86 CE 12 [FD BRS]
0.0273424 1 DBx Rx d 14 39 0E 00 20 FB 29 4B FB 17 7F 83 1A 3F A7 [FD BRS]
0.0283764 1 E3x Rx d 13 41 00 05 08 01 33 34 D1 FC A2 EA 57 39 [FD BRS]
0.0322256 1 DBx Rx d 13 39 0F 00 15 2F 94 4C 20 FF FF 7F CF FF [FD BRS]
0.0331828 1 18E19490x Rx d 15 01 02 00 3E 0D F8 00 80 0C FF 00 BC 02 06 06 [FD BRS]
0.0338928 1 2Dx Rx d 14 FC 3E 55 05 C4 09 00 90 70 97 B7 60 6F 52 [FD BRS]
0.0433080 1 DCx Rx d 13 39 10 00 16 29 17 52 AE 2A 0A FA DC F8 [FD BRS]
0.0468256 1 D9x Rx d 13 39 13 00 15 C0 FE 50 47 A0 44 CD 87 CE [FD BRS]
0.0472056 1 DBx Rx d 14 39 0E 00 20 17 D6 4C FB 17 7F 83 1A 3F A7 [FD BRS]
0.0522112 1 DBx Rx d 13 39 0F 00 15 CD 84 4D 20 FF FF 7F CF FF [FD BRS]
0.0538724 1 2Dx Rx d 14 DD 25 56 05 C4 09 00 90 70 97 B7 60 6F 52 [FD BRS]
0.0632224 1 DCx Rx d 14 39 10 01 10 15 3F 41 00 43 00 BE 12 11 9C [FD BRS]
0.0637460 1 18E19490x Rx d 15 02 88 00 64 64 64 01 00 00 00 93 12 7F D5 00 [FD BRS]
0.0668928 1 DBx Rx d 14 39 0E 00 20 83 F2 4D FB 17 7F 83 1A 3F A7 [FD BRS]
0.0678224 1 D9x Rx d 13 39 13 00 15 57 ED 51 47 A0 44 CD 86 CE [FD BRS]
0.0721924 1 DBx Rx d 13 39 0F 00 15 EB B5 4E 20 FF FF 7F CF FF [FD BRS]
0.0737316 1 2Dx Rx d 14 48 63 57 05 C4 09 00 90 70 97 B8 60 6F 52 [FD BRS]
0.0832228 1 DCx Rx d 13 39 10 00 16 92 D7 54 AE 2A 0A FA DC F8 [FD BRS]
0.0837912 1 E3x Rx d 8 00 80 00 04 A9 1D 3D 04 [FD BRS]
0.0870736 1 D9x Rx d 13 39 13 00 15 77 AC 52 47 A0 43 CD 86 CE [FD BRS]
0.0874476 1 DBx Rx d 14 39 0E 00 20 3F 9F 4E FB 17 7F 83 1A 3F A7 [FD BRS]
0.0879680 1 44 Rx d 1 04
0.0921980 1 DBx Rx d 13 39 0F 00 15 09 A5 4F 20 FF FF 7F CF FF [FD BRS]
0.0931940 1 18E19490x Rx d 15 03 00 00 99 01 99 01 00 00 00 00 00 00 00 00 [FD BRS]
0.0939132 1 2Dx Rx d 14 35 79 58 05 C4 09 00 90 70 97 B9 60 6F 52 [FD BRS]
0.0944388 1 D4x Rx d 8 39 04 06 04 45 D1 7A 89 [FD BRS]
0.1033220 1 DCx Rx d 13 39 10 00 16 C8 98 55 AE 2A 0A FA DC F4 [FD BRS]
0.1068324 1 D9x Rx d 13 39 13 00 15 73 43 53 47 A0 43 0D 88 CE [FD BRS]
0.1072076 1 DBx Rx d 15 39 0E 01 0F 2C 35 FF FF FF FF FF FF FF 0F D3 [FD BRS]
0.1083516 1 D4x Rx d 14 39 04 0C 05 0E 0F F4 FF FF 39 15 01 14 3E [FD BRS]
0.1088840 1 E3x Rx d 9 41 00 05 08 00 80 03 43 CB [FD BRS]
0.1090812 1 D4x Rx d 15 39 0C 08 3C FE 74 00 80 00 00 08 6C 34 3F 32 [FD BRS]
0.1122464 1 DBx Rx d 13 39 0F 00 15 B6 4E 50 20 FF FF 7F CF FF [FD BRS]
0.1138188 1 2Dx Rx d 14 2A 70 59 05 C4 09 00 90 70 97 B9 60 6F 52 [FD BRS]
0.1183600 1 D4x Rx d 13 39 0C 14 0C FF FF FF 00 FE FF FF FF FF [FD BRS]
0.1187512 1 E3x Rx d 12 39 06 0B 08 00 51 51 14 00 C0 CF FF [FD BRS]
0.1233016 1 DCx Rx d 13 39 10 00 16 FB 97 56 AE 2A 0A FA DC F8 [FD BRS]
0.1236840 1 18E19490x Rx d 15 04 03 00 03 00 03 00 88 36 EE 0C 44 0D 22 01 [FD BRS]
0.1268372 1 D9x Rx d 14 39 13 00 15 DD 31 54 47 A0 43 0D 88 CE 12 [FD BRS]
0.1273464 1 DBx Rx d 14 39 0F 01 06 4B 85 04 60 20 19 39 0E 00 20 [FD BRS]
0.1284216 1 E3x Rx d 9 41 00 05 08 01 F8 57 8B D6 [FD BRS]
0.1321408 1 DBx Rx d 13 39 0F 00 15 54 5E 51 20 FF FF 7F CF FF [FD BRS]
0.1337468 1 2Dx Rx d 14 63 DD 5A 05 C4 09 00 90 70 97 BA 60 6F 52 [FD BRS]
0.1433112 1 DCx Rx d 13 39 10 00 16 DF 3F 57 AE 2A 0A FA DC F8 [FD BRS]
0.1468304 1 D9x Rx d 13 39 13 00 15 7A F7 55 47 A0 44 8D 87 CE [FD BRS]
0.1472068 1 DBx Rx d 14 39 0E 00 20 50 3D 51 FB 17 7F 83 1A 3F A7 [FD BRS]
0.1522100 1 DBx Rx d 13 39 0F 00 15 72 6F 52 20 FF FF 7F CF FF [FD BRS]
0.1531444 1 DCx Rx d 9 39 FE 6F 08 94 01 00 80 01 [FD BRS]
0.1533424 1 18E19490x Rx d 15 00 00 00 A5 00 00 00 50 01 00 00 00 00 00 00 [FD BRS]
0.1540596 1 2Dx Rx d 14 7C D4 5B 05 C4 09 00 90 70 97 BA 60 6F 52 [FD BRS]
0.1633188 1 DCx Rx d 14 39 10 01 10 15 3F 41 00 43 00 C6 12 11 9C [FD BRS]
0.1668920 1 DBx Rx d 14 39 0E 00 20 EC 50 52 FB 17 7F 83 1A 3F A7 [FD BRS]
0.1680284 1 D9x Rx d 13 39 13 00 15 8C 9C 56 47 A0 44 CD 87 CE [FD BRS]
0.1721956 1 DBx Rx d 13 39 0F 00 15 90 7F 53 20 FF FF 7F CF FF [FD BRS]
0.1737656 1 2Dx Rx d 14 F9 86 5C 05 C4 09 00 90 70 97 BB 60 6F 52 [FD BRS]
0.1783672 1 E3x Rx d 10 32 04 00 0C 44 1E F4 53 67 07 [FD BRS]
0.1832252 1 DCx Rx d 13 39 10 00 16 E1 EE 59 AE 2A 0A FA DC F8 [FD BRS]
0.1836064 1 18E19490x Rx d 15 01 02 00 3D 0D F8 00 80 0C FF 00 BC 02 06 06 [FD BRS]
0.1843108 1 E3x Rx d 8 00 80 00 04 75 86 3E 04 [FD BRS]
0.1870360 1 DBx Rx d 14 39 0E 00 20 78 74 53 FB 17 7F 83 1A 3F A7 [FD BRS]
0.1875540 1 D9x Rx d 13 39 13 00 15 FB 00 57 47 A0 43 0D 88 CE [FD BRS]
0.1921984 1 DBx Rx d 13 39 0F 00 15 3E 0D 54 20 FF FF 7F CF FF [FD BRS]
0.1938464 1 2Dx Rx d 14 CF 9E 5D 05 C4 09 00 90 70 97 BC 60 6F 52 [FD BRS]
0.1943728 1 D4x Rx d 8 39 04 06 04 F1 A7 7B 89 [FD BRS]
0.0033796 1 E3x Rx d 12 39 06 0B 08 00 51 51 14 00 C0 CF FF [FD BRS]
0.0080820 1 DCx Rx d 13 39 10 00 16 D4 CC E8 AE 2A 0A FA DC F4 [FD BRS]
0.0117292 1 D9x Rx d 14 39 13 00 15 BF 13 E6 52 A0 42 0D 4A CE 12 [FD BRS]
0.0122424 1 DBx Rx d 14 39 0F 01 06 4B 85 04 60 00 19 39 0E 00 20 [FD BRS]
0.0133928 1 E3x Rx d 9 41 00 05 08 01 FB FC 80 75 [FD BRS]
0.0171636 1 DBx Rx d 13 39 0F 00 15 9B AD E3 20 FF FF 7F CF FF [FD BRS]
0.0179628 1 18E19490x Rx d 15 01 02 00 3D 0D F7 00 80 0C FF 00 BC 02 06 06 [FD BRS]
0.0187432 1 2Dx Rx d 14 6B 32 EC 05 C4 09 00 90 70 97 78 60 6F 52 [FD BRS]
0.0280852 1 DCx Rx d 13 39 10 00 16 F0 64 E9 AE 2A 0A FA DC F4 [FD BRS]
0.0317220 1 D9x Rx d 13 39 13 00 15 ED 75 E7 52 A0 42 4D 49 CE [FD BRS]
0.0320988 1 DBx Rx d 14 39 0E 00 20 29 D1 E3 FA 07 7F 83 1A 3F 93 [FD BRS]
0.0372284 1 DBx Rx d 13 39 0F 00 15 35 DF E4 20 FF FF 7F CF FF [FD BRS]
0.0387584 1 2Dx Rx d 14 74 3B ED 05 C4 09 00 90 70 97 78 60 6F 52 [FD BRS]
0.0480256 1 DCx Rx d 14 39 10 01 10 15 3F 41 30 43 00 16 16 11 9C [FD BRS]
0.0485448 1 18E19490x Rx d 15 02 88 00 64 64 64 01 00 00 00 B3 12 26 BD 00 [FD BRS]
0.0519292 1 DBx Rx d 14 39 0E 00 20 45 27 E4 FA 07 7F 83 1A 3F 94 [FD BRS]
0.0531532 1 D9x Rx d 13 39 13 00 15 CC 85 E8 52 A0 42 4D 4A CE [FD BRS]
0.0572244 1 DBx Rx d 13 39 0F 00 15 D7 CF E5 20 FF FF 7F CF FF [FD BRS]
0.0587608 1 2Dx Rx d 14 8D 4D EE 05 C4 09 00 90 70 97 79 60 6F 52 [FD BRS]
0.0680260 1 DCx Rx d 13 39 10 00 16 99 24 EB AE 2A 0A FA DC F4 [FD BRS]
0.0687952 1 E3x Rx d 8 00 80 00 04 4B BA 28 04 [FD BRS]
0.0719776 1 D9x Rx d 13 39 13 00 15 C0 C4 E9 52 A0 42 0D 4C CE [FD BRS]
0.0723556 1 DBx Rx d 14 39 0E 00 20 27 D6 E5 FA 07 7F 83 1A 3F 95 [FD BRS]
0.0772272 1 DBx Rx d 13 39 0F 00 15 F1 FE E6 20 FF FF 7F CF FF [FD BRS]
0.0779852 1 18E19490x Rx d 15 03 00 00 9A 01 9A 01 00 00 00 00 00 00 00 00 [FD BRS]
0.0787644 1 2Dx Rx d 14 FA F2 EF 05 C4 09 00 90 70 97 7A 60 6F 52 [FD BRS]
0.0792908 1 D4x Rx d 8 39 04 06 04 0C 1E 65 89 [FD BRS]
0.0881072 1 DCx Rx d 13 39 10 00 16 06 4C EC AE 2A 0A FA DC F4 [FD BRS]
0.0888032 1 E3x Rx d 13 41 00 05 08 00 80 03 43 CB 7B 7E 69 05 [FD BRS]
0.0917496 1 D9x Rx d 13 39 13 00 15 FF 70 EA 51 A0 42 CD 4C CE [FD BRS]
0.0921248 1 DBx Rx d 15 39 0E 01 0F 18 35 FF FF FF FF FF FF FF 0F D3 [FD BRS]
0.0972252 1 DBx Rx d 13 39 0F 00 15 13 EE E7 20 FF FF 7F CF FF [FD BRS]
0.0987612 1 2Dx Rx d 14 AF 14 F0 05 C4 09 00 90 70 97 7A 60 6F 52 [FD BRS]
0.0992888 1 D4x Rx d 13 39 04 0C 05 0E 0F F4 FF FF 39 0C 14 0C [FD BRS]
0.1034748 1 E3x Rx d 12 39 06 0B 08 00 51 51 14 00 C0 CF FF [FD BRS]
0.1080840 1 DCx Rx d 13 39 10 00 16 22 E4 ED AE 2A 0A FA DC F4 [FD BRS]
0.1084644 1 18E19490x Rx d 15 04 03 00 03 00 03 00 7E 36 ED 0C 44 0D 22 01 [FD BRS]
0.1117328 1 D9x Rx d 14 39 13 00 15 68 63 EB 51 A0 42 CD 4D CE 12 [FD BRS]
0.1122452 1 DBx Rx d 14 39 0E 00 20 B6 F6 E7 FA 07 7F 83 1A 3F 99 [FD BRS]
0.1133932 1 E3x Rx d 13 41 00 05 08 01 51 E2 ED 89 12 BF BE 39 [FD BRS]
0.1171764 1 DBx Rx d 13 39 0F 00 15 AD 1B E8 20 FF FF 7F CF FF [FD BRS]
0.1187396 1 2Dx Rx d 14 68 70 F1 05 C4 09 00 90 70 97 7B 60 6F 52 [FD BRS]
0.1280388 1 DCx Rx d 13 39 10 00 16 6F 0C EE AE 2A 0A FA DC F4 [FD BRS]
0.1317272 1 D9x Rx d 13 39 13 00 15 ED D9 EC 51 A0 43 4D 4F CE [FD BRS]
0.1321052 1 DBx Rx d 14 39 0E 00 20 5B 34 E8 FA 07 7F 83 1A 3F 9E [FD BRS]
0.1372256 1 DBx Rx d 13 39 0F 00 15 4F 0B E9 20 FF FF 7F CF FF [FD BRS]
0.1379776 1 18E19490x Rx d 15 00 00 00 A5 00 00 00 50 01 00 00 00 00 00 00 [FD BRS]
0.1387440 1 2Dx Rx d 14 49 6B F2 05 C4 09 00 90 70 97 7B 60 6F 52 [FD BRS]
0.1481044 1 DCx Rx d 14 39 10 01 10 15 3F 41 39 43 00 1E 12 11 9C [FD BRS]
0.1519152 1 DBx Rx d 14 39 0E 00 20 EA 4D E9 FA 07 7F 83 1A 3F A3 [FD BRS]
0.1531556 1 D9x Rx d 13 39 13 00 15 C9 EE ED 51 A0 43 4D 51 CE [FD BRS]
0.1572220 1 DBx Rx d 13 39 0F 00 15 69 3A EA 20 FF FF 7F CF FF [FD BRS]
0.1588192 1 2Dx Rx d 14 7F 73 F3 05 C4 09 00 90 70 97 7C 60 6F 52 [FD BRS]
0.1680292 1 DCx Rx d 13 39 10 00 16 25 19 F0 AE 2A 0A FA DC F8 [FD BRS]
0.1684156 1 18E19490x Rx d 15 01 02 00 3E 0D F8 00 80 0C FA 00 BC 02 06 06 [FD BRS]
0.1691196 1 E3x Rx d 8 00 80 00 04 FF CC 29 04 [FD BRS]
0.1719804 1 D9x Rx d 13 39 13 00 15 5F A9 EE 51 A0 43 0D 52 CE [FD BRS]
0.1723584 1 DBx Rx d 14 39 0E 00 20 B3 09 EA FA 17 7F 83 1A 3F A5 [FD BRS]
0.1728776 1 44 Rx d 1 04
0.1772256 1 DBx Rx d 13 39 0F 00 15 8B 2A EB 20 FF FF 7F CF FF [FD BRS]
0.1787660 1 2Dx Rx d 14 FA 21 F4 05 C4 09 00 90 70 97 7D 60 6F 52 [FD BRS]
0.1792940 1 D4x Rx d 8 39 04 06 04 D0 85 66 89 [FD BRS]
0.1880516 1 DCx Rx d 13 39 10 00 16 01 B1 F1 AE 2A 0A FA DC F8 [FD BRS]
0.1917340 1 D9x Rx d 13 39 13 00 15 52 53 EF 51 A0 43 CD 51 CE [FD BRS]
0.1921092 1 DBx Rx d 15 39 0E 01 0F 2C 35 FF FF FF FF FF FF FF 0F D3 [FD BRS]
0.1933144 1 D4x Rx d 14 39 04 0C 05 0E 0F F4 FF FF 39 15 01 14 3E [FD BRS]
0.1938476 1 E3x Rx d 9 41 00 05 08 00 80 03 43 CB [FD BRS]
0.1940420 1 D4x Rx d 15 39 0C 08 3C FE 74 00 80 00 00 08 6C 34 3F 31 [FD BRS]
0.1972792 1 DBx Rx d 13 39 0F 00 15 25 58 EC 20 FF FF 7F CF FF [FD BRS]
0.1980452 1 18E19490x Rx d 15 02 88 00 64 64 64 01 00 00 00 C0 12 17 9E 00 [FD BRS]
0.1987612 1 2Dx Rx d 14 E5 28 F5 05 C4 09 00 90 70 97 7D 60 6F 52 [FD BRS]
0.0012584 1 D9x Rx d 13 39 13 00 15 46 86 80 1C A0 4B 4D 4C 6F [FD BRS]
0.0016352 1 DBx Rx d 14 39 0E 00 20 85 8F 7C 01 88 7F 83 1A 3F E2 [FD BRS]
0.0023296 1 44 Rx d 1 04
0.0067596 1 DBx Rx d 13 39 0F 00 15 CE A6 7D 20 FF FF 7F CF FF [FD BRS]
0.0074368 1 18E19490x Rx d 15 03 00 00 99 01 99 01 00 00 00 00 00 00 00 00 [FD BRS]
0.0083552 1 2Dx Rx d 14 7D A2 86 05 C4 09 00 90 70 97 3B A0 6F 52 [FD BRS]
0.0088824 1 D4x Rx d 8 39 04 06 04 A0 8E 50 89 [FD BRS]
0.0174088 1 DCx Rx d 13 39 10 00 16 15 16 83 AE 2A 0A FA DC 10 [FD BRS]
0.0183788 1 E3x Rx d 11 00 80 00 04 BD 88 13 04 41 00 05 [FD BRS]
0.0214120 1 DBx Rx d 15 39 0E 01 0F 38 35 FF FF FF FF FF FF FF 0F D3 [FD BRS]
0.0220704 1 D9x Rx d 13 39 13 00 15 C2 3E 81 1B A0 4B 4D 4C 8F [FD BRS]
0.0267524 1 DBx Rx d 13 39 0F 00 15 E8 97 7E 20 FF FF 7F CF FF [FD BRS]
0.0283344 1 2Dx Rx d 14 F8 86 87 05 C4 09 00 90 70 97 3B 60 6F 52 [FD BRS]
0.0288628 1 D4x Rx d 15 39 04 0C 05 0E 0F F8 FF FF 39 15 01 14 3E B5 [FD BRS]
0.0329500 1 E3x Rx d 12 39 06 0B 08 00 11 11 14 00 C0 CF FF [FD BRS]
0.0373924 1 DCx Rx d 13 39 10 00 16 8A 7E 84 AE 2A 0A FA DC 10 [FD BRS]
0.0377756 1 18E19490x Rx d 15 04 03 00 03 00 03 00 D2 37 ED 0C 4A 0D 22 01 [FD BRS]
0.0413960 1 DBx Rx d 14 39 0F 01 06 4B 85 04 60 F8 1C 39 0E 00 20 [FD BRS]
0.0419072 1 D9x Rx d 14 39 13 00 15 85 92 82 1E A0 4B 0D 3F 8F 0F [FD BRS]
0.0429912 1 E3x Rx d 12 41 00 05 08 01 48 53 A3 C2 23 97 E2 [FD BRS]
0.0468324 1 DBx Rx d 13 39 0F 00 15 0A 87 7F 20 FF FF 7F CF FF [FD BRS]
0.0483188 1 2Dx Rx d 14 74 E0 88 05 C4 09 00 90 70 97 3C 60 6F 52 [FD BRS]
0.0573428 1 DCx Rx d 13 39 10 00 16 46 A5 85 AE 2A 0A FA DC 0C [FD BRS]
0.0613332 1 D9x Rx d 13 39 13 00 15 D1 0B 83 20 A0 4A 0D 32 8F [FD BRS]
0.0617116 1 DBx Rx d 14 39 0E 00 20 02 0E 7F 00 78 7F 83 1A 3F DD [FD BRS]
0.0667608 1 DBx Rx d 13 39 0F 00 15 BB D8 80 20 FF FF 7F CF FF [FD BRS]
0.0674388 1 18E19490x Rx d 15 00 00 00 A5 00 00 00 50 01 00 00 00 00 00 00 [FD BRS]
0.0683140 1 2Dx Rx d 14 1E 58 89 05 C4 09 00 90 70 97 3C A0 6F 52 [FD BRS]
0.0774092 1 DCx Rx d 14 39 10 01 10 15 3F 41 30 43 00 76 06 10 9C [FD BRS]
0.0813656 1 DBx Rx d 14 39 0E 00 20 47 73 80 00 78 7F 83 1A 3F DD [FD BRS]
0.0826128 1 D9x Rx d 13 39 13 00 15 9A B2 84 22 A0 4A CD 26 AF [FD BRS]
0.0867588 1 DBx Rx d 13 39 0F 00 15 59 C8 81 20 FF FF 7F CF FF [FD BRS]
0.0884372 1 2Dx Rx d 14 E7 2E 8A 05 C4 09 00 90 70 97 3D A0 6F 52 [FD BRS]
0.0973344 1 DCx Rx d 13 39 10 00 16 2F E5 87 AE 2A 0A FA DC 0C [FD BRS]
0.0977168 1 18E19490x Rx d 15 01 02 00 43 0D F7 00 80 0C FF 00 BC 02 06 06 [FD BRS]
0.0984200 1 E3x Rx d 8 00 80 00 04 90 D9 14 04 [FD BRS]
0.1014504 1 D9x Rx d 13 39 13 00 15 99 BE 85 23 A0 4A 0D 21 AF [FD BRS]
0.1018276 1 DBx Rx d 14 39 0E 00 20 68 D2 81 00 78 7F 83 1A 3F D9 [FD BRS]
0.1067648 1 DBx Rx d 13 39 0F 00 15 7F F9 82 20 FF FF 7F CF FF [FD BRS]
0.1083368 1 2Dx Rx d 14 06 D5 8B 05 C4 09 00 90 70 97 3E 60 6F 52 [FD BRS]
0.1088652 1 D4x Rx d 8 39 04 06 04 14 F8 51 89 [FD BRS]
0.1173556 1 DCx Rx d 13 39 10 00 16 35 9C 88 AE 2A 0A FA DC 0C [FD BRS]
0.1183956 1 E3x Rx d 13 41 00 05 08 00 80 03 43 CB 7A B6 EE 05 [FD BRS]
0.1213920 1 DBx Rx d 15 39 0E 01 0F 2C 35 FF FF FF FF FF FF FF 0F D3 [FD BRS]
0.1220520 1 D9x Rx d 13 39 13 00 15 A8 6F 86 23 A0 4A CD 1E CF [FD BRS]
0.1267552 1 DBx Rx d 13 39 0F 00 15 9D E9 83 20 FF FF 7F CF FF [FD BRS]
0.1274772 1 18E19490x Rx d 15 02 88 00 64 64 64 01 00 00 00 EF 12 58 40 00 [FD BRS]
0.1283236 1 2Dx Rx d 14 5B EA 8C 05 C4 09 00 90 70 97 3E 60 6F 52 [FD BRS]
0.1288500 1 D4x Rx d 13 39 04 0C 05 0E 0F F8 FF FF 39 0C 14 0C [FD BRS]
0.1329564 1 E3x Rx d 12 39 06 0B 08 00 11 11 14 00 C0 CF FF [FD BRS]
0.1374936 1 DCx Rx d 13 39 10 00 16 11 34 89 AE 2A 0A FA DC 0C [FD BRS]
0.1413448 1 D9x Rx d 14 39 13 00 15 04 4E 87 26 A0 4A 8D 10 CF 0F [FD BRS]
0.1418580 1 DBx Rx d 14 39 0E 00 20 57 59 83 00 68 7F 83 1A 3F D8 [FD BRS]
0.1429652 1 E3x Rx d 13 41 00 05 08 01 A5 13 19 CA B3 6C A6 39 [FD BRS]
0.1467904 1 DBx Rx d 13 39 0F 00 15 33 9B 84 20 FF FF 7F CF FF [FD BRS]
0.1483236 1 2Dx Rx d 14 9C 8E 8D 05 C4 09 00 90 70 97 3F 60 6F 52 [FD BRS]
0.1573528 1 DCx Rx d 13 39 10 00 16 5C DC 8A AE 2A 0A FA DC 0C [FD BRS]
0.1577340 1 18E19490x Rx d 15 03 00 00 9D 01 9D 01 00 00 00 00 00 00 00 00 [FD BRS]
0.1612304 1 D9x Rx d 13 39 13 00 15 A0 92 88 28 A0 49 0D 01 CF [FD BRS]
0.1616136 1 DBx Rx d 14 39 0E 00 20 BD 81 84 00 68 7F 83 1A 3F D2 [FD BRS]
0.1667720 1 DBx Rx d 13 39 0F 00 15 D1 8B 85 20 FF FF 7F CF FF [FD BRS]
0.1683172 1 2Dx Rx d 14 C8 24 8E 05 C4 09 00 90 70 97 3F A0 6F 52 [FD BRS]
0.1773564 1 DCx Rx d 14 39 10 01 10 15 3F 41 32 43 00 7E 06 11 9C [FD BRS]
0.1813656 1 DBx Rx d 14 39 0E 00 20 66 0A 85 00 68 7F 83 1A 3F D1 [FD BRS]
0.1826168 1 D9x Rx d 13 39 13 00 15 76 3C 89 2B A0 49 4D F0 EE [FD BRS]
0.1867648 1 DBx Rx d 13 39 0F 00 15 F7 BA 86 20 FF FF 7F CF FF [FD BRS]
0.1874740 1 18E19490x Rx d 15 04 03 00 03 00 03 00 88 36 EE 0C 48 0D 22 01 [FD BRS]
0.1883332 1 2Dx Rx d 14 EC 60 8F 05 C4 09 00 90 70 97 40 A0 6F 52 [FD BRS]
0.1974124 1 DCx Rx d 13 39 10 00 16 D2 B1 8C AE 2A 0A FA DC 08 [FD BRS]
0.1983636 1 E3x Rx d 8 00 80 00 04 24 AF 15 04 [FD BRS]
0.0013684 1 2Dx Rx d 14 CC 08 22 04 C4 09 00 10 00 80 00 20 FA 60 [FD BRS]
0.0019036 1 D4x Rx d 8 39 04 06 04 3C 8B 3B 84 [FD BRS]
0.0101668 1 DCx Rx d 13 39 10 00 16 9E 83 1F AE 2A 0A FA DC 7C [FD BRS]
0.0141264 1 D9x Rx d 13 39 13 00 15 EE 42 1D 01 A0 00 40 01 50 [FD BRS]
0.0145104 1 DBx Rx d 15 39 0E 01 0F 44 00 FF FF FF FF FF FF FF 0F D3 [FD BRS]
0.0197916 1 DBx Rx d 13 39 0F 00 15 66 90 1A 20 FF FF 7F CF FF [FD BRS]
0.0202340 1 18E19490x Rx d 15 02 88 00 64 64 64 01 00 00 00 A2 12 14 01 00 [FD BRS]
0.0213540 1 2Dx Rx d 14 D3 01 23 04 C4 09 00 10 00 80 00 20 FA 60 [FD BRS]
0.0218896 1 D4x Rx d 15 39 04 0C 05 0E 0F F4 FF FF 39 15 01 14 3E 21 [FD BRS]
0.0259628 1 E3x Rx d 12 39 06 0B 08 00 11 11 18 00 C0 CF FF [FD BRS]
0.0302932 1 DCx Rx d 13 39 10 00 16 9A 9F 20 AE 2A 0A FA DC 7C [FD BRS]
0.0342164 1 D9x Rx d 14 39 13 00 15 EC DB 1E 00 A0 00 40 01 50 0F [FD BRS]
0.0347368 1 DBx Rx d 14 39 0F 01 06 4B 85 04 60 00 00 39 0E 00 20 [FD BRS]
0.0398568 1 DBx Rx d 13 39 0F 00 15 84 80 1B 20 FF FF 7F CF FF [FD BRS]
0.0413552 1 2Dx Rx d 14 8E 3E 24 04 C4 09 00 10 00 80 00 20 FA 60 [FD BRS]
0.0501712 1 DCx Rx d 13 39 10 00 16 BE 37 21 AE 2A 0A FA DC 7C [FD BRS]
0.0505556 1 18E19490x Rx d 15 03 00 00 95 01 95 01 00 00 00 00 00 00 00 00 [FD BRS]
0.0541160 1 D9x Rx d 13 39 13 00 15 0E CB 1F 00 A0 00 40 01 50 [FD BRS]
0.0544992 1 DBx Rx d 14 39 0E 00 20 1B 94 1B 02 98 7F 83 1A 3F 00 [FD BRS]
0.0598016 1 DBx Rx d 13 39 0F 00 15 2A F2 1C 20 FF FF 7F CF FF [FD BRS]
0.0613716 1 2Dx Rx d 14 91 37 25 04 C4 09 00 10 00 80 00 20 FA 60 [FD BRS]
0.0659600 1 E3x Rx d 9 41 00 05 08 00 80 03 43 CB [FD BRS]
0.0701900 1 DCx Rx d 14 39 10 01 10 15 3F 41 00 43 00 D6 42 11 9C [FD BRS]
0.0744092 1 DBx Rx d 14 39 0E 00 20 83 AA 1C 02 98 7F 83 1A 3F 00 [FD BRS]
0.0751276 1 D9x Rx d 13 39 13 00 15 42 02 20 01 A0 00 C0 00 50 [FD BRS]
0.0797896 1 DBx Rx d 13 39 0F 00 15 C8 E2 1D 20 FF FF 7F CF FF [FD BRS]
0.0802360 1 18E19490x Rx d 15 04 03 00 03 00 03 00 D2 37 EE 0C 1F 00 22 01 [FD BRS]
0.0813680 1 2Dx Rx d 14 B0 2C 26 04 C4 09 00 10 00 80 00 20 FA 60 [FD BRS]
0.0860484 1 E3x Rx d 9 41 00 05 08 01 50 C0 15 2F [FD BRS]
0.0902468 1 DCx Rx d 13 39 10 00 16 D7 77 23 AE 2A 0A FA DC 7C [FD BRS]
0.0913860 1 E3x Rx d 8 00 80 00 04 E0 23 FA 00 [FD BRS]
0.0941444 1 D9x Rx d 13 39 13 00 15 54 E0 21 00 A0 00 80 00 50 [FD BRS]
0.0947304 1 DBx Rx d 14 39 0E 00 20 63 4F 1D 02 98 7F 83 1A 3F 00 [FD BRS]
0.0997908 1 DBx Rx d 13 39 0F 00 15 EE D3 1E 20 FF FF 7F CF FF [FD BRS]
0.1014880 1 2Dx Rx d 14 AF 25 27 04 C4 09 00 10 00 80 00 20 FA 60 [FD BRS]
0.1020224 1 D4x Rx d 8 39 04 06 04 11 DA 3C 84 [FD BRS]
0.1101704 1 DCx Rx d 13 39 10 00 16 48 1F 24 AE 2A 0A FA DC 7C [FD BRS]
0.1105548 1 18E19490x Rx d 15 00 00 00 A5 00 00 00 50 01 00 00 00 00 00 00 [FD BRS]
0.1141312 1 D9x Rx d 13 39 13 00 15 A7 67 22 00 A0 00 00 01 50 [FD BRS]
0.1145156 1 DBx Rx d 15 39 0E 01 0F 44 00 FF FF FF FF FF FF FF 0F D3 [FD BRS]
0.1160596 1 E3x Rx d 10 05 00 00 0C F5 FC FF 00 00 00 [FD BRS]
0.1197908 1 DBx Rx d 13 39 0F 00 15 0C C3 1F 20 FF FF 7F CF FF [FD BRS]
0.1213468 1 2Dx Rx d 14 0A 52 28 04 C4 09 00 10 00 80 00 20 FA 60 [FD BRS]
0.1218840 1 D4x Rx d 13 39 04 0C 05 0E 0F F4 FF FF 39 0C 14 0C [FD BRS]
0.1259656 1 E3x Rx d 12 39 06 0B 08 00 11 11 18 00 C0 CF FF [FD BRS]
0.1302368 1 DCx Rx d 13 39 10 00 16 6C B7 25 AE 2A 0A FA DC 7C [FD BRS]
0.1341272 1 D9x Rx d 14 39 13 00 15 45 77 23 00 A0 00 00 01 50 0F [FD BRS]
0.1346472 1 DBx Rx d 14 39 0E 00 20 4B 06 1F 02 98 7F 83 1A 3F 00 [FD BRS]
0.1359816 1 E3x Rx d 10 39 80 00 0C 00 FF C0 79 47 CF [FD BRS]
0.1398688 1 DBx Rx d 13 39 0F 00 15 B1 14 20 20 FF FF 7F CF FF [FD BRS]
0.1402548 1 18E19490x Rx d 15 01 02 00 10 00 F8 00 80 0C FF 00 BC 02 06 06 [FD BRS]
0.1413380 1 2Dx Rx d 14 15 5B 29 04 C4 09 00 10 00 80 00 20 FA 60 [FD BRS]
0.1502552 1 DCx Rx d 13 39 10 00 16 21 5F 26 AE 2A 0A FA DC 7C [FD BRS]
0.1542116 1 D9x Rx d 13 39 13 00 15 3B 5F 24 00 A0 00 40 01 50 [FD BRS]
0.1545960 1 DBx Rx d 14 39 0E 00 20 20 76 20 02 98 7F 83 1A 3F 00 [FD BRS]
0.1597980 1 DBx Rx d 13 39 0F 00 15 53 04 21 20 FF FF 7F CF FF [FD BRS]
0.1614944 1 2Dx Rx d 14 34 40 2A 04 C4 09 00 10 00 80 00 20 FA 60 [FD BRS]
0.1659424 1 E3x Rx d 9 41 00 05 08 00 80 03 43 CB [FD BRS]
0.1701928 1 DCx Rx d 14 39 10 01 10 15 3F 41 00 43 00 DE 06 11 9C [FD BRS]
0.1707172 1 18E19490x Rx d 15 02 88 00 64 64 64 01 00 00 00 96 12 12 54 00 [FD BRS]
0.1744572 1 DBx Rx d 14 39 0E 00 20 B4 52 21 02 98 7F 83 1A 3F 00 [FD BRS]
0.1751204 1 D9x Rx d 13 39 13 00 15 A9 A0 25 00 A0 00 80 01 50 [FD BRS]
0.1797896 1 DBx Rx d 13 39 0F 00 15 75 35 22 20 FF FF 7F CF FF [FD BRS]
0.1813668 1 2Dx Rx d 14 2B 49 2B 04 C4 09 00 10 00 80 00 20 FA 60 [FD BRS]
0.1859912 1 E3x Rx d 9 41 00 05 08 01 07 21 45 CF [FD BRS]
0.1901924 1 DCx Rx d 13 39 10 00 16 1F 8E 28 AE 2A 0A FA DC 7C [FD BRS]
0.1913956 1 E3x Rx d 8 00 80 00 04 54 55 FB 00 [FD BRS]
0.1943868 1 D9x Rx d 13 39 13 00 15 2F 24 26 00 A0 00 00 01 50 [FD BRS]
0.1947700 1 DBx Rx d 14 39 0E 00 20 08 3F 22 02 98 7F 83 1A 3F 00 [FD BRS]
0.1953812 1 44 Rx d 1 04
0.0037844 1 DBx Rx d 13 39 0F 00 15 8E 4C BB 20 FF FF 7F CF FF [FD BRS]
0.0053392 1 2Dx Rx d 14 C9 A5 C4 04 C4 09 00 10 00 80 00 20 FA 60 [FD BRS]
0.0058716 1 D4x Rx d 13 39 04 0C 05 0E 0F F4 FF FF 39 0C 14 0C [FD BRS]
0.0099372 1 E3x Rx d 12 39 06 0B 08 00 11 11 18 00 C0 CF FF [FD BRS]
0.0140184 1 DCx Rx d 13 39 10 00 16 8D 12 C1 AE 2A 0A FA DC 70 [FD BRS]
0.0144008 1 18E19490x Rx d 15 04 03 00 03 00 03 00 D2 37 ED 0C 1C 00 22 01 [FD BRS]
0.0179992 1 D9x Rx d 14 39 13 00 15 0B 5C BF 00 A0 00 C0 01 30 0F [FD BRS]
0.0185184 1 DBx Rx d 14 39 0E 00 20 6C 3E BB 02 98 7F 83 1A 3F 00 [FD BRS]
0.0199576 1 E3x Rx d 10 39 80 00 0C 00 7F 32 79 B0 CE [FD BRS]
0.0238356 1 DBx Rx d 13 39 0F 00 15 20 3E BC 20 FF FF 7F CF FF [FD BRS]
0.0253076 1 2Dx Rx d 14 D6 AC C5 04 C4 09 00 10 00 80 00 20 FA 60 [FD BRS]
0.0339720 1 DCx Rx d 13 39 10 00 16 C0 FA C2 AE 2A 0A FA DC 70 [FD BRS]
0.0379952 1 D9x Rx d 13 39 13 00 15 62 A9 C0 00 A0 00 80 01 30 [FD BRS]
0.0384404 1 DBx Rx d 14 39 0E 00 20 F4 00 BC 02 98 7F 83 1A 3F 00 [FD BRS]
0.0437936 1 DBx Rx d 13 39 0F 00 15 C2 2E BD 20 FF FF 7F CF FF [FD BRS]
0.0441780 1 18E19490x Rx d 15 00 00 00 A5 00 00 00 50 01 00 00 00 00 00 00 [FD BRS]
0.0453400 1 2Dx Rx d 14 F7 B7 C6 04 C4 09 00 10 00 80 00 20 FA 60 [FD BRS]
0.0499364 1 E3x Rx d 9 41 00 05 08 00 80 03 43 CB [FD BRS]
0.0540428 1 DCx Rx d 14 39 10 01 10 15 3F 41 39 43 00 3E 06 10 9C [FD BRS]
0.0584028 1 DBx Rx d 14 39 0E 00 20 14 E5 BD 02 98 7F 83 1A 3F 00 [FD BRS]
0.0589472 1 D9x Rx d 13 39 13 00 15 50 E3 C1 00 A0 00 C0 01 30 [FD BRS]
0.0637832 1 DBx Rx d 13 39 0F 00 15 E4 1F BE 20 FF FF 7F CF FF [FD BRS]
0.0654292 1 2Dx Rx d 14 E8 BE C7 04 C4 09 00 10 00 80 00 20 FA 60 [FD BRS]
0.0700436 1 E3x Rx d 9 41 00 05 08 01 3D 14 68 15 [FD BRS]
0.0739740 1 DCx Rx d 13 39 10 00 16 7B 3A C4 AE 2A 0A FA DC 70 [FD BRS]
0.0743560 1 18E19490x Rx d 15 01 01 00 0D 00 F8 00 80 0C FF 00 BC 02 06 06 [FD BRS]
0.0753512 1 E3x Rx d 8 00 80 00 04 C1 01 E7 00 [FD BRS]
0.0782580 1 D9x Rx d 13 39 13 00 15 52 7A C2 01 A0 00 C0 01 30 [FD BRS]
0.0787240 1 DBx Rx d 14 39 0E 00 20 67 39 BE 02 98 7F 83 1A 3F 00 [FD BRS]
0.0793480 1 44 Rx d 1 04
0.0837844 1 DBx Rx d 13 39 0F 00 15 06 0F BF 20 FF FF 7F CF FF [FD BRS]
0.0853364 1 2Dx Rx d 14 4D C9 C8 04 C4 09 00 10 00 80 00 20 FA 60 [FD BRS]
0.0858696 1 D4x Rx d 8 39 04 06 04 F3 7D 29 84 [FD BRS]
0.0939680 1 DCx Rx d 13 39 10 00 16 5F 92 C5 AE 2A 0A FA DC 70 [FD BRS]
0.0980076 1 D9x Rx d 13 39 13 00 15 5F 80 C3 01 A0 00 00 02 30 [FD BRS]
0.0985016 1 DBx Rx d 15 39 0E 01 0F 40 00 FF FF FF FF FF FF FF 0F D3 [FD BRS]
0.0999708 1 D4x Rx d 14 39 04 0C 05 0E 0F F4 FF FF 39 15 01 14 3E [FD BRS]
0.1005480 1 D4x Rx d 15 39 0C 08 3C FE 74 00 80 00 00 08 6C 34 3F 2E [FD BRS]
0.1038252 1 DBx Rx d 13 39 0F 00 15 BF A0 C0 20 FF FF 7F CF FF [FD BRS]
0.1042136 1 18E19490x Rx d 15 02 88 00 64 64 64 01 00 00 00 78 12 BA 14 00 [FD BRS]
0.1053328 1 2Dx Rx d 14 52 C0 C9 04 C4 09 00 10 00 80 00 20 FA 60 [FD BRS]
0.1099488 1 D4x Rx d 13 39 0C 14 0C FF FF FF FF FD FF FF FF FF [FD BRS]
0.1103412 1 E3x Rx d 12 39 06 0B 08 00 11 11 18 00 C0 CF FF [FD BRS]
0.1140936 1 DCx Rx d 13 39 10 00 16 12 7A C6 AE 2A 0A FA DC 70 [FD BRS]
0.1180040 1 D9x Rx d 14 39 13 00 15 9A 05 C4 00 A0 00 40 01 30 0F [FD BRS]
0.1185252 1 DBx Rx d 14 39 0F 01 06 4B 85 04 60 44 00 39 0E 00 20 [FD BRS]
0.1238296 1 DBx Rx d 13 39 0F 00 15 5D B0 C1 20 FF FF 7F CF FF [FD BRS]
0.1254356 1 2Dx Rx d 14 73 DB CA 04 C4 09 00 10 00 80 00 20 FA 60 [FD BRS]
0.1339756 1 DCx Rx d 13 39 10 00 16 36 D2 C7 AE 2A 0A FA DC 70 [FD BRS]
0.1343592 1 18E19490x Rx d 15 03 00 00 9A 01 9A 01 00 00 00 00 00 00 00 00 [FD BRS]
0.1379976 1 D9x Rx d 13 39 13 00 15 78 15 C5 00 A0 00 40 01 30 [FD BRS]
0.1384008 1 DBx Rx d 14 39 0E 00 20 EA 4C C1 02 98 7F 83 1A 3F 00 [FD BRS]
0.1437928 1 DBx Rx d 13 39 0F 00 15 7B 81 C2 20 FF FF 7F CF FF [FD BRS]
0.1441780 1 DCx Rx d 9 39 FE 6F 08 94 01 00 80 00 [FD BRS]
0.1453972 1 2Dx Rx d 14 6C D2 CB 04 C4 09 00 10 00 80 00 20 FA 60 [FD BRS]
0.1499376 1 E3x Rx d 9 41 00 05 08 00 80 03 43 CB [FD BRS]
0.1539880 1 DCx Rx d 14 39 10 01 10 15 3F 41 38 43 00 46 06 10 9C [FD BRS]
0.1583988 1 DBx Rx d 14 39 0E 00 20 56 21 C2 02 98 7F 83 1A 3F 00 [FD BRS]
0.1590412 1 D9x Rx d 13 39 13 00 15 5E 24 C6 00 A0 00 40 01 30 [FD BRS]
0.1637824 1 DBx Rx d 13 39 0F 00 15 99 91 C3 20 FF FF 7F CF FF [FD BRS]
0.1641676 1 18E19490x Rx d 15 04 03 00 03 00 02 00 D2 37 EE 0C 1C 00 22 01 [FD BRS]
0.1653408 1 2Dx Rx d 14 31 ED CC 04 C4 09 00 10 00 80 00 20 FA 60 [FD BRS]
0.1699992 1 E3x Rx d 13 41 00 05 08 01 D3 67 7E DE B6 E3 F3 32 [FD BRS]
0.1740452 1 DCx Rx d 13 39 10 00 16 08 03 C9 AE 2A 0A FA DC 70 [FD BRS]
0.1753472 1 E3x Rx d 8 00 80 00 04 2F D5 E8 00 [FD BRS]
0.1755116 1 DC085B Rx d 8 40 01 00 00 00 00 00 00
0.1783140 1 D9x Rx d 13 39 13 00 15 6C 6E C7 00 A0 00 00 01 30 [FD BRS]
0.1786964 1 DBx Rx d 14 39 0E 00 20 C2 05 C3 02 98 7F 83 1A 3F 00 [FD BRS]
0.1837816 1 DBx Rx d 13 39 0F 00 15 37 E3 C4 20 FF FF 7F CF FF [FD BRS]
0.1854296 1 2Dx Rx d 14 2E E4 CD 04 C4 09 00 10 00 80 00 20 FA 60 [FD BRS]
0.1859632 1 D4x Rx d 8 39 04 06 04 2F E6 2A 84 [FD BRS]
0.1939752 1 DCx Rx d 13 39 10 00 16 45 EB CA AE 2A 0A FA DC 70 [FD BRS]
0.1943588 1 18E19490x Rx d 15 00 00 00 A5 00 00 00 50 01 00 00 00 00 00 00 [FD BRS]
0.1980132 1 D9x Rx d 13 39 13 00 15 D7 77 C8 00 A0 00 C0 00 30 [FD BRS]
0.1984112 1 DBx Rx d 15 39 0E 01 0F 40 00 FF FF FF FF FF FF FF 0F D3 [FD BRS]
0.0002084 1 DBx Rx d 14 39 0E 00 20 3C 53 4D 02 98 7F 83 1A 3F 00 [FD BRS]
0.0016076 1 E3x Rx d 10 39 80 00 0C 00 7F 20 7A 0B AF [FD BRS]
0.0054608 1 DBx Rx d 13 39 0F 00 15 EB B5 4E 20 FF FF 7F CF FF [FD BRS]
0.0058448 1 18E19490x Rx d 15 01 00 00 00 00 F7 00 80 0C FF 00 BC 02 06 06 [FD BRS]
0.0069660 1 2Dx Rx d 14 1C E0 57 04 C4 09 00 10 00 80 00 20 FA 60 [FD BRS]
0.0155004 1 DCx Rx d 13 39 10 00 16 C4 02 54 AE 02 00 FA 00 FC [FD BRS]
0.0196868 1 D9x Rx d 13 39 13 00 15 D0 D2 52 00 A0 00 C0 01 50 [FD BRS]
0.0200708 1 DBx Rx d 14 39 0E 00 20 80 3E 4E 02 98 7F 83 1A 3F 00 [FD BRS]
0.0254520 1 DBx Rx d 13 39 0F 00 15 09 A5 4F 20 FF FF 7F CF FF [FD BRS]
0.0270004 1 2Dx Rx d 14 B9 97 58 04 C4 09 00 10 00 80 00 20 FA 60 [FD BRS]
0.0275336 1 E3x Rx d 12 3E 80 01 08 C3 02 79 9B B7 00 E0 FF [FD BRS]
0.0354388 1 DCx Rx d 14 39 10 01 10 15 3F 41 2D 43 00 8E 42 10 9C [FD BRS]
0.0359592 1 18E19490x Rx d 15 02 88 00 64 64 64 01 00 00 00 93 12 2E 44 00 [FD BRS]
0.0401172 1 DBx Rx d 14 39 0E 00 20 14 1A 4F 02 98 7F 83 1A 3F 00 [FD BRS]
0.0409876 1 D9x Rx d 13 39 13 00 15 DD 28 53 00 A0 00 00 02 50 [FD BRS]
0.0454468 1 DBx Rx d 13 39 0F 00 15 B6 4E 50 20 FF FF 7F CF FF [FD BRS]
0.0470080 1 2Dx Rx d 14 A6 9E 59 04 C4 09 00 10 00 80 00 20 FA 60 [FD BRS]
0.0515944 1 E3x Rx d 9 41 00 05 08 01 4D 5D C4 E3 [FD BRS]
0.0554476 1 DCx Rx d 13 39 10 00 16 AD 42 56 AE 02 00 FA 00 FC [FD BRS]
0.0570636 1 E3x Rx d 8 00 80 00 04 B1 0A D1 00 [FD BRS]
0.0596180 1 D9x Rx d 13 39 13 00 15 4C EA 54 00 A0 00 80 01 50 [FD BRS]
0.0601232 1 DBx Rx d 14 39 0E 00 20 7B B8 50 02 98 7F 83 1A 3F 00 [FD BRS]
0.0609696 1 44 Rx d 1 04
0.0654476 1 DBx Rx d 13 39 0F 00 15 54 5E 51 20 FF FF 7F CF FF [FD BRS]
0.0658316 1 18E19490x Rx d 15 03 00 00 A3 01 A3 01 00 00 00 00 00 00 00 00 [FD BRS]
0.0669868 1 2Dx Rx d 14 87 85 5A 04 C4 09 00 10 00 80 00 20 FA 60 [FD BRS]
0.0675192 1 D4x Rx d 8 39 04 06 04 B1 39 13 84 [FD BRS]
0.0755044 1 DCx Rx d 13 39 10 00 16 89 EA 57 AE 02 00 FA 00 FC [FD BRS]
0.0795148 1 D9x Rx d 13 39 13 00 15 0E 4F 55 00 A0 00 00 01 50 [FD BRS]
0.0801152 1 DBx Rx d 15 39 0E 01 0F 2C 00 FF FF FF FF FF FF FF 0F D3 [FD BRS]
0.0854472 1 DBx Rx d 13 39 0F 00 15 72 6F 52 20 FF FF 7F CF FF [FD BRS]
0.0869796 1 2Dx Rx d 14 98 8C 5B 04 C4 09 00 10 00 80 00 20 FA 60 [FD BRS]
0.0875148 1 D4x Rx d 15 39 04 0C 05 0E 0F F4 FF FF 39 15 01 14 3D 21 [FD BRS]
0.0916512 1 E3x Rx d 12 39 06 0B 08 00 11 11 18 00 C0 CF FF [FD BRS]
0.0954976 1 DCx Rx d 13 39 10 00 16 93 93 58 AE 02 00 FA 00 FC [FD BRS]
0.0958808 1 18E19490x Rx d 15 04 00 00 00 00 00 00 00 00 00 00 00 00 00 00 [FD BRS]
0.0996960 1 D9x Rx d 14 39 13 00 15 09 3A 56 01 A0 00 C0 00 50 0F [FD BRS]
0.1002152 1 DBx Rx d 14 39 0F 01 06 4A 85 04 60 38 00 39 0E 00 20 [FD BRS]
0.1054456 1 DBx Rx d 13 39 0F 00 15 90 7F 53 20 FF FF 7F CF FF [FD BRS]
0.1069548 1 2Dx Rx d 14 C5 B3 5C 04 C4 09 00 10 00 80 00 20 FA 60 [FD BRS]
0.1154232 1 DCx Rx d 13 39 10 00 16 B7 3B 59 AE 02 00 FA 00 FC [FD BRS]
0.1196936 1 D9x Rx d 13 39 13 00 15 EE C6 57 01 A0 00 00 01 50 [FD BRS]
0.1200756 1 DBx Rx d 14 39 0E 00 20 C7 D5 53 02 98 7F 83 1A 3F 00 [FD BRS]
0.1254500 1 DBx Rx d 13 39 0F 00 15 3E 0D 54 20 FF FF 7F CF FF [FD BRS]
0.1258360 1 18E19490x Rx d 15 00 00 00 A5 00 00 00 10 00 00 00 00 00 00 00 [FD BRS]
0.1269844 1 2Dx Rx d 14 DA BA 5D 04 C4 09 00 10 00 80 00 20 FA 60 [FD BRS]
0.1275168 1 E3x Rx d 12 3E 80 01 08 C3 02 79 9B B7 00 E2 FF [FD BRS]
0.1355160 1 DCx Rx d 14 39 10 01 10 15 3F 41 00 43 00 96 06 10 9C [FD BRS]
0.1400640 1 DBx Rx d 14 39 0E 00 20 2B 2A 54 02 98 7F 83 1A 3F 00 [FD BRS]
0.1409924 1 D9x Rx d 13 39 13 00 15 80 69 58 01 A0 00 40 01 50 [FD BRS]
0.1454456 1 DBx Rx d 13 39 0F 00 15 DC 1D 55 20 FF FF 7F CF FF [FD BRS]
0.1469968 1 2Dx Rx d 14 FB A1 5E 04 C4 09 00 10 00 80 00 20 FA 60 [FD BRS]
0.1515940 1 E3x Rx d 9 41 00 05 08 01 BD 0D 2F 5B [FD BRS]
0.1554140 1 DCx Rx d 13 39 10 00 16 DE 7B 5B AE 02 00 FA 00 FC [FD BRS]
0.1557996 1 18E19490x Rx d 15 01 00 00 00 00 F8 00 80 0C FF 00 BC 02 06 06 [FD BRS]
0.1569928 1 E3x Rx d 8 00 80 00 04 6D 91 D2 00 [FD BRS]
0.1596312 1 D9x Rx d 13 39 13 00 15 62 79 59 01 A0 00 40 01 50 [FD BRS]
0.1601204 1 DBx Rx d 14 39 0E 00 20 BF 0E 55 02 98 7F 83 1A 3F 00 [FD BRS]
0.1654456 1 DBx Rx d 13 39 0F 00 15 FA 2C 56 20 FF FF 7F CF FF [FD BRS]
0.1669828 1 2Dx Rx d 14 E4 A8 5F 04 C4 09 00 10 00 80 00 20 FA 60 [FD BRS]
0.1675180 1 D4x Rx d 8 39 04 06 04 9C 68 14 84 [FD BRS]
0.1754144 1 DCx Rx d 13 39 10 00 16 41 13 5C AE 02 00 FA 00 FC [FD BRS]
0.1770996 1 E3x Rx d 10 05 00 00 0C F5 FC FF 00 00 00 [FD BRS]
0.1795300 1 D9x Rx d 13 39 13 00 15 60 E0 5A 00 A0 00 40 01 50 [FD BRS]
0.1801640 1 DBx Rx d 15 39 0E 01 0F 2C 00 FF FF FF FF FF FF FF 0F D3 [FD BRS]
0.1854452 1 DBx Rx d 13 39 0F 00 15 18 3C 57 20 FF FF 7F CF FF [FD BRS]
0.1858312 1 18E19490x Rx d 15 02 88 00 64 64 64 01 00 00 00 A6 12 61 06 00 [FD BRS]
0.1869588 1 2Dx Rx d 14 70 7D 60 04 C4 09 00 10 00 80 00 20 FA 60 [FD BRS]
0.1874960 1 D4x Rx d 13 39 04 0C 05 0E 0F F4 FF FF 39 0C 14 0C [FD BRS]
0.1915892 1 E3x Rx d 12 39 06 0B 08 00 11 11 18 00 C0 CF FF [FD BRS]
0.1955384 1 DCx Rx d 13 39 10 00 16 65 BB 5D AE 02 00 FA 00 FC [FD BRS]
0.0000480 1 DC085B Rx d 8 40 01 00 00 00 00 00 00
0.0003640 1 DC085B Rx d 8 40 01 00 00 00 00 00 00
0.0006800 1 DC085B Rx d 8 40 01 00 00 00 00 00 00
0.0009960 1 DC085B Rx d 8 40 01 00 00 00 00 00 00
0.0013120 1 DC085B Rx d 8 40 01 00 00 00 00 00 00
0.0016280 1 DC085B Rx d 8 40 01 00 00 00 00 00 00
0.0019440 1 DC085B Rx d 8 40 01 00 00 00 00 00 00
0.0022600 1 DC085B Rx d 8 40 01 00 00 00 00 00 00
0.0025760 1 DC085B Rx d 8 40 01 00 00 00 00 00 00
0.0028920 1 DC085B Rx d 8 40 01 00 00 00 00 00 00
0.0032080 1 DC085B Rx d 8 40 01 00 00 00 00 00 00
0.0035240 1 DC085B Rx d 8 40 01 00 00 00 00 00 00
0.0038400 1 DC085B Rx d 8 40 01 00 00 00 00 00 00
0.0041560 1 DC085B Rx d 8 40 01 00 00 00 00 00 00
0.0044720 1 DC085B Rx d 8 40 01 00 00 00 00 00 00
0.0047880 1 DC085B Rx d 8 40 01 00 00 00 00 00 00
0.0051040 1 DC085B Rx d 8 40 01 00 00 00 00 00 00
0.0054200 1 DC085B Rx d 8 40 01 00 00 00 00 00 00
0.0057360 1 DC085B Rx d 8 40 01 00 00 00 00 00 00
0.0060520 1 DC085B Rx d 8 40 01 00 00 00 00 00 00
0.0063680 1 DC085B Rx d 8 40 01 00 00 00 00 00 00
0.0066840 1 DC085B Rx d 8 40 01 00 00 00 00 00 00
0.0070000 1 DC085B Rx d 8 40 01 00 00 00 00 00 00
0.0073160 1 DC085B Rx d 8 40 01 00 00 00 00 00 00
0.0076320 1 DC085B Rx d 8 40 01 00 00 00 00 00 00
0.0079480 1 DC085B Rx d 8 40 01 00 00 00 00 00 00
0.0082640 1 DC085B Rx d 8 40 01 00 00 00 00 00 00
0.0085800 1 DC085B Rx d 8 40 01 00 00 00 00 00 00
0.0088960 1 DC085B Rx d 8 40 01 00 00 00 00 00 00
0.0092120 1 DC085B Rx d 8 40 01 00 00 00 00 00 00
0.0095280 1 DC085B Rx d 8 40 01 00 00 00 00 00 00
0.0098440 1 DC085B Rx d 8 40 01 00 00 00 00 00 00
0.0101600 1 DC085B Rx d 8 40 01 00 00 00 00 00 00
0.0104760 1 DC085B Rx d 8 40 01 00 00 00 00 00 00
0.0107920 1 DC085B Rx d 8 40 01 00 00 00 00 00 00
0.0111080 1 DC085B Rx d 8 40 01 00 00 00 00 00 00
0.0114240 1 DC085B Rx d 8 40 01 00 00 00 00 00 00
0.0117400 1 DC085B Rx d 8 40 01 00 00 00 00 00 00
0.0120560 1 DC085B Rx d 8 40 01 00 00 00 00 00 00
0.0123720 1 DC085B Rx d 8 40 01 00 00 00 00 00 00
0.0126880 1 DC085B Rx d 8 40 01 00 00 00 00 00 00
0.0130040 1 DC085B Rx d 8 40 01 00 00 00 00 00 00
0.0133200 1 DC085B Rx d 8 40 01 00 00 00 00 00 00
0.0136360 1 DC085B Rx d 8 40 01 00 00 00 00 00 00
0.0139520 1 DC085B Rx d 8 40 01 00 00 00 00 00 00
0.0142680 1 DC085B Rx d 8 40 01 00 00 00 00 00 00
0.0145840 1 DC085B Rx d 8 40 01 00 00 00 00 00 00
0.0149000 1 DC085B Rx d 8 40 01 00 00 00 00 00 00
0.0152160 1 DC085B Rx d 8 40 01 00 00 00 00 00 00
0.0155320 1 DC085B Rx d 8 40 01 00 00 00 00 00 00
0.0158480 1 DC085B Rx d 8 40 01 00 00 00 00 00 00
0.0161640 1 DC085B Rx d 8 40 01 00 00 00 00 00 00
0.0164800 1 DC085B Rx d 8 40 01 00 00 00 00 00 00
0.0167960 1 DC085B Rx d 8 40 01 00 00 00 00 00 00
0.0171120 1 DC085B Rx d 8 40 01 00 00 00 00 00 00
0.0174280 1 DC085B Rx d 8 40 01 00 00 00 00 00 00
0.0177440 1 DC085B Rx d 8 40 01 00 00 00 00 00 00
0.0180600 1 DC085B Rx d 8 40 01 00 00 00 00 00 00
0.0183760 1 DC085B Rx d 8 40 01 00 00 00 00 00 00
0.0186920 1 DC085B Rx d 8 40 01 00 00 00 00 00 00
0.0190080 1 DC085B Rx d 8 40 01 00 00 00 00 00 00
0.0193240 1 DC085B Rx d 8 40 01 00 00 00 00 00 00
0.0196400 1 DC085B Rx d 8 40 01 00 00 00 00 00 00
0.0199560 1 DC085B Rx d 8 40 01 00 00 00 00 00 00
0.0202720 1 DC085B Rx d 8 40 01 00 00 00 00 00 00
0.0205880 1 DC085B Rx d 8 40 01 00 00 00 00 00 00
0.0209040 1 DC085B Rx d 8 40 01 00 00 00 00 00 00
0.0212200 1 DC085B Rx d 8 40 01 00 00 00 00 00 00
0.0215360 1 DC085B Rx d 8 40 01 00 00 00 00 00 00
0.0218520 1 DC085B Rx d 8 40 01 00 00 00 00 00 00
0.0221680 1 DC085B Rx d 8 40 01 00 00 00 00 00 00
0.0224840 1 DC085B Rx d 8 40 01 00 00 00 00 00 00
0.0228000 1 DC085B Rx d 8 40 01 00 00 00 00 00 00
0.0231160 1 DC085B Rx d 8 40 01 00 00 00 00 00 00
0.0234320 1 DC085B Rx d 8 40 01 00 00 00 00 00 00
0.0237480 1 DC085B Rx d 8 40 01 00 00 00 00 00 00
0.0240640 1 DC085B Rx d 8 40 01 00 00 00 00 00 00
0.0243800 1 DC085B Rx d 8 40 01 00 00 00 00 00 00
0.0246960 1 DC085B Rx d 8 40 01 00 00 00 00 00 00
0.0250120 1 DC085B Rx d 8 40 01 00 00 00 00 00 00
0.0253280 1 DC085B Rx d 8 40 01 00 00 00 00 00 00
0.0256440 1 DC085B Rx d 8 40 01 00 00 00 00 00 00
0.0259600 1 DC085B Rx d 8 40 01 00 00 00 00 00 00
0.0262760 1 DC085B Rx d 8 40 01 00 00 00 00 00 00
0.0265920 1 DC085B Rx d 8 40 01 00 00 00 00 00 00
0.0269080 1 DC085B Rx d 8 40 01 00 00 00 00 00 00
0.0272240 1 DC085B Rx d 8 40 01 00 00 00 00 00 00
0.0275400 1 DC085B Rx d 8 40 01 00 00 00 00 00 00
0.0278560 1 DC085B Rx d 8 40 01 00 00 00 00 00 00
0.0281720 1 DC085B Rx d 8 40 01 00 00 00 00 00 00
0.0284880 1 DC085B Rx d 8 40 01 00 00 00 00 00 00
0.0288040 1 DC085B Rx d 8 40 01 00 00 00 00 00 00
0.0291200 1 DC085B Rx d 8 40 01 00 00 00 00 00 00
0.0294360 1 DC085B Rx d 8 40 01 00 00 00 00 00 00
0.0297520 1 DC085B Rx d 8 40 01 00 00 00 00 00 00
0.0300680 1 DC085B Rx d 8 40 01 00 00 00 00 00 00
0.0303840 1 DC085B Rx d 8 40 01 00 00 00 00 00 00
0.0307000 1 DC085B Rx d 8 40 01 00 00 00 00 00 00
0.0310160 1 DC085B Rx d 8 40 01 00 00 00 00 00 00
0.0313064 1 DC085B Rx d 8 40 01 00 00 00 00 00 00
0.0343684 1 2Dx Rx d 14 6C 83 02 04 C4 09 00 10 00 80 00 20 FA 60 [FD BRS]
0.0349060 1 D4x Rx d 15 39 0C 08 3C FE FF 00 80 00 00 08 FC FF FF FF [FD BRS]
0.0355864 1 E3x Rx d 12 39 04 22 08 FF 00 36 FF FF CF F8 FF [FD BRS]
0.0358916 1 D4x Rx d 15 39 04 06 04 6B 10 00 84 39 04 0C 05 0E 0F F4 [FD BRS]
0.0365740 1 D4x Rx d 9 39 0C 16 08 FF FF FF FF FF [FD BRS]
0.0367912 1 D4x Rx d 15 39 0C 08 3C FE 74 00 80 00 00 08 FC FF FF FF [FD BRS]
0.0442448 1 DC085B Rx d 8 40 01 00 00 00 00 00 00
0.0445608 1 DC085B Rx d 8 40 01 00 00 00 00 00 00
0.0450168 1 DC08E2 Rx d 8 40 00 00 00 00 00 00 00
0.0543188 1 2Dx Rx d 14 73 8A 03 04 C4 09 00 10 00 80 00 20 FA 60 [FD BRS]
0.0548552 1 DCx Rx d 9 39 FE 6F 08 94 01 00 80 00 [FD BRS]
0.0550884 1 18E19490x Rx d 15 00 00 00 A5 00 00 00 10 00 00 00 00 00 00 00 [FD BRS]
0.0589768 1 E3x Rx d 9 41 00 05 08 00 00 03 43 CB [FD BRS]
0.0643688 1 DCx Rx d 14 39 10 01 10 15 28 6E 30 28 00 06 02 08 9C [FD BRS]
0.0648932 1 DC085B Rx d 8 40 01 00 00 00 00 00 00
0.0743712 1 2Dx Rx d 14 2E B5 04 04 C4 09 00 10 00 80 00 20 FA 60 [FD BRS]
0.0789808 1 E3x Rx d 9 41 00 05 08 01 BC F6 B3 D0 [FD BRS]
0.0843020 1 DCx Rx d 14 3A 00 51 08 05 01 00 00 00 00 00 00 39 10 [FD BRS]
0.0848380 1 DC085B Rx d 8 40 01 00 00 00 00 00 00
0.0851264 1 18E19490x Rx d 15 01 00 00 00 00 00 00 BC 02 BC 02 BC 02 06 06 [FD BRS]
0.0945692 1 2Dx Rx d 14 31 BC 05 04 C4 09 00 10 00 80 00 20 FA 60 [FD BRS]
0.0951040 1 D4x Rx d 8 39 04 06 04 A2 54 02 84 [FD BRS]
0.1042940 1 DCx Rx d 13 39 10 00 16 43 DC 02 FF 03 00 FA 00 FC [FD BRS]
0.1139116 1 DC083D Rx d 8 40 00 00 00 00 00 00 00
0.1143816 1 18E19490x Rx d 15 02 4C 00 64 64 64 00 00 00 00 00 00 DB E7 00 [FD BRS]
0.1151100 1 2Dx Rx d 14 10 A7 06 04 C4 09 00 10 00 80 00 20 FA 60 [FD BRS]
0.1156464 1 D4x Rx d 14 39 04 0C 05 0E 0F F4 FF FF 39 FE 1D 08 59 [FD BRS]
0.1192476 1 E3x Rx d 12 39 04 22 08 FF 00 36 FF FF CF F8 FF [FD BRS]
0.1239972 1 D9x Rx d 14 39 FE 28 08 29 00 00 00 00 00 00 00 39 13 [FD BRS]
0.1245312 1 DCx Rx d 13 39 10 00 16 67 74 03 FF 03 00 FA 00 FC [FD BRS]
0.1337832 1 D9x Rx d 13 39 13 01 0B FF FF FF 1F 85 00 FE 03 BA [FD BRS]
0.1347732 1 2Dx Rx d 14 0F AE 07 04 C4 09 00 10 00 80 00 20 FA 60 [FD BRS]
0.1442916 1 DCx Rx d 13 39 10 00 16 F8 1C 04 FF 03 00 FA 00 FC [FD BRS]
0.1446820 1 18E19490x Rx d 15 03 00 00 9F 01 9F 01 00 00 00 00 00 00 00 00 [FD BRS]
0.1489832 1 D9x Rx d 13 39 13 00 15 51 B6 02 00 E0 FF FF 02 F0 [FD BRS]
0.1548984 1 2Dx Rx d 14 AA D9 08 04 C4 09 00 10 00 80 00 20 FA 60 [FD BRS]
0.1595368 1 E3x Rx d 9 41 00 05 08 00 00 03 43 CB [FD BRS]
0.1643140 1 DCx Rx d 14 39 10 01 10 15 3F 6E 30 41 00 0E 02 10 9C [FD BRS]
0.1694724 1 D9x Rx d 13 39 13 00 15 9C D6 03 FF DF FF 7F 02 F0 [FD BRS]
0.1710168 1 DC085D Rx d 8 40 00 00 00 00 00 00 00
0.1743868 1 18E19490x Rx d 15 04 00 00 00 00 00 00 00 00 00 00 00 00 00 00 [FD BRS]
0.1751240 1 2Dx Rx d 14 B5 D0 09 04 C4 09 00 10 00 80 00 20 FA 60 [FD BRS]
0.1756592 1 E3x Rx d 12 3E 80 01 08 C3 02 79 9B B7 00 E2 FF [FD BRS]
0.1792744 1 DBx Rx d 14 39 FE 0B 08 61 00 00 80 00 00 00 00 39 0E [FD BRS]
0.1842968 1 DBx Rx d 13 39 0F 00 15 FA F6 00 FF FF FF 7F CF FF [FD BRS]
0.1846828 1 DCx Rx d 13 39 10 00 16 91 5C 06 FF 03 00 FA 00 FC [FD BRS]
0.1888912 1 D9x Rx d 13 39 13 00 15 4A 09 04 FF DF FF BF 01 F0 [FD BRS]
0.1892784 1 44 Rx d 1 04
0.1941908 1 DBx Rx d 14 39 0E 02 2A FF FF FF FF FF FF FF FF FF FF [FD BRS]
0.1951600 1 2Dx Rx d 14 94 CB 0A 04 C4 09 00 10 00 80 00 20 FA 60 [FD BRS]
0.1956932 1 D4x Rx d 8 39 04 06 04 16 22 03 84 [FD BRS]
0.1992604 1 DBx Rx d 14 39 0E 01 0F 00 00 FF FF FF FF FF FF FF FF [FD BRS]
