date 2025-01-01 00:00:00.000
base hex  timestamps absolute
no internal events logged

0.0040593 1 2Dx Rx d 14 C4 30 AD 05 C4 09 00 90 70 97 58 A2 6F 52 [FD BRS]
0.0045847 1 D4x Rx d 8 39 04 06 04 59 0C 8A 84 [FD BRS]
0.0051618 1 DCx Rx d 13 39 10 00 16 87 52 BA AE 22 0A FA DC 38 [FD BRS]
0.0080230 1 DBx Rx d 14 39 0E 00 20 19 D3 AA 0B 28 80 83 1A 3F F7 [FD BRS]
0.0131683 1 DBx Rx d 13 39 0F 00 15 8F 52 AB 20 FF FF 7F CF FF [FD BRS]
0.0148276 1 D9x Rx d 13 39 13 00 15 A1 BA AD 09 A0 55 0D D2 6F [FD BRS]
0.0189239 1 E3x Rx d 9 41 00 05 08 01 76 37 CB 12 [FD BRS]
0.0240493 1 2Dx Rx d 14 E5 2B AE 05 C4 09 00 90 70 97 58 A2 6F 52 [FD BRS]
0.0251804 1 DCx Rx d 13 39 10 00 16 A3 FA BB AE 22 0A FA DC 38 [FD BRS]
0.0255648 1 18E19490x Rx d 15 00 00 00 A5 55 55 55 55 05 00 00 00 00 00 00 [FD BRS]
0.0279880 1 DBx Rx d 14 39 0E 00 20 8D F7 AB 0B 28 80 83 1A 3F F7 [FD BRS]
0.0289751 1 D4x Rx d 12 39 FE 1D 08 59 40 62 01 40 02 00 00 [FD BRS]
0.0292835 1 E3x Rx d 9 39 04 22 08 00 3C 06 7E 78 [FD BRS]
0.0331916 1 DBx Rx d 13 39 0F 00 15 21 20 AC 20 FF FF 7F CF FF [FD BRS]
0.0339518 1 E3x Rx d 8 00 80 00 04 0B BE B3 00 [FD BRS]
0.0348081 1 D9x Rx d 14 39 13 00 15 27 3E AE 09 A0 55 8D D2 6F 10 [FD BRS]
0.0442234 1 44 Rx d 1 04
0.0446278 1 2Dx Rx d 14 FA 22 AF 05 C4 09 00 90 70 97 58 A2 6F 52 [FD BRS]
0.0451511 1 DC085B Rx d 8 40 03 08 00 00 00 00 00
0.0454393 1 DCx Rx d 13 39 10 00 16 3C 92 BC AE 22 0A FA DC 38 [FD BRS]
0.0480534 1 DBx Rx d 15 39 0E 01 0F 70 35 FF FF FF FF FF FF FF 3F D3 [FD BRS]
0.0493016 1 E3x Rx d 9 02 80 00 08 CE 19 43 01 83 [FD BRS]
0.0009053 1 DBx Rx d 14 39 0E 00 20 3A 72 86 0B 28 80 83 1A 3F F6 [FD BRS]
0.0060796 1 DBx Rx d 13 39 0F 00 15 15 AA 87 20 FF FF 7F CF FF [FD BRS]
0.0076880 1 D9x Rx d 13 39 13 00 15 C1 C3 89 09 A0 55 0D D0 6F [FD BRS]
0.0118583 1 E3x Rx d 9 41 00 05 08 00 80 03 43 CE [FD BRS]
0.0169666 1 2Dx Rx d 14 58 3C 8A 05 C4 09 00 90 70 97 58 A2 6F 52 [FD BRS]
0.0174920 1 D4x Rx d 8 39 04 06 04 2E FF 83 84 [FD BRS]
0.0180312 1 DCx Rx d 13 39 10 00 16 E0 2D 97 AE 22 0A FA DC 38 [FD BRS]
0.0184135 1 18E19490x Rx d 15 01 01 00 4E 0D 5B 01 80 0C F1 00 BC 02 06 06 [FD BRS]
0.0209337 1 DBx Rx d 14 39 0E 00 20 58 83 87 0B 28 80 83 1A 3F F7 [FD BRS]
0.0260819 1 DBx Rx d 13 39 0F 00 15 AB 5F 88 20 FF FF 7F CF FF [FD BRS]
0.0268681 1 E3x Rx d 13 41 00 05 08 01 EA 41 89 7E 0A 64 66 05 [FD BRS]
0.0277444 1 D9x Rx d 13 39 13 00 15 47 47 8A 09 A0 55 8D D0 6F [FD BRS]
0.0369557 1 2Dx Rx d 14 47 35 8B 05 C4 09 00 90 70 97 58 A2 6F 52 [FD BRS]
0.0380098 1 DCx Rx d 13 39 10 00 16 FA 54 98 AE 22 0A FA DC 38 [FD BRS]
0.0409040 1 DBx Rx d 14 39 0E 00 20 C3 9D 88 0B 28 80 83 1A 3F F6 [FD BRS]
0.0418722 1 E3x Rx d 9 39 04 22 08 00 3C 06 7E 78 [FD BRS]
0.0460883 1 DBx Rx d 13 39 0F 00 15 49 4F 89 20 FF FF 7F CF FF [FD BRS]
0.0468695 1 D4x Rx d 14 39 04 0C 05 0E 0F F4 FF FF 39 15 01 14 44 [FD BRS]
0.0474018 1 E3x Rx d 8 00 80 00 04 42 71 AC 00 [FD BRS]
0.0477622 1 D9x Rx d 14 39 13 00 15 05 E2 8B 09 A0 55 0D D0 6F 10 [FD BRS]
0.0482753 1 18E19490x Rx d 15 02 84 00 64 64 64 01 00 00 00 C1 12 03 00 01 [FD BRS]
0.0027976 1 DBx Rx d 13 39 0F 00 15 CC 9A 5D 20 FF FF 7F CF FF [FD BRS]
0.0042830 1 D9x Rx d 13 39 13 00 15 33 13 5F 09 A0 55 0D CF 6F [FD BRS]
0.0136742 1 2Dx Rx d 14 D9 FD 60 05 C4 09 00 90 70 97 58 A2 6F 52 [FD BRS]
0.0146204 1 DCx Rx d 14 39 10 01 10 15 41 40 00 50 00 E6 42 0C 9C [FD BRS]
0.0151408 1 18E19490x Rx d 15 03 00 00 8D 01 8D 01 14 00 16 00 05 00 00 00 [FD BRS]
0.0176299 1 DBx Rx d 14 39 0F 01 06 4D 85 04 60 80 1C 39 0E 00 20 [FD BRS]
0.0181503 1 21Cx Rx d 15 22 C0 00 00 00 01 00 1D 00 3B 00 B2 02 36 04 [FD BRS]
0.0227975 1 DBx Rx d 13 39 0F 00 15 EA AB 5E 20 FF FF 7F CF FF [FD BRS]
0.0235617 1 E3x Rx d 10 39 80 00 0C 00 7F AF 82 17 30 [FD BRS]
0.0253221 1 D9x Rx d 13 39 13 00 15 2E 71 60 09 A0 55 8D CF 6F [FD BRS]
0.0336494 1 2Dx Rx d 14 C6 F4 61 05 C4 09 00 90 70 97 58 A2 6F 52 [FD BRS]
0.0346846 1 DCx Rx d 13 39 10 00 16 06 75 6E AE 22 0A FA DC 38 [FD BRS]
0.0376217 1 DBx Rx d 14 39 0E 00 20 15 36 5E 0B 28 80 83 1A 3F F7 [FD BRS]
0.0427980 1 DBx Rx d 13 39 0F 00 15 08 BB 5F 20 FF FF 7F CF FF [FD BRS]
0.0445671 1 D9x Rx d 13 39 13 00 15 0F AA 61 09 A0 55 4D D0 6F [FD BRS]
0.0449465 1 18E19490x Rx d 15 04 02 00 02 00 02 00 88 36 ED 0C 55 0D 22 01 [FD BRS]
0.0475546 1 21Cx Rx d 15 23 00 00 00 00 00 00 00 00 00 00 00 00 00 00 [FD BRS]
0.0485748 1 E3x Rx d 9 41 00 05 08 00 80 03 43 CE [FD BRS]
0.0045290 1 2Dx Rx d 14 72 58 3B 05 C4 09 00 90 70 97 58 A2 6F 52 [FD BRS]
0.0050521 1 DCx Rx d 13 39 10 00 16 A9 F3 48 AE 22 0A FA DC 38 [FD BRS]
0.0054363 1 E3x Rx d 11 00 80 00 04 AB 5D 9C 00 39 04 22 [FD BRS]
0.0076495 1 DBx Rx d 14 39 0E 00 20 B6 5E 38 0B 28 80 83 1A 3F F6 [FD BRS]
0.0091857 1 D4x Rx d 14 39 04 0C 05 0E 0F F4 FF FF 39 15 01 14 44 [FD BRS]
0.0128278 1 DBx Rx d 13 39 0F 00 15 42 9D 39 20 FF FF 7F CF FF [FD BRS]
0.0142692 1 D9x Rx d 14 39 13 00 15 6D 4E 3B 09 A0 55 4D CF 6F 10 [FD BRS]
0.0245065 1 2Dx Rx d 14 2F 67 3C 05 C4 09 00 90 70 97 58 A2 6F 52 [FD BRS]
0.0250306 1 DCx Rx d 13 39 10 00 16 8D 5B 49 AE 22 0A FA DC 38 [FD BRS]
0.0254109 1 18E19490x Rx d 15 04 02 00 02 00 02 00 88 36 ED 0C 55 0D 22 01 [FD BRS]
0.0276391 1 DBx Rx d 15 39 0E 01 0F 6C 35 FF FF FF FF FF FF FF 3F D3 [FD BRS]
0.0295163 1 4Fx Rx d 8 28 FF 02 00 33 C1 9A A8 [FD BRS]
0.0328074 1 DBx Rx d 13 39 0F 00 15 64 AC 3A 20 FF FF 7F CF FF [FD BRS]
0.0342398 1 D9x Rx d 13 39 13 00 15 13 66 3C 09 A0 55 0D CF 6F [FD BRS]
0.0445200 1 2Dx Rx d 14 30 6E 3D 05 C4 09 00 90 70 97 58 A2 6F 52 [FD BRS]
0.0450432 1 DCx Rx d 14 39 10 01 10 15 41 40 00 50 00 AE 42 0C 9C [FD BRS]
0.0476283 1 DBx Rx d 14 39 0E 00 20 9E 17 3A 0B 28 80 83 1A 3F F6 [FD BRS]
0.0008398 1 2Dx Rx d 14 16 1C 14 05 C4 09 00 90 70 97 58 A2 6F 52 [FD BRS]
0.0027550 1 DBx Rx d 15 39 0E 01 0F 70 35 FF FF FF FF FF FF FF 3F D3 [FD BRS]
0.0079203 1 DBx Rx d 13 39 0F 00 15 76 17 12 20 FF FF 7F CF FF [FD BRS]
0.0092927 1 D9x Rx d 13 39 13 00 15 6C E0 14 0A A0 55 4D CB 6F [FD BRS]
0.0195890 1 DCx Rx d 14 39 10 01 10 15 41 40 30 50 00 6E 06 10 9C [FD BRS]
0.0201093 1 18E19490x Rx d 15 03 00 00 8B 01 8B 01 15 00 17 00 05 00 00 00 [FD BRS]
0.0208945 1 2Dx Rx d 14 09 15 15 05 C4 09 00 90 70 97 58 A2 6F 52 [FD BRS]
0.0227927 1 DBx Rx d 14 39 0E 00 20 1B F1 12 0B 28 80 83 1A 3F F6 [FD BRS]
0.0279200 1 DBx Rx d 13 39 0F 00 15 94 07 13 20 FF FF 7F CF FF [FD BRS]
0.0302574 1 D9x Rx d 13 39 13 00 15 15 A2 15 0A A0 55 0D CC 6F [FD BRS]
0.0396477 1 DCx Rx d 13 39 10 00 16 5D C0 23 AE 22 0A FA DC 38 [FD BRS]
0.0405889 1 2Dx Rx d 14 28 0E 16 05 C4 09 00 90 70 97 58 A2 6F 52 [FD BRS]
0.0427431 1 DBx Rx d 14 39 0E 00 20 8F D5 13 0B 28 80 83 1A 3F F6 [FD BRS]
0.0454903 1 D4x Rx d 10 39 0C 14 0C FF FF FF FF FD FF [FD BRS]
0.0479214 1 DBx Rx d 13 39 0F 00 15 3A 75 14 20 FF FF 7F CF FF [FD BRS]
0.0493518 1 D9x Rx d 13 39 13 00 15 E3 C9 16 0A A0 55 4D CC 6F [FD BRS]
0.0021300 1 E3x Rx d 10 39 80 00 0C 00 7F B2 82 1B 30 [FD BRS]
0.0044711 1 DBx Rx d 13 39 0F 00 15 BC 82 F0 20 FF FF 7F CF FF [FD BRS]
0.0059863 1 18E19490x Rx d 15 00 00 00 A5 55 55 55 55 05 00 00 00 00 00 00 [FD BRS]
0.0071416 1 D9x Rx d 13 39 13 00 15 5E D9 F2 0A A0 55 8D CB 6F [FD BRS]
0.0161089 1 DCx Rx d 13 39 10 00 16 04 6E 00 AE 22 0A FA DC 38 [FD BRS]
0.0174061 1 2Dx Rx d 14 0C B8 F3 05 C4 09 00 90 70 97 58 A2 6F 52 [FD BRS]
0.0192812 1 DBx Rx d 14 39 0E 00 20 37 C1 F0 0B 38 80 83 1A 3F F6 [FD BRS]
0.0221114 1 D4x Rx d 10 39 0C 14 0C FF FF FF FF FD FF [FD BRS]
0.0244606 1 DBx Rx d 13 39 0F 00 15 5E 92 F1 20 FF FF 7F CF FF [FD BRS]
0.0260679 1 D9x Rx d 13 39 13 00 15 57 74 F3 0A A0 55 0D CC 6F [FD BRS]
0.0360512 1 DCx Rx d 13 39 10 00 16 20 C6 01 AE 22 0A FA DC 38 [FD BRS]
0.0364346 1 18E19490x Rx d 15 01 01 00 4E 0D 5C 01 80 0C F6 00 BC 02 06 06 [FD BRS]
0.0374708 1 2Dx Rx d 14 51 87 F4 05 C4 09 00 90 70 97 58 A2 6F 52 [FD BRS]
0.0379952 1 D4x Rx d 8 39 04 06 04 5D 5C 65 84 [FD BRS]
0.0393103 1 DBx Rx d 14 39 0E 00 20 A3 E5 F1 0B 38 80 83 1A 3F F6 [FD BRS]
0.0421255 1 E3x Rx d 14 39 06 0B 08 00 11 11 18 00 00 D0 FF 41 00 [FD BRS]
0.0445036 1 DBx Rx d 13 39 0F 00 15 78 A3 F2 20 FF FF 7F CF FF [FD BRS]
0.0458590 1 D9x Rx d 13 39 13 00 15 62 54 F4 0A A0 55 4D CB 6F [FD BRS]
0.0028460 1 4Fx Rx d 8 20 69 0E A0 00 49 A2 4C [FD BRS]
0.0063032 1 DCx Rx d 13 39 10 00 16 20 EC E2 AE 22 0A FA DC 38 [FD BRS]
0.0076654 1 2Dx Rx d 14 8F BD D5 05 C4 09 00 90 70 97 58 A2 6F 52 [FD BRS]
0.0095395 1 DBx Rx d 14 39 0E 00 20 41 3D D2 0B 28 80 83 1A 3F F6 [FD BRS]
0.0123777 1 D4x Rx d 10 39 0C 14 0C FF FF FF FF FD FF [FD BRS]
0.0147169 1 DBx Rx d 13 39 0F 00 15 98 8F D3 20 FF FF 7F CF FF [FD BRS]
0.0162892 1 D9x Rx d 13 39 13 00 15 57 CE D5 0A A0 55 CD CA 6F [FD BRS]
0.0262446 1 DCx Rx d 13 39 10 00 16 04 44 E3 AE 22 0A FA DC 38 [FD BRS]
0.0266259 1 18E19490x Rx d 15 01 02 00 4E 0D 5C 01 80 0C F1 00 BC 02 06 06 [FD BRS]
0.0277221 1 2Dx Rx d 14 AE A6 D6 05 C4 09 00 90 70 97 58 A2 6F 52 [FD BRS]
0.0282464 1 D4x Rx d 8 39 04 06 04 1F 18 5F 84 [FD BRS]
0.0296186 1 DBx Rx d 14 39 0E 00 20 D5 19 D3 0B 28 80 83 1A 3F F6 [FD BRS]
0.0323878 1 E3x Rx d 14 39 06 0B 08 00 11 11 18 00 00 D0 FF 41 00 [FD BRS]
0.0347609 1 DBx Rx d 13 39 0F 00 15 36 FD D4 20 FF FF 7F CF FF [FD BRS]
0.0360693 1 D9x Rx d 13 39 13 00 15 71 FF D6 0A A0 55 CD CA 6F [FD BRS]
0.0462676 1 DCx Rx d 13 39 10 00 16 9B 2C E4 AE 22 0A FA DC 38 [FD BRS]
0.0476948 1 2Dx Rx d 14 B1 AF D7 05 C4 09 00 90 70 97 58 A2 6F 52 [FD BRS]
0.0482211 1 E3x Rx d 13 00 80 00 04 FD 8C 88 00 39 04 22 08 00 [FD BRS]
0.0000011 1 F9x Rx d 0  [FD]
0.0015124 1 DBx Rx d 15 39 0E 01 0F 6C 35 FF FF FF FF FF FF FF 3F D3 [FD BRS]
0.0066797 1 DBx Rx d 13 39 0F 00 15 E5 01 AE 20 FF FF 7F CF FF [FD BRS]
0.0078960 1 D9x Rx d 13 39 13 00 15 EE 6F B0 0A A0 55 4D CB 6F [FD BRS]
0.0082782 1 18E19490x Rx d 15 01 02 00 4E 0D 5C 01 80 0C F6 00 BC 02 06 06 [FD BRS]
0.0181356 1 DCx Rx d 14 39 10 01 10 15 41 40 00 50 00 CE 02 11 9C [FD BRS]
0.0196218 1 2Dx Rx d 14 B0 CD B1 05 C4 09 00 90 70 97 58 A2 6F 52 [FD BRS]
0.0215019 1 DBx Rx d 14 39 0E 00 20 E5 F3 AE 0B 38 80 83 1A 3F F6 [FD BRS]
0.0266802 1 DBx Rx d 13 39 0F 00 15 07 11 AF 20 FF FF 7F CF FF [FD BRS]
0.0288726 1 D9x Rx d 13 39 13 00 15 D9 C9 B1 0A A0 55 CD CA 6F [FD BRS]
0.0382009 1 DCx Rx d 13 39 10 00 16 71 7A BF AE 22 0A FA DC 38 [FD BRS]
0.0385823 1 18E19490x Rx d 15 02 84 00 64 64 64 01 00 00 00 66 12 03 00 01 [FD BRS]
0.0396885 1 2Dx Rx d 14 91 D6 B2 05 C4 09 00 90 70 97 58 A2 6F 52 [FD BRS]
0.0415027 1 DBx Rx d 14 39 0E 00 20 71 D7 AF 0B 38 80 83 1A 3F F6 [FD BRS]
0.0443699 1 D4x Rx d 10 39 0C 14 0C FF FF FF FF FD FF [FD BRS]
0.0466810 1 DBx Rx d 13 39 0F 00 15 B8 FA B0 20 FF FF 7F CF FF [FD BRS]
0.0481904 1 D9x Rx d 13 39 13 00 15 5F 4D B2 0A A0 55 4D CA 6F [FD BRS]
0.0012225 1 DBx Rx d 14 39 0F 01 06 4D 85 04 60 14 1D 39 0E 00 20 [FD BRS]
0.0040587 1 E3x Rx d 10 39 80 00 0C 00 7F 82 82 23 30 [FD BRS]
0.0064038 1 DBx Rx d 13 39 0F 00 15 23 1C 8C 20 FF FF 7F CF FF [FD BRS]
0.0088843 1 D9x Rx d 13 39 13 00 15 89 77 8E 0A A0 56 0D CC 6F [FD BRS]
0.0177896 1 DCx Rx d 13 39 10 00 16 28 D4 9C AE 22 0A FA DC 38 [FD BRS]
0.0193408 1 2Dx Rx d 14 3B 11 8F 05 C4 09 00 90 70 97 58 A2 6F 52 [FD BRS]
0.0212149 1 DBx Rx d 14 39 0E 00 20 93 0F 8C 0B 28 80 83 1A 3F F6 [FD BRS]
0.0240441 1 D4x Rx d 10 39 0C 14 0C FF FF FF FF FD FF [FD BRS]
0.0263932 1 DBx Rx d 13 39 0F 00 15 C1 0C 8D 20 FF FF 7F CF FF [FD BRS]
0.0277334 1 18E19490x Rx d 15 04 02 00 02 00 02 00 88 36 EB 0C 55 0D 22 01 [FD BRS]
0.0284577 1 D9x Rx d 13 39 13 00 15 23 57 8F 0A A0 55 8D CB 6F [FD BRS]
0.0377300 1 DCx Rx d 13 39 10 00 16 0C 7C 9D AE 22 0A FA DC 38 [FD BRS]
0.0393792 1 2Dx Rx d 14 6E F7 90 05 C4 09 00 90 70 97 58 A2 6F 52 [FD BRS]
0.0399025 1 D4x Rx d 8 39 04 06 04 45 BA 51 84 [FD BRS]
0.0412957 1 DBx Rx d 14 39 0E 00 20 5D 4C 8D 0B 38 80 83 1A 3F F6 [FD BRS]
0.0440409 1 E3x Rx d 14 39 06 0B 08 00 11 11 18 00 00 D0 FF 41 00 [FD BRS]
0.0464370 1 DBx Rx d 13 39 0F 00 15 E7 3D 8E 20 FF FF 7F CF FF [FD BRS]
0.0476364 1 D9x Rx d 13 39 13 00 15 39 E5 90 0A A0 55 CD CA 6F [FD BRS]
0.0076191 1 DCx Rx d 13 39 10 00 16 FA 7E 7B AE 22 0A FA DC 38 [FD BRS]
0.0093194 1 2Dx Rx d 14 63 83 6E 05 C4 09 00 90 70 97 58 A2 6F 52 [FD BRS]
0.0098457 1 E3x Rx d 13 00 80 00 04 AF 0D 73 00 39 04 22 08 00 [FD BRS]
0.0112078 1 DBx Rx d 14 39 0E 00 20 7B 89 6B 0B 38 80 83 1A 3F F6 [FD BRS]
0.0140610 1 D4x Rx d 9 39 04 0C 05 0E 0F F4 FF FF [FD BRS]
0.0163722 1 DBx Rx d 13 39 0F 00 15 2D A8 6C 20 FF FF 7F CF FF [FD BRS]
0.0177203 1 18E19490x Rx d 15 02 84 00 64 64 64 01 00 00 00 78 12 02 00 01 [FD BRS]
0.0184336 1 D9x Rx d 14 39 13 00 15 BA F0 6E 0A A0 55 8D CA 6F 10 [FD BRS]
0.0276150 1 DCx Rx d 13 39 10 00 16 65 16 7C AE 22 0A FA DC 38 [FD BRS]
0.0292822 1 2Dx Rx d 14 7C 8A 6F 05 C4 09 00 90 70 97 58 A2 6F 52 [FD BRS]
0.0311863 1 DBx Rx d 15 39 0E 01 0F 78 35 FF FF FF FF FF FF FF 3F D3 [FD BRS]
0.0363536 1 DBx Rx d 13 39 0F 00 15 CF B8 6D 20 FF FF 7F CF FF [FD BRS]
0.0377269 1 D9x Rx d 13 39 13 00 15 88 BA 6F 0A A0 55 CD CA 6F [FD BRS]
0.0476322 1 DCx Rx d 14 39 10 01 10 15 41 40 30 50 00 66 06 0D 9C [FD BRS]
0.0481576 1 18E19490x Rx d 15 03 00 00 89 01 89 01 18 00 1A 00 06 00 00 00 [FD BRS]
0.0488668 1 44 Rx d 1 04
0.0493852 1 2Dx Rx d 14 29 6C 70 05 C4 09 00 90 70 97 58 A2 6F 52 [FD BRS]
0.0004732 1 DBx Rx d 14 39 0E 00 20 01 B7 46 0B 38 80 83 1A 3F F5 [FD BRS]
0.0033064 1 D4x Rx d 10 39 0C 14 0C FF FF FF FF FD FF [FD BRS]
0.0056515 1 DBx Rx d 13 39 0F 00 15 19 22 47 20 FF FF 7F CF FF [FD BRS]
0.0070459 1 D9x Rx d 13 39 13 00 15 87 8C 49 0B A0 55 0D C8 6F [FD BRS]
0.0168372 1 DCx Rx d 13 39 10 00 16 B9 A9 57 AE 22 0A FA DC 38 [FD BRS]
0.0186314 1 2Dx Rx d 14 DE 94 4A 05 C4 09 00 90 70 97 58 A2 6F 52 [FD BRS]
0.0191558 1 D4x Rx d 8 39 04 06 04 8A 4C 43 84 [FD BRS]
0.0205529 1 DBx Rx d 14 39 0E 00 20 AE FD 47 0B 38 80 83 1A 3F F6 [FD BRS]
0.0233061 1 E3x Rx d 14 39 06 0B 08 00 11 11 18 00 00 D0 FF 41 00 [FD BRS]
0.0256952 1 DBx Rx d 13 39 0F 00 15 A7 D7 48 20 FF FF 7F CF FF [FD BRS]
0.0267895 1 D9x Rx d 13 39 13 00 15 B5 64 4A 0A A0 56 CD C7 6F [FD BRS]
0.0271687 1 18E19490x Rx d 15 03 00 00 87 01 87 01 19 00 1B 00 06 00 00 00 [FD BRS]
0.0368342 1 DCx Rx d 13 39 10 00 16 A3 D0 58 AE 22 0A FA DC 38 [FD BRS]
0.0385844 1 D4x Rx d 14 39 04 0C 05 0E 0F F4 FF FF 39 0C 16 08 FF [FD BRS]
0.0391108 1 2Dx Rx d 14 C1 9D 4B 05 C4 09 00 90 70 97 58 A2 6F 52 [FD BRS]
0.0396351 1 D4x Rx d 15 39 0C 08 3C FE 74 00 80 00 00 08 6C 75 BB 2F [FD BRS]
0.0402915 1 E3x Rx d 13 00 80 00 04 E6 C2 6C 00 39 04 22 08 00 [FD BRS]
0.0406657 1 DBx Rx d 14 39 0E 00 20 F8 58 48 0B 38 80 83 1A 3F F5 [FD BRS]
0.0421060 1 D9x Rx d 14 39 FE 28 08 29 00 00 00 00 00 00 00 39 13 [FD BRS]
0.0458211 1 DBx Rx d 13 39 0F 00 15 45 C7 49 20 FF FF 7F CF FF [FD BRS]
0.0051478 1 4Fx Rx d 8 20 1C 07 A0 00 49 A2 49 [FD BRS]
0.0082140 1 DCx Rx d 13 39 10 00 16 57 E3 33 AE 22 0A FA DC 38 [FD BRS]
0.0099852 1 2Dx Rx d 14 19 AC 26 05 C4 09 00 90 70 97 58 A2 6F 52 [FD BRS]
0.0118673 1 DBx Rx d 14 39 0E 00 20 E8 67 23 0B 38 80 83 1A 3F F5 [FD BRS]
0.0147065 1 D4x Rx d 10 39 0C 14 0C FF FF FF FF FD FF [FD BRS]
0.0170456 1 DBx Rx d 13 39 0F 00 15 39 57 24 20 FF FF 7F CF FF [FD BRS]
0.0181658 1 18E19490x Rx d 15 04 02 00 02 00 02 00 88 36 ED 0C 55 0D 22 01 [FD BRS]
0.0188901 1 D9x Rx d 13 39 13 00 15 DA FA 26 0B A0 56 4D C6 6F [FD BRS]
0.0281514 1 DCx Rx d 13 39 10 00 16 FD 26 34 AE 22 0A FA DC 3C [FD BRS]
0.0300306 1 2Dx Rx d 14 06 A5 27 05 C4 09 00 90 70 97 58 A2 6F 52 [FD BRS]
0.0305550 1 D4x Rx d 8 39 04 06 04 11 DA 3C 84 [FD BRS]
0.0319471 1 DBx Rx d 14 39 0E 00 20 04 98 24 0B 38 80 83 1A 3F F5 [FD BRS]
0.0346983 1 E3x Rx d 12 39 06 0B 08 00 11 11 18 00 00 D0 FF [FD BRS]
0.0370904 1 DBx Rx d 13 39 0F 00 15 DB 47 25 20 FF FF 7F CF FF [FD BRS]
0.0381608 1 D9x Rx d 13 39 13 00 15 3E 3E 27 0B A0 55 0D C7 6F [FD BRS]
0.0481551 1 DCx Rx d 13 39 10 00 16 EC 23 35 AE 22 0A FA DC 38 [FD BRS]
0.0485374 1 18E19490x Rx d 15 00 00 00 A5 55 55 55 55 05 00 00 00 00 00 00 [FD BRS]
0.0079189 1 DCx Rx d 13 39 10 00 16 2A E5 11 AE 22 0A FA DC 38 [FD BRS]
0.0082992 1 18E19490x Rx d 15 01 02 00 4E 0D 5C 01 80 0C F1 00 BC 02 06 06 [FD BRS]
0.0098894 1 2Dx Rx d 14 E6 8D 04 05 C4 09 00 90 70 97 58 A2 6F 52 [FD BRS]
0.0104127 1 D4x Rx d 8 39 04 06 04 66 29 35 84 [FD BRS]
0.0117919 1 DBx Rx d 14 39 0E 00 20 C4 FC 01 0B 38 80 83 1A 3F F5 [FD BRS]
0.0145391 1 E3x Rx d 14 39 06 0B 08 00 11 11 18 00 00 D0 FF 41 00 [FD BRS]
0.0169342 1 DBx Rx d 13 39 0F 00 15 77 09 02 20 FF FF 7F CF FF [FD BRS]
0.0179195 1 D9x Rx d 13 39 13 00 15 20 6F 04 0B A0 55 4D C5 6F [FD BRS]
0.0245728 1 21Dx Rx d 3 30 40 28 [FD BRS]
0.0247319 1 21Cx Rx d 15 21 00 00 00 00 00 00 00 00 00 00 00 00 00 00 [FD BRS]
0.0279281 1 DCx Rx d 13 39 10 00 16 52 A0 12 AE 22 0A FA DC 3C [FD BRS]
0.0298644 1 2Dx Rx d 14 F9 84 05 05 C4 09 00 90 70 97 58 A2 6F 52 [FD BRS]
0.0303897 1 E3x Rx d 13 00 80 00 04 67 03 5E 00 39 04 22 08 00 [FD BRS]
0.0317458 1 DBx Rx d 14 39 0E 00 20 78 91 02 0B 38 80 83 1A 3F F5 [FD BRS]
0.0345940 1 D4x Rx d 14 39 04 0C 05 0E 0F F4 FF FF 39 15 01 14 44 [FD BRS]
0.0370752 1 DBx Rx d 13 39 0F 00 15 95 19 03 20 FF FF 7F CF FF [FD BRS]
0.0379235 1 D9x Rx d 14 39 13 00 15 C7 93 05 0B A0 55 8D C4 6F 10 [FD BRS]
0.0384346 1 18E19490x Rx d 15 02 84 00 64 64 64 01 00 00 00 82 12 03 00 01 [FD BRS]
0.0479221 1 DCx Rx d 13 39 10 00 16 43 A5 13 AE 22 0A FA DC 38 [FD BRS]
0.0009450 1 DBx Rx d 13 39 0E 01 0F 6C 35 FF FF FF FF FF FF FF [FD BRS]
0.0038812 1 E3x Rx d 10 32 04 00 0C F0 BA 24 53 67 07 [FD BRS]
0.0060414 1 DBx Rx d 15 39 0E 00 20 0E C6 E0 0B 38 80 83 1A 3F F5 7F [FD BRS]
0.0071027 1 D9x Rx d 13 39 13 00 15 54 C9 E3 0C A0 55 4D C2 6F [FD BRS]
0.0074808 1 DCx Rx d 9 39 FE 6F 08 94 01 00 80 01 [FD BRS]
0.0160049 1 DBx Rx d 13 39 0E 04 10 5C E3 0B 4C 24 B4 DB FF 2F [FD BRS]
0.0171021 1 DCx Rx d 14 39 10 01 10 15 41 40 82 50 00 86 46 0D 9C [FD BRS]
0.0181423 1 44 Rx d 1 04
0.0191167 1 2Dx Rx d 14 A1 16 E4 05 C4 09 00 90 70 97 58 A2 6F 52 [FD BRS]
0.0209378 1 DBx Rx d 14 39 0E 00 20 9A E2 E1 0B 38 80 83 1A 3F F5 [FD BRS]
0.0238050 1 E3x Rx d 10 39 80 00 0C 00 FF 01 82 26 30 [FD BRS]
0.0261301 1 DBx Rx d 13 39 0F 00 15 79 BD E2 20 FF FF 7F CF FF [FD BRS]
0.0270953 1 18E19490x Rx d 15 00 00 00 A5 55 55 55 55 05 00 00 00 00 00 00 [FD BRS]
0.0280636 1 D9x Rx d 13 39 13 00 15 8F B8 E4 0C A0 55 4D C3 6F [FD BRS]
0.0371420 1 DCx Rx d 13 39 10 00 16 2A CF F2 AE 22 0A FA DC 38 [FD BRS]
0.0390572 1 2Dx Rx d 14 BE 1F E5 05 C4 09 00 90 70 97 58 A2 6F 52 [FD BRS]
0.0409403 1 DBx Rx d 14 39 0E 00 20 7C E8 E2 0B 28 80 83 1A 3F F5 [FD BRS]
0.0437575 1 D4x Rx d 10 39 0C 14 0C FF FF FF FF FD FF [FD BRS]
0.0461186 1 DBx Rx d 13 39 0F 00 15 9B AD E3 20 FF FF 7F CF FF [FD BRS]
0.0473629 1 D9x Rx d 13 39 13 00 15 F2 C0 E5 0B A0 55 4D C3 6F [FD BRS]
0.0004300 1 DBx Rx d 14 39 0E 00 20 9D EC BE 0B 38 80 83 1A 3F F7 [FD BRS]
0.0056103 1 DBx Rx d 13 39 0F 00 15 06 0F BF 20 FF FF 7F CF FF [FD BRS]
0.0074356 1 D9x Rx d 13 39 13 00 15 89 BD C1 08 A0 56 0D D5 4F [FD BRS]
0.0137439 1 4Fx Rx d 8 20 0B 03 A0 00 49 A2 47 [FD BRS]
0.0165541 1 DCx Rx d 13 39 10 00 16 72 3E CF AE 22 0A FA DC 3C [FD BRS]
0.0169364 1 18E19490x Rx d 15 02 84 00 64 64 64 01 00 00 00 DE 12 03 00 01 [FD BRS]
0.0185546 1 2Dx Rx d 14 CD 8F C2 05 C4 09 00 90 70 97 58 A2 6F 52 [FD BRS]
0.0204318 1 DBx Rx d 14 39 0E 00 20 09 C8 BF 0B 38 80 83 1A 3F F7 [FD BRS]
0.0232470 1 D4x Rx d 10 39 0C 14 0C FF FF FF FF FD FF [FD BRS]
0.0256101 1 DBx Rx d 13 39 0F 00 15 BF A0 C0 20 FF FF 7F CF FF [FD BRS]
0.0267445 1 D9x Rx d 13 39 13 00 15 DC 5B C2 08 A0 55 4D D5 4F [FD BRS]
0.0365048 1 DCx Rx d 13 39 10 00 16 57 C9 D0 AE 22 0A FA DC 38 [FD BRS]
0.0385900 1 2Dx Rx d 14 D2 86 C3 05 C4 09 00 90 70 97 58 A2 6F 52 [FD BRS]
0.0391153 1 D4x Rx d 8 39 04 06 04 47 0B 28 84 [FD BRS]
0.0404604 1 DBx Rx d 14 39 0E 00 20 4B 0C C0 0B 38 80 83 1A 3F F7 [FD BRS]
0.0432407 1 E3x Rx d 12 39 06 0B 08 00 11 11 18 00 00 D0 FF [FD BRS]
0.0456538 1 DBx Rx d 13 39 0F 00 15 5D B0 C1 20 FF FF 7F CF FF [FD BRS]
0.0465361 1 D9x Rx d 13 39 13 00 15 EB FD C3 08 A0 55 CD D4 4F [FD BRS]
0.0469122 1 18E19490x Rx d 15 03 00 00 8C 01 8C 01 1B 00 1D 00 06 00 00 00 [FD BRS]
0.0024347 1 DCx Rx d 13 39 10 00 16 F5 34 A9 AE 22 0A FA DC 3C [FD BRS]
0.0045799 1 2Dx Rx d 14 05 07 9C 05 C4 09 00 90 70 97 58 A2 6F 52 [FD BRS]
0.0051063 1 E3x Rx d 13 00 80 00 04 ED 49 49 00 39 04 22 08 00 [FD BRS]
0.0064754 1 DBx Rx d 14 39 0E 00 20 75 C1 99 0B 38 80 83 1A 3F F7 [FD BRS]
0.0093536 1 D4x Rx d 9 39 04 0C 05 0E 0F F4 FF FF [FD BRS]
0.0114607 1 21Cx Rx d 15 11 02 01 03 75 74 79 5C 7C 7C 7F 38 83 20 87 [FD BRS]
0.0121571 1 DBx Rx d 13 39 0F 00 15 6E 60 9A 20 FF FF 7F CF FF [FD BRS]
0.0125422 1 21Dx Rx d 3 30 40 28 [FD BRS]
0.0126615 1 D9x Rx d 14 39 13 00 15 23 B9 9C 08 A0 56 8D D4 4F 10 [FD BRS]
0.0131737 1 21Cx Rx d 15 21 00 00 00 00 00 00 00 00 00 00 00 00 00 00 [FD BRS]
0.0138839 1 18E19490x Rx d 15 02 84 00 64 64 64 01 00 00 00 CE 12 02 00 01 [FD BRS]
0.0224314 1 DCx Rx d 13 39 10 00 16 B8 DC AA AE 22 0A FA DC 3C [FD BRS]
0.0245426 1 2Dx Rx d 14 1A 0E 9D 05 C4 09 00 90 70 97 58 A2 6F 52 [FD BRS]
0.0264537 1 DBx Rx d 15 39 0E 01 0F 6C 35 FF FF FF FF FF FF FF 3F D3 [FD BRS]
0.0316229 1 DBx Rx d 13 39 0F 00 15 8C 70 9B 20 FF FF 7F CF FF [FD BRS]
0.0324583 1 D9x Rx d 13 39 13 00 15 67 C8 9D 08 A0 55 4D D5 4F [FD BRS]
0.0363884 1 21Cx Rx d 15 22 00 00 00 00 00 00 00 00 00 00 00 00 00 00 [FD BRS]
0.0424446 1 DCx Rx d 14 39 10 01 10 15 41 40 30 50 00 16 16 0D 9C [FD BRS]
0.0429640 1 18E19490x Rx d 15 03 00 00 88 01 88 01 1C 00 1E 00 06 00 00 00 [FD BRS]
0.0436772 1 44 Rx d 1 04
0.0445915 1 2Dx Rx d 14 3B 15 9E 05 C4 09 00 90 70 97 58 A2 6F 52 [FD BRS]
0.0464527 1 DBx Rx d 14 39 0F 01 06 4D 85 04 60 3C 19 39 0E 00 20 [FD BRS]
0.0493499 1 E3x Rx d 10 39 80 00 0C 00 FF E5 81 F0 2F [FD BRS]
0.0000458 1 D4x Rx d 8 39 04 06 04 C6 CA 1A 84 [FD BRS]
0.0013329 1 DBx Rx d 14 39 0E 00 20 15 B5 7A 0B 38 80 83 1A 3F F8 [FD BRS]
0.0041941 1 E3x Rx d 12 39 06 0B 08 00 11 11 18 00 00 D0 FF [FD BRS]
0.0065272 1 DBx Rx d 13 39 0F 00 15 82 C4 7B 20 FF FF 7F CF FF [FD BRS]
0.0072436 1 D9x Rx d 13 39 13 00 15 AA DD 7D 08 A0 56 4D D6 4F [FD BRS]
0.0172269 1 DCx Rx d 13 39 10 00 16 BD 9F 8B AE 22 0A FA DC 38 [FD BRS]
0.0194361 1 2Dx Rx d 14 7C 8E 7E 05 C4 09 00 90 70 97 58 A2 6F 52 [FD BRS]
0.0199615 1 E3x Rx d 13 00 80 00 04 46 21 43 00 39 04 22 08 00 [FD BRS]
0.0213436 1 DBx Rx d 14 39 FE 0B 08 61 00 00 00 01 00 00 00 39 0E [FD BRS]
0.0241868 1 D4x Rx d 9 39 04 0C 05 0E 0F F4 FF FF [FD BRS]
0.0264999 1 DBx Rx d 13 39 0F 00 15 2C B6 7C 20 FF FF 7F CF FF [FD BRS]
0.0273412 1 D9x Rx d 14 39 13 00 15 B3 5C 7E 08 A0 56 CD D5 4F 10 [FD BRS]
0.0278554 1 18E19490x Rx d 15 02 84 00 64 64 64 01 00 00 00 68 12 03 00 01 [FD BRS]
0.0313225 1 DC085D Rx d 8 40 02 00 00 00 00 00 00
0.0342247 1 E3x Rx d 10 32 04 00 0C 11 37 22 53 67 07 [FD BRS]
0.0362409 1 DBx Rx d 14 39 0E 02 2A 3E 00 49 00 65 0A D0 41 19 94 [FD BRS]
0.0372251 1 DCx Rx d 13 39 10 00 16 22 F7 8C AE 22 0A FA DC 38 [FD BRS]
0.0393963 1 2Dx Rx d 14 63 87 7F 05 C4 09 00 90 70 97 58 A2 6F 52 [FD BRS]
0.0413574 1 DBx Rx d 13 39 0E 01 0F 6C 35 FF FF FF FF FF FF FF [FD BRS]
0.0463917 1 DBx Rx d 15 39 0E 00 20 6D 6E 7C 0B 38 80 83 1A 3F F8 7F [FD BRS]
0.0472399 1 DCx Rx d 9 39 FE 6F 08 94 01 00 80 01 [FD BRS]
0.0474381 1 D9x Rx d 13 39 13 00 15 91 D5 7F 08 A0 56 4D D6 4F [FD BRS]
0.0005217 1 2Dx Rx d 14 5A FC 57 05 C4 09 00 90 70 97 58 A2 6F 52 [FD BRS]
0.0024528 1 DBx Rx d 15 39 0E 01 0F 70 35 FF FF FF FF FF FF FF 3F D3 [FD BRS]
0.0076221 1 DBx Rx d 13 39 0F 00 15 DC 1D 55 20 FF FF 7F CF FF [FD BRS]
0.0083292 1 18E19490x Rx d 15 01 02 00 4E 0D 5C 01 80 0C F1 00 BC 02 06 06 [FD BRS]
0.0090326 1 D9x Rx d 13 39 13 00 15 70 BE 57 08 A0 56 8D DA 4F [FD BRS]
0.0183209 1 DCx Rx d 14 39 10 01 10 15 41 40 00 51 00 A6 42 0C 9C [FD BRS]
0.0196341 1 44 Rx d 1 04
0.0205504 1 2Dx Rx d 14 FF 8B 58 05 C4 09 00 90 70 97 58 A2 6F 52 [FD BRS]
0.0224506 1 DBx Rx d 14 39 0F 01 06 4D 85 04 60 3C 19 39 0E 00 20 [FD BRS]
0.0253408 1 E3x Rx d 10 39 80 00 0C 00 7F 81 82 36 30 [FD BRS]
0.0276329 1 DBx Rx d 13 39 0F 00 15 FA 2C 56 20 FF FF 7F CF FF [FD BRS]
0.0292993 1 D9x Rx d 13 39 13 00 15 6E FE 58 08 A0 56 0D DA 4F [FD BRS]
0.0383676 1 DCx Rx d 13 39 10 00 16 83 64 66 AE 22 0A FA DC 38 [FD BRS]
0.0387499 1 18E19490x Rx d 15 02 84 00 64 64 64 01 00 00 00 74 12 03 00 01 [FD BRS]
0.0405571 1 2Dx Rx d 14 E0 82 59 05 C4 09 00 90 70 97 58 A2 6F 52 [FD BRS]
0.0424422 1 DBx Rx d 14 39 0E 00 20 C0 C1 56 0B 38 80 83 1A 3F F8 [FD BRS]
0.0452564 1 D4x Rx d 10 39 0C 14 0C FF FF FF FF FD FF [FD BRS]
0.0476216 1 DBx Rx d 13 39 0F 00 15 18 3C 57 20 FF FF 7F CF FF [FD BRS]
0.0485939 1 D9x Rx d 13 39 13 00 15 13 EB 59 08 A0 56 0D D9 4F [FD BRS]
0.0029221 1 DCx Rx d 13 39 10 00 16 00 72 3F AE 22 0A FA DC 38 [FD BRS]
0.0033064 1 18E19490x Rx d 15 01 02 00 4E 0D 5C 01 80 0C F1 00 BC 02 06 06 [FD BRS]
0.0050946 1 2Dx Rx d 14 95 19 32 05 C4 09 00 90 70 97 58 A2 6F 52 [FD BRS]
0.0056180 1 D4x Rx d 8 39 04 06 04 D5 A7 0B 84 [FD BRS]
0.0057773 1 DC085B Rx d 8 40 03 08 00 00 00 00 00
0.0070595 1 DBx Rx d 14 39 0E 00 20 B5 62 2F 0B 38 80 83 1A 3F F5 [FD BRS]
0.0097387 1 E3x Rx d 14 39 06 0B 08 00 11 11 18 00 00 D0 FF 41 00 [FD BRS]
0.0122018 1 DBx Rx d 13 39 0F 00 15 B0 0A 30 20 FF FF 7F CF FF [FD BRS]
0.0128731 1 D9x Rx d 13 39 13 00 15 BA 99 32 0B A0 55 CD C4 6F [FD BRS]
0.0228134 1 DCx Rx d 13 39 10 00 16 2C E2 40 AE 22 0A FA DC 38 [FD BRS]
0.0250686 1 2Dx Rx d 14 8A 10 33 05 C4 09 00 90 70 97 58 A2 6F 52 [FD BRS]
0.0255940 1 E3x Rx d 13 00 80 00 04 1E 32 34 00 39 04 22 08 00 [FD BRS]
0.0259704 1 DC085B Rx d 8 40 03 08 00 00 00 00 00
0.0270145 1 DBx Rx d 14 39 0E 00 20 DA C0 30 0B 38 80 83 1A 3F F5 [FD BRS]
0.0298207 1 D4x Rx d 14 39 04 0C 05 0E 0F F4 FF FF 39 15 01 14 44 [FD BRS]
0.0321718 1 DBx Rx d 13 39 0F 00 15 52 1A 31 20 FF FF 7F CF FF [FD BRS]
0.0328430 1 18E19490x Rx d 15 02 84 00 64 64 64 01 00 00 00 87 12 02 00 01 [FD BRS]
0.0335543 1 D9x Rx d 14 39 13 00 15 B3 34 33 0B A0 55 4D C3 6F 10 [FD BRS]
0.0428156 1 DCx Rx d 13 39 10 00 16 08 4A 41 AE 22 0A FA DC 38 [FD BRS]
0.0450358 1 2Dx Rx d 14 B6 97 34 05 C4 09 00 90 70 97 58 A2 6F 52 [FD BRS]
0.0455612 1 DC085B Rx d 8 40 03 08 00 00 00 00 00
0.0470033 1 DBx Rx d 15 39 0E 01 0F 70 35 FF FF FF FF FF FF FF 3F D3 [FD BRS]
0.0000006 1 F9x Rx d 0  [FD]
0.0034210 1 D4x Rx d 14 39 04 0C 05 0E 0F F4 FF FF 39 15 01 14 44 [FD BRS]
0.0051041 1 DBx Rx d 13 39 0F 00 15 41 BF 09 20 FF FF 7F CF FF [FD BRS]
0.0054904 1 D9x Rx d 14 39 13 00 15 54 7F 0B 08 A0 56 CD D4 4F 10 [FD BRS]
0.0152057 1 DCx Rx d 13 39 10 00 16 9A 59 19 AE 22 0A FA DC 3C [FD BRS]
0.0187289 1 2Dx Rx d 14 F1 59 0C 05 C4 09 00 90 70 97 58 A2 6F 52 [FD BRS]
0.0194731 1 DBx Rx d 15 39 0E 01 0F 70 35 FF FF FF FF FF FF FF 3F D3 [FD BRS]
0.0233593 1 E3x Rx d 12 41 00 05 08 01 70 C0 C0 CA 59 2A 76 [FD BRS]
0.0248084 1 DBx Rx d 13 39 0F 00 15 67 8E 0A 20 FF FF 7F CF FF [FD BRS]
0.0251935 1 18E19490x Rx d 15 01 02 00 4E 0D 5C 01 80 0C F1 00 BC 02 06 06 [FD BRS]
0.0258968 1 D9x Rx d 13 39 13 00 15 FF E1 0C 08 A0 56 0D D5 4F [FD BRS]
0.0352141 1 DCx Rx d 14 39 10 01 10 15 41 40 32 51 00 2E 12 0D 9C [FD BRS]
0.0387643 1 2Dx Rx d 14 EE 50 0D 05 C4 09 00 90 70 97 58 A2 6F 52 [FD BRS]
0.0394105 1 DBx Rx d 14 39 0E 00 20 CC 7C 0A 0B 38 80 83 1A 3F F7 [FD BRS]
0.0447838 1 DBx Rx d 13 39 0F 00 15 85 9E 0B 20 FF FF 7F CF FF [FD BRS]
0.0462101 1 D9x Rx d 13 39 13 00 15 53 15 0D 08 A0 56 CD D3 4F [FD BRS]
0.0487934 1 E3x Rx d 9 41 00 00 08 01 42 31 50 52 [FD BRS]
0.0070526 1 DCx Rx d 13 39 10 00 16 D7 9B F9 AE 22 0A FA DC 3C [FD BRS]
0.0106008 1 2Dx Rx d 14 B6 C2 EC 05 C4 09 00 90 70 97 58 A2 6F 52 [FD BRS]
0.0111262 1 D4x Rx d 8 39 04 06 04 01 1F FD 84 [FD BRS]
0.0112886 1 E3x Rx d 13 39 06 0B 08 00 11 11 18 00 00 D0 FF 05 [FD BRS]
0.0116707 1 DBx Rx d 14 39 0E 00 20 2E 0F E9 0B 38 80 83 1A 3F F7 [FD BRS]
0.0167340 1 DBx Rx d 13 39 0F 00 15 69 3A EA 20 FF FF 7F CF FF [FD BRS]
0.0171213 1 D9x Rx d 13 39 13 00 15 F4 B9 EC 08 A0 56 CD D4 4F [FD BRS]
0.0270466 1 DCx Rx d 13 39 10 00 16 9A 73 FA AE 22 0A FA DC 3C [FD BRS]
0.0274279 1 18E19490x Rx d 15 00 00 00 A5 55 55 55 55 05 00 00 00 00 00 00 [FD BRS]
0.0305852 1 D4x Rx d 14 39 04 0C 05 0E 0F F4 FF FF 39 0C 16 08 FF [FD BRS]
0.0311115 1 2Dx Rx d 14 A9 CB ED 05 C4 09 00 90 70 97 58 A2 6F 52 [FD BRS]
0.0316367 1 D4x Rx d 15 39 0C 08 3C FE 74 00 80 00 00 08 6C 75 3B 2C [FD BRS]
0.0322921 1 DBx Rx d 14 39 0E 00 20 92 62 EA 0B 38 80 83 1A 3F F7 [FD BRS]
0.0328133 1 D9x Rx d 14 39 FE 28 08 29 00 00 00 00 00 00 00 39 13 [FD BRS]
0.0333376 1 E3x Rx d 13 00 80 00 04 D1 C4 26 00 39 04 22 08 00 [FD BRS]
0.0369307 1 DBx Rx d 13 39 0F 00 15 8B 2A EB 20 FF FF 7F CF FF [FD BRS]
0.0422454 1 D9x Rx d 10 39 13 01 0B 58 AC 68 55 95 00 [FD BRS]
0.0470476 1 DCx Rx d 13 39 10 00 16 BE DB FB AE 22 0A FA DC 3C [FD BRS]
0.0053413 1 DCx Rx d 13 39 10 00 16 FD 0C D7 AE 22 0A FA DC 3C [FD BRS]
0.0089675 1 2Dx Rx d 14 35 C7 CA 05 C4 09 00 90 70 97 58 A2 6F 52 [FD BRS]
0.0094929 1 E3x Rx d 13 00 80 00 04 4F 1B 1F 00 39 04 22 08 00 [FD BRS]
0.0098691 1 DBx Rx d 14 39 0E 00 20 D3 32 C7 0B 38 80 83 1A 3F F7 [FD BRS]
0.0136863 1 D4x Rx d 9 39 04 0C 05 0E 0F F4 FF FF [FD BRS]
0.0139556 1 4Fx Rx d 8 28 42 09 00 14 F3 39 56 [FD BRS]
0.0151088 1 DBx Rx d 13 39 0F 00 15 AF 27 C8 20 FF FF 7F CF FF [FD BRS]
0.0154980 1 D9x Rx d 14 39 13 00 15 6A BD CA 08 A0 56 8D D4 4F 10 [FD BRS]
0.0160103 1 18E19490x Rx d 15 02 84 00 64 64 64 01 00 00 00 E1 12 03 00 01 [FD BRS]
0.0253337 1 DCx Rx d 13 39 10 00 16 D2 D8 D8 AE 22 0A FA DC 38 [FD BRS]
0.0289729 1 2Dx Rx d 14 2A CE CB 05 C4 09 00 90 70 97 58 A2 6F 52 [FD BRS]
0.0296961 1 DBx Rx d 15 39 0E 01 0F 64 35 FF FF FF FF FF FF FF 3F D3 [FD BRS]
0.0336233 1 E3x Rx d 9 41 00 05 08 01 91 AD 68 77 [FD BRS]
0.0350705 1 DBx Rx d 13 39 0F 00 15 4D 37 C9 20 FF FF 7F CF FF [FD BRS]
0.0354578 1 D9x Rx d 13 39 13 00 15 88 AD CB 08 A0 56 8D D4 4F [FD BRS]
0.0453481 1 DCx Rx d 14 39 10 01 10 15 41 40 00 51 00 C6 12 0D 9C [FD BRS]
0.0458664 1 18E19490x Rx d 15 03 00 00 8B 01 8B 01 21 00 23 00 07 00 00 00 [FD BRS]
0.0480477 1 44 Rx d 1 04
0.0490080 1 2Dx Rx d 14 77 F1 CC 05 C4 09 00 90 70 97 58 A2 6F 52 [FD BRS]
0.0034776 1 DCx Rx d 13 39 10 00 16 5E AE B0 AE 22 0A FA DC 3C [FD BRS]
0.0071948 1 2Dx Rx d 14 91 D2 A3 05 C4 09 00 90 70 97 58 A2 6F 52 [FD BRS]
0.0079170 1 DBx Rx d 15 39 0E 01 0F 6C 35 FF FF FF FF FF FF FF 3F D3 [FD BRS]
0.0118422 1 E3x Rx d 9 41 00 05 08 01 BD E0 87 64 [FD BRS]
0.0132943 1 DBx Rx d 13 39 0F 00 15 5B F4 A1 20 FF FF 7F CF FF [FD BRS]
0.0136795 1 D9x Rx d 13 39 13 00 15 4B D8 A3 08 A0 56 0D D5 4F [FD BRS]
0.0140568 1 18E19490x Rx d 15 01 02 00 4F 0D 5D 01 80 0C F1 00 BC 02 06 06 [FD BRS]
0.0234803 1 DCx Rx d 14 39 10 01 10 15 41 40 82 51 00 86 46 0D 9C [FD BRS]
0.0262645 1 44 Rx d 1 04
0.0272169 1 2Dx Rx d 14 CC ED A4 05 C4 09 00 90 70 97 58 A2 6F 52 [FD BRS]
0.0279160 1 DBx Rx d 14 39 0F 01 06 4D 85 04 60 3C 19 39 0E 00 20 [FD BRS]
0.0318592 1 E3x Rx d 10 39 80 00 0C 00 FF C0 81 ED 2F [FD BRS]
0.0332914 1 DBx Rx d 13 39 0F 00 15 7D C5 A2 20 FF FF 7F CF FF [FD BRS]
0.0349097 1 D9x Rx d 13 39 13 00 15 45 1F A4 08 A0 56 8D D5 4F [FD BRS]
0.0418260 1 E3x Rx d 8 3A 02 00 04 F4 FF FF FF [FD BRS]
0.0435551 1 DCx Rx d 13 39 10 00 16 37 EE B2 AE 22 0A FA DC 3C [FD BRS]
0.0439375 1 18E19490x Rx d 15 02 84 00 64 64 64 01 00 00 00 DE 12 03 00 01 [FD BRS]
0.0471757 1 2Dx Rx d 14 D3 E4 A5 05 C4 09 00 90 70 97 58 A2 6F 52 [FD BRS]
0.0479069 1 DBx Rx d 14 39 0E 00 20 3A E2 A2 0B 38 80 83 1A 3F F7 [FD BRS]
0.0004000 1 DBx Rx d 13 39 0F 00 15 A4 F5 78 20 FF FF 7F CF FF [FD BRS]
0.0007863 1 D9x Rx d 14 39 13 00 15 01 43 7A 08 A0 56 8D D7 4F 10 [FD BRS]
0.0104606 1 DCx Rx d 13 39 10 00 16 C5 DA 88 AE 22 0A FA DC 3C [FD BRS]
0.0108409 1 18E19490x Rx d 15 04 02 00 02 00 02 00 88 36 ED 0C 55 0D 22 01 [FD BRS]
0.0142671 1 2Dx Rx d 14 1F A3 7B 05 C4 09 00 90 70 97 58 A2 6F 52 [FD BRS]
0.0149943 1 DBx Rx d 15 39 0E 01 0F 64 35 FF FF FF FF FF FF FF 3F D3 [FD BRS]
0.0189465 1 E3x Rx d 9 41 00 05 08 01 63 12 AF EB [FD BRS]
0.0203686 1 DBx Rx d 13 39 0F 00 15 46 E5 79 20 FF FF 7F CF FF [FD BRS]
0.0207529 1 D9x Rx d 13 39 13 00 15 E3 53 7B 08 A0 56 8D D7 4F [FD BRS]
0.0304752 1 DCx Rx d 14 39 10 01 10 15 41 40 38 51 00 46 06 10 9C [FD BRS]
0.0333394 1 44 Rx d 1 04
0.0342838 1 2Dx Rx d 14 42 9C 7C 05 C4 09 00 90 70 97 58 A2 6F 52 [FD BRS]
0.0350429 1 DBx Rx d 14 39 0F 01 06 4D 85 04 60 3C 19 39 0E 00 20 [FD BRS]
0.0389251 1 E3x Rx d 10 39 80 00 0C 00 7F 32 82 01 30 [FD BRS]
0.0403672 1 DBx Rx d 13 39 0F 00 15 60 D4 7A 20 FF FF 7F CF FF [FD BRS]
0.0407544 1 18E19490x Rx d 15 00 00 00 A5 55 55 55 55 05 00 00 00 00 00 00 [FD BRS]
0.0416447 1 D9x Rx d 13 39 13 00 15 9D 7B 7C 08 A0 56 CD D7 4F [FD BRS]
0.0493229 1 4Fx Rx d 8 20 F4 06 A0 00 49 A2 40 [FD BRS]
0.0082305 1 DCx Rx d 13 39 10 00 16 99 1D 69 AE 22 0A FA DC 38 [FD BRS]
0.0120937 1 2Dx Rx d 14 6C 33 5C 05 C4 09 00 90 70 97 58 A2 6F 52 [FD BRS]
0.0126201 1 E3x Rx d 13 00 80 00 04 71 27 09 00 39 04 22 08 00 [FD BRS]
0.0129953 1 DBx Rx d 14 39 0E 00 20 E2 B6 59 0B 38 80 83 1A 3F F5 [FD BRS]
0.0168055 1 D4x Rx d 12 39 FE 1D 08 59 40 62 01 40 02 00 00 [FD BRS]
0.0182356 1 DBx Rx d 13 39 0F 00 15 62 E8 5A 20 FF FF 7F CF FF [FD BRS]
0.0186239 1 D9x Rx d 14 39 13 00 15 90 7B 5C 0C A0 55 8D C2 6F 10 [FD BRS]
0.0282312 1 DCx Rx d 13 39 10 00 16 E1 58 6A AE 22 0A FA DC 3C [FD BRS]
0.0286125 1 18E19490x Rx d 15 04 02 00 02 00 02 00 88 36 ED 0C 55 0D 22 01 [FD BRS]
0.0321228 1 2Dx Rx d 14 73 3A 5D 05 C4 09 00 90 70 97 58 A2 6F 52 [FD BRS]
0.0328299 1 DBx Rx d 15 39 0E 01 0F 64 35 FF FF FF FF FF FF FF 3F D3 [FD BRS]
0.0367521 1 E3x Rx d 12 41 00 05 08 01 64 EC 6F CA FC 3E 02 [FD BRS]
0.0382113 1 DBx Rx d 13 39 0F 00 15 80 F8 5B 20 FF FF 7F CF FF [FD BRS]
0.0386006 1 D9x Rx d 13 39 13 00 15 3B 8D 5D 0B A0 56 8D C3 6F [FD BRS]
0.0482459 1 DCx Rx d 14 39 10 01 10 15 41 40 30 51 00 16 16 0D 9C [FD BRS]
0.0070668 1 DCx Rx d 13 39 10 00 16 C0 B3 4A AE 22 0A FA DC 38 [FD BRS]
0.0109700 1 2Dx Rx d 14 30 6E 3D 05 C4 09 00 90 70 97 58 A2 6F 52 [FD BRS]
0.0114964 1 D4x Rx d 8 39 04 06 04 62 79 DA 84 [FD BRS]
0.0118035 1 DBx Rx d 14 39 0E 00 20 85 68 3A 0B 38 80 83 1A 3F F4 [FD BRS]
0.0156247 1 E3x Rx d 9 39 06 0B 08 00 11 11 18 00 [FD BRS]
0.0169939 1 18E19490x Rx d 15 03 00 00 8D 01 8D 01 25 00 28 00 08 00 00 00 [FD BRS]
0.0177060 1 D9x Rx d 13 39 13 00 15 27 B8 3D 0C A0 55 8D BD 6F [FD BRS]
0.0180854 1 DBx Rx d 13 39 0F 00 15 86 BC 3B 20 FF FF 7F CF FF [FD BRS]
0.0270477 1 DCx Rx d 13 39 10 00 16 E4 1B 4B AE 22 0A FA DC 38 [FD BRS]
0.0309659 1 2Dx Rx d 14 11 75 3E 05 C4 09 00 90 70 97 58 A2 6F 52 [FD BRS]
0.0314892 1 E3x Rx d 13 00 80 00 04 DA 4F 03 00 39 04 22 08 00 [FD BRS]
0.0318644 1 DBx Rx d 14 39 0E 00 20 11 4C 3B 0B 38 80 83 1A 3F F4 [FD BRS]
0.0356956 1 D4x Rx d 9 39 04 0C 05 0E 0F F4 FF FF [FD BRS]
0.0369507 1 21Cx Rx d 15 11 02 01 00 75 74 79 5C 7C 7C 7F 38 83 20 87 [FD BRS]
0.0376390 1 D9x Rx d 14 39 13 00 15 01 89 3E 0C A0 55 8D BD 6F 10 [FD BRS]
0.0381522 1 DBx Rx d 13 39 0F 00 15 28 CE 3C 20 FF FF 7F CF FF [FD BRS]
0.0385394 1 21Dx Rx d 3 30 01 28 [FD BRS]
0.0386946 1 21Cx Rx d 15 21 00 00 00 00 00 00 00 00 00 00 00 00 00 00 [FD BRS]
0.0394147 1 21Dx Rx d 3 30 01 28 [FD BRS]
0.0395639 1 21Cx Rx d 15 22 00 00 00 00 00 00 00 00 00 00 00 00 00 00 [FD BRS]
0.0456801 1 21Dx Rx d 3 30 01 28 [FD BRS]
0.0458353 1 21Cx Rx d 15 23 00 00 00 00 00 00 00 00 00 00 00 00 00 00 [FD BRS]
0.0465554 1 21Dx Rx d 3 30 01 28 [FD BRS]
0.0467026 1 21Cx Rx d 8 24 00 00 00 00 00 00 00 [FD BRS]
0.0470498 1 DCx Rx d 13 39 10 00 16 7B 73 4C AE 22 0A FA DC 38 [FD BRS]
0.0474341 1 18E19490x Rx d 15 04 02 00 02 00 02 00 7E 36 ED 0C 55 0D 22 01 [FD BRS]
0.0004122 1 DBx Rx d 13 39 0F 00 15 2A F2 1C 20 FF FF 7F CF FF [FD BRS]
0.0007984 1 D9x Rx d 13 39 13 00 15 BB 2F 1E 09 A0 56 4D D4 4F [FD BRS]
0.0103397 1 DCx Rx d 13 39 10 00 16 72 14 2C AE 22 0A FA DC 3C [FD BRS]
0.0142959 1 2Dx Rx d 14 20 D3 1F 05 C4 09 00 90 70 97 58 A2 6F 52 [FD BRS]
0.0148203 1 D4x Rx d 8 39 04 06 04 38 DB D4 84 [FD BRS]
0.0150915 1 DBx Rx d 14 39 0E 00 20 B6 CE 1C 0B 38 80 83 1A 3F F7 [FD BRS]
0.0189707 1 E3x Rx d 13 39 06 0B 08 00 11 11 18 00 00 D0 FF 32 [FD BRS]
0.0202648 1 18E19490x Rx d 15 03 00 00 92 01 92 01 26 00 29 00 08 00 00 00 [FD BRS]
0.0209770 1 D9x Rx d 13 39 13 00 15 89 65 1F 09 A0 56 0D D4 4F [FD BRS]
0.0213563 1 DBx Rx d 13 39 0F 00 15 C8 E2 1D 20 FF FF 7F CF FF [FD BRS]
0.0303216 1 DCx Rx d 13 39 10 00 16 56 BC 2D AE 22 0A FA DC 3C [FD BRS]
0.0343058 1 2Dx Rx d 14 B4 06 20 05 C4 09 00 90 70 97 58 A2 6F 52 [FD BRS]
0.0348311 1 E3x Rx d 13 00 80 00 04 CD 72 FD 00 39 04 22 08 00 [FD BRS]
0.0352063 1 DBx Rx d 14 39 FE 0B 08 61 00 00 00 01 00 00 00 39 0E [FD BRS]
0.0390055 1 D4x Rx d 9 39 04 0C 05 0E 0F F4 FF FF [FD BRS]
0.0404626 1 DBx Rx d 13 39 0F 00 15 EE D3 1E 20 FF FF 7F CF FF [FD BRS]
0.0408469 1 D9x Rx d 14 39 13 00 15 7F BA 20 09 A0 56 0D D3 4F 10 [FD BRS]
0.0451400 1 DC085D Rx d 8 40 02 00 00 00 00 00 00
0.0013711 1 DBx Rx d 13 39 0F 00 15 E0 67 FE 20 FF FF 7F CF FF [FD BRS]
0.0017604 1 D9x Rx d 13 39 13 00 15 29 C1 00 08 A0 56 CD D3 4F [FD BRS]
0.0112617 1 DCx Rx d 13 39 10 00 16 0F 12 0E AE 22 0A FA DC 3C [FD BRS]
0.0152519 1 2Dx Rx d 14 6A 3C 01 05 C4 09 00 90 70 97 58 A2 6F 52 [FD BRS]
0.0157763 1 D4x Rx d 8 39 04 06 04 34 A8 CE 84 [FD BRS]
0.0160514 1 DBx Rx d 14 39 0E 00 20 F2 F3 FE 0C 38 80 83 1A 3F F7 [FD BRS]
0.0199016 1 E3x Rx d 9 39 06 0B 08 00 11 11 18 00 [FD BRS]
0.0211648 1 18E19490x Rx d 15 03 00 00 91 01 91 01 26 00 29 00 08 00 00 00 [FD BRS]
0.0218750 1 D9x Rx d 13 39 13 00 15 20 6C 01 08 A0 56 4D D4 4F [FD BRS]
0.0222544 1 DBx Rx d 13 39 0F 00 15 02 77 FF 20 FF FF 7F CF FF [FD BRS]
0.0312446 1 DCx Rx d 13 39 10 00 16 2B BA 0F AE 22 0A FA DC 3C [FD BRS]
0.0352609 1 2Dx Rx d 14 4B 27 02 05 C4 09 00 90 70 97 58 A2 6F 52 [FD BRS]
0.0357852 1 E3x Rx d 13 00 80 00 04 66 1A F7 00 39 04 22 08 00 [FD BRS]
0.0361594 1 DBx Rx d 14 39 0E 00 20 54 BD FF 0B 38 80 83 1A 3F F7 [FD BRS]
0.0399676 1 D4x Rx d 9 39 04 0C 05 0E 0F F4 FF FF [FD BRS]
0.0402389 1 4Fx Rx d 8 28 43 01 00 14 F6 07 AD [FD BRS]
0.0414150 1 DBx Rx d 13 39 0F 00 15 B3 28 00 20 FF FF 7F CF FF [FD BRS]
0.0418014 1 D9x Rx d 14 39 13 00 15 D6 07 02 08 A0 56 0D D4 4F 10 [FD BRS]
0.0044186 1 DCx Rx d 14 39 10 01 10 15 41 40 32 51 00 4E 16 10 9C [FD BRS]
0.0086378 1 2Dx Rx d 14 2D A7 E1 05 C4 09 00 90 70 97 58 A2 6F 52 [FD BRS]
0.0093079 1 DBx Rx d 14 39 0E 00 20 79 18 DE 0B 38 80 83 1A 3F F7 [FD BRS]
0.0146812 1 DBx Rx d 13 39 0F 00 15 00 4B DF 20 FF FF 7F CF FF [FD BRS]
0.0156396 1 D9x Rx d 13 39 13 00 15 41 78 E1 09 A0 56 4D D3 4F [FD BRS]
0.0186628 1 E3x Rx d 9 41 00 00 08 01 42 31 50 52 [FD BRS]
0.0244781 1 DCx Rx d 13 39 10 00 16 66 78 EF AE 22 0A FA DC 3C [FD BRS]
0.0248594 1 18E19490x Rx d 15 02 84 00 64 64 64 01 00 00 00 D2 12 02 00 01 [FD BRS]
0.0285576 1 2Dx Rx d 14 0C BC E2 05 C4 09 00 90 70 97 58 A2 6F 52 [FD BRS]
0.0293588 1 DBx Rx d 14 39 0E 00 20 ED 3C DF 0B 38 80 83 1A 3F F7 [FD BRS]
0.0332300 1 D4x Rx d 10 39 0C 14 0C FF FF FF FF FD FF [FD BRS]
0.0346792 1 DBx Rx d 13 39 0F 00 15 BD 9C E0 20 FF FF 7F CF FF [FD BRS]
0.0350655 1 D9x Rx d 13 39 13 00 15 12 4A E2 09 A0 56 4D D2 4F [FD BRS]
0.0385497 1 E3x Rx d 9 41 00 00 08 02 34 39 37 E9 [FD BRS]
0.0444400 1 DCx Rx d 13 39 10 00 16 76 22 F0 AE 22 0A FA DC 3C [FD BRS]
0.0485602 1 2Dx Rx d 14 13 B5 E3 05 C4 09 00 90 70 97 58 A2 6F 52 [FD BRS]
0.0490845 1 D4x Rx d 8 39 04 06 04 AD 8F C8 84 [FD BRS]
0.0493587 1 DBx Rx d 14 39 0E 00 20 09 75 E0 0C 38 80 83 1A 3F F7 [FD BRS]
0.0034047 1 D4x Rx d 10 39 0C 14 0C FF FF FF FF FD FF [FD BRS]
0.0048659 1 DBx Rx d 13 39 0F 00 15 7B 81 C2 20 FF FF 7F CF FF [FD BRS]
0.0052532 1 D9x Rx d 13 39 13 00 15 7D 50 C4 08 A0 56 8D D3 4F [FD BRS]
0.0145465 1 DCx Rx d 13 39 10 00 16 0B 24 D2 AE 22 0A FA DC 3C [FD BRS]
0.0187457 1 2Dx Rx d 14 90 B0 C5 05 C4 09 00 90 70 97 58 A2 6F 52 [FD BRS]
0.0192701 1 D4x Rx d 8 39 04 06 04 06 E7 C2 84 [FD BRS]
0.0195442 1 DBx Rx d 14 39 0E 00 20 98 BD C2 0C 38 80 83 1A 3F F7 [FD BRS]
0.0233954 1 E3x Rx d 9 39 06 0B 08 00 11 11 18 00 [FD BRS]
0.0245666 1 18E19490x Rx d 15 03 00 00 89 01 89 01 28 00 2B 00 09 00 00 00 [FD BRS]
0.0252768 1 D9x Rx d 13 39 13 00 15 4F 1A C5 08 A0 56 CD D3 4F [FD BRS]
0.0256521 1 DBx Rx d 13 39 0F 00 15 99 91 C3 20 FF FF 7F CF FF [FD BRS]
0.0345364 1 DCx Rx d 13 39 10 00 16 2F 8C D3 AE 22 0A FA DC 3C [FD BRS]
0.0387526 1 2Dx Rx d 14 B1 AB C6 05 C4 09 00 90 70 97 58 A2 6F 52 [FD BRS]
0.0392770 1 E3x Rx d 13 00 80 00 04 F3 4E EB 00 39 04 22 08 00 [FD BRS]
0.0396511 1 DBx Rx d 14 39 0E 00 20 3E F3 C3 0B 38 80 83 1A 3F F7 [FD BRS]
0.0434733 1 D4x Rx d 12 39 FE 1D 08 59 40 62 01 40 02 00 00 [FD BRS]
0.0448557 1 D9x Rx d 14 39 13 00 15 82 96 C6 08 A0 56 4D D4 4F 10 [FD BRS]
0.0453689 1 DBx Rx d 13 39 0F 00 15 37 E3 C4 20 FF FF 7F CF FF [FD BRS]
0.0007752 1 DCx Rx d 13 39 10 00 16 5E AE B0 AE 22 0A FA DC 3C [FD BRS]
0.0011565 1 18E19490x Rx d 15 00 00 00 A5 55 55 55 55 05 00 00 00 00 00 00 [FD BRS]
0.0050768 1 2Dx Rx d 14 91 D2 A3 05 C4 09 00 90 70 97 58 A2 6F 52 [FD BRS]
0.0056001 1 E3x Rx d 13 00 80 00 04 1D 9A E4 00 39 04 22 08 00 [FD BRS]
0.0059753 1 DBx Rx d 14 39 0E 00 20 9D 92 A0 0C 38 80 83 1A 3F F7 [FD BRS]
0.0097675 1 D4x Rx d 14 39 04 0C 05 0E 0F F4 FF FF 39 15 01 14 44 [FD BRS]
0.0112427 1 DBx Rx d 13 39 0F 00 15 5B F4 A1 20 FF FF 7F CF FF [FD BRS]
0.0116280 1 D9x Rx d 14 39 13 00 15 9E 6E A3 08 A0 56 8D D4 4F 10 [FD BRS]
0.0207893 1 DCx Rx d 13 39 10 00 16 7A 06 B1 AE 22 0A FA DC 3C [FD BRS]
0.0250465 1 2Dx Rx d 14 CC ED A4 05 C4 09 00 90 70 97 58 A2 6F 52 [FD BRS]
0.0258137 1 DBx Rx d 15 39 0E 01 0F 78 35 FF FF FF FF FF FF FF 3F D3 [FD BRS]
0.0297039 1 E3x Rx d 9 41 00 05 08 01 FF 5C DE F9 [FD BRS]
0.0308100 1 18E19490x Rx d 15 01 02 00 4F 0D 5D 01 80 0C F1 00 BC 02 06 06 [FD BRS]
0.0315112 1 D9x Rx d 13 39 13 00 15 7B 14 A4 08 A0 56 8D D3 4F [FD BRS]
0.0318876 1 DBx Rx d 13 39 0F 00 15 7D C5 A2 20 FF FF 7F CF FF [FD BRS]
0.0407858 1 DCx Rx d 14 39 10 01 10 15 41 40 00 51 00 EE 46 0C 9C [FD BRS]
0.0450331 1 2Dx Rx d 14 D3 E4 A5 05 C4 09 00 90 70 97 58 A2 6F 52 [FD BRS]
0.0458022 1 DBx Rx d 14 39 0E 00 20 B5 DB A2 0C 38 80 83 1A 3F F7 [FD BRS]
0.0066306 1 DCx Rx d 13 39 10 00 16 D5 80 97 AE 22 0A FA DC 3C [FD BRS]
0.0109558 1 2Dx Rx d 14 B7 A0 8A 05 C4 09 00 90 70 97 58 A2 6F 52 [FD BRS]
0.0114792 1 E3x Rx d 13 00 80 00 04 EB A8 DF 00 39 04 22 08 00 [FD BRS]
0.0118553 1 DBx Rx d 14 39 FE 0B 08 61 00 00 00 01 00 00 00 39 0E [FD BRS]
0.0156725 1 D4x Rx d 9 39 04 0C 05 0E 0F F4 FF FF [FD BRS]
0.0169819 1 D9x Rx d 14 39 13 00 15 D1 3F 8A 09 A0 56 CD D3 4F 10 [FD BRS]
0.0174951 1 DBx Rx d 13 39 0F 00 15 AB 5F 88 20 FF FF 7F CF FF [FD BRS]
0.0218634 1 DC085D Rx d 8 40 02 00 00 00 00 00 00
0.0266396 1 DCx Rx d 13 39 10 00 16 CF F9 98 AE 22 0A FA DC 3C [FD BRS]
0.0270207 1 DBx Rx d 14 39 0E 02 2A 3E 00 49 00 65 0A D0 41 19 94 [FD BRS]
0.0275289 1 18E19490x Rx d 15 04 02 00 02 00 02 00 88 36 ED 0C 55 0D 22 01 [FD BRS]
0.0310131 1 2Dx Rx d 14 A8 A9 8B 05 C4 09 00 90 70 97 58 A2 6F 52 [FD BRS]
0.0317153 1 DBx Rx d 13 39 0E 01 0F 64 35 FF FF FF FF FF FF FF [FD BRS]
0.0356165 1 E3x Rx d 9 41 00 05 08 01 A7 42 62 C2 [FD BRS]
0.0366827 1 DCx Rx d 9 39 FE 6F 08 94 01 00 80 01 [FD BRS]
0.0370408 1 DBx Rx d 15 39 0E 00 20 2A 1E 88 0B 38 80 83 1A 3F F7 7F [FD BRS]
0.0376971 1 D9x Rx d 13 39 13 00 15 2C 60 8B 08 A0 56 0D D4 4F [FD BRS]
0.0466444 1 DCx Rx d 14 39 10 01 10 15 41 40 00 51 00 C6 12 0D 9C [FD BRS]
0.0471636 1 DBx Rx d 13 39 0E 04 10 5C E3 0B 4C 24 B4 DB FF 2F [FD BRS]
0.0022846 1 D4x Rx d 9 39 04 0C 05 0E 0F F4 FF FF [FD BRS]
0.0025559 1 4Fx Rx d 8 28 3E 0B 00 14 F8 55 E2 [FD BRS]
0.0036153 1 D9x Rx d 14 39 13 00 15 F9 A5 6C 08 A0 56 0D D5 4F 10 [FD BRS]
0.0041295 1 DBx Rx d 13 39 0F 00 15 61 CA 6A 20 FF FF 7F CF FF [FD BRS]
0.0131818 1 DCx Rx d 13 39 10 00 16 EB 7B 7A AE 22 0A FA DC 3C [FD BRS]
0.0135652 1 18E19490x Rx d 15 04 02 00 02 00 02 00 88 36 ED 0C 55 0D 22 01 [FD BRS]
0.0175654 1 2Dx Rx d 14 AD 04 6D 05 C4 09 00 90 70 97 58 A2 6F 52 [FD BRS]
0.0183315 1 DBx Rx d 15 39 0E 01 0F 64 35 FF FF FF FF FF FF FF 3F D3 [FD BRS]
0.0222367 1 E3x Rx d 9 41 00 05 08 01 04 ED C7 80 [FD BRS]
0.0235461 1 D9x Rx d 13 39 13 00 15 CE 03 6D 08 A0 56 8D D4 4F [FD BRS]
0.0239233 1 DBx Rx d 13 39 0F 00 15 83 DA 6B 20 FF FF 7F CF FF [FD BRS]
0.0331916 1 DCx Rx d 14 39 10 01 10 15 41 40 00 51 00 96 06 0C 9C [FD BRS]
0.0366398 1 44 Rx d 1 04
0.0375842 1 2Dx Rx d 14 8C 1F 6E 05 C4 09 00 90 70 97 58 A2 6F 52 [FD BRS]
0.0383303 1 DBx Rx d 14 39 0F 01 06 4D 85 04 60 20 12 39 0E 00 20 [FD BRS]
0.0422285 1 E3x Rx d 10 39 80 00 0C 00 FF C1 81 F7 2F [FD BRS]
0.0432027 1 18E19490x Rx d 15 00 00 00 A5 55 55 55 55 05 00 00 00 00 00 00 [FD BRS]
0.0439139 1 DBx Rx d 13 39 0F 00 15 2D A8 6C 20 FF FF 7F CF FF [FD BRS]
0.0446012 1 D9x Rx d 13 39 13 00 15 98 DD 6E 08 A0 56 4D D4 4F [FD BRS]
0.0032148 1 D4x Rx d 14 39 04 0C 05 0E 0F F4 FF FF 39 15 01 14 44 [FD BRS]
0.0044381 1 D9x Rx d 14 39 13 00 15 34 93 49 08 A0 56 4D D4 4F 10 [FD BRS]
0.0051123 1 DBx Rx d 13 39 0F 00 15 19 22 47 20 FF FF 7F CF FF [FD BRS]
0.0140496 1 DCx Rx d 13 39 10 00 16 8C 04 57 AE 22 0A FA DC 3C [FD BRS]
0.0184878 1 2Dx Rx d 14 31 08 4A 05 C4 09 00 90 70 97 58 A2 6F 52 [FD BRS]
0.0192670 1 DBx Rx d 15 39 0E 01 0F 64 35 FF FF FF FF FF FF FF 3F D3 [FD BRS]
0.0231471 1 E3x Rx d 12 41 00 05 08 01 87 DF A6 2F 84 59 3E [FD BRS]
0.0240813 1 18E19490x Rx d 15 01 02 00 4F 0D 5D 01 80 0C F1 00 BC 02 06 06 [FD BRS]
0.0247835 1 D9x Rx d 13 39 13 00 15 12 A2 4A 08 A0 56 4D D4 4F [FD BRS]
0.0251608 1 DBx Rx d 13 39 0F 00 15 A7 D7 48 20 FF FF 7F CF FF [FD BRS]
0.0340481 1 DCx Rx d 14 39 10 01 10 15 41 40 38 51 00 5E 06 0D 9C [FD BRS]
0.0385583 1 2Dx Rx d 14 2E 01 4B 05 C4 09 00 90 70 97 58 A2 6F 52 [FD BRS]
0.0392575 1 DBx Rx d 14 39 0E 00 20 42 B8 48 0C 38 80 83 1A 3F F7 [FD BRS]
0.0446318 1 DBx Rx d 13 39 0F 00 15 45 C7 49 20 FF FF 7F CF FF [FD BRS]
0.0458271 1 D9x Rx d 13 39 13 00 15 1B 0F 4B 08 A0 56 CD D3 4F [FD BRS]
0.0485863 1 E3x Rx d 9 41 00 00 08 01 42 31 50 52 [FD BRS]
0.0005083 1 D9x Rx d 14 39 FE 28 08 29 00 00 00 00 00 00 00 39 13 [FD BRS]
0.0010346 1 DBx Rx d 14 39 0E 00 20 6F DE 28 0C 38 80 83 1A 3F F7 [FD BRS]
0.0015558 1 E3x Rx d 13 00 80 00 04 90 28 CC 00 39 04 22 08 00 [FD BRS]
0.0051329 1 DBx Rx d 13 39 0F 00 15 43 83 29 20 FF FF 7F CF FF [FD BRS]
0.0098375 1 D9x Rx d 10 39 13 01 0B 57 AC 68 55 95 00 [FD BRS]
0.0143197 1 DCx Rx d 13 39 10 00 16 8E 1F 39 AE 22 0A FA DC 3C [FD BRS]
0.0188120 1 2Dx Rx d 14 30 6A 2C 05 C4 09 00 90 70 97 58 A2 6F 52 [FD BRS]
0.0197651 1 DBx Rx d 15 39 0E 01 0F 64 35 FF FF FF FF FF FF FF 3F D3 [FD BRS]
0.0234713 1 E3x Rx d 9 41 00 05 08 01 58 FD FA 81 [FD BRS]
0.0243405 1 18E19490x Rx d 15 01 02 00 4F 0D 5D 01 80 0C F1 00 BC 02 06 06 [FD BRS]
0.0250417 1 D9x Rx d 13 39 13 00 15 13 8C 2C 08 A0 56 4D D3 4F [FD BRS]
0.0254190 1 DBx Rx d 13 39 0F 00 15 65 B2 2A 20 FF FF 7F CF FF [FD BRS]
0.0334452 1 E3x Rx d 9 3E 80 01 08 C3 02 14 70 B9 [FD BRS]
0.0343184 1 DCx Rx d 14 39 10 01 10 15 41 40 32 51 00 2E 12 11 9C [FD BRS]
0.0387956 1 2Dx Rx d 14 2F 63 2D 05 C4 09 00 90 70 97 58 A2 6F 52 [FD BRS]
0.0397048 1 DBx Rx d 14 39 0E 00 20 88 26 2A 0C 38 80 83 1A 3F F7 [FD BRS]
0.0448531 1 DBx Rx d 13 39 0F 00 15 87 A2 2B 20 FF FF 7F CF FF [FD BRS]
0.0460124 1 D9x Rx d 13 39 13 00 15 CA 7B 2D 08 A0 56 8D D4 4F [FD BRS]
0.0048590 1 DCx Rx d 14 39 10 01 10 15 41 40 00 51 00 E6 42 0C 9C [FD BRS]
0.0085312 1 44 Rx d 1 04
0.0094756 1 2Dx Rx d 14 75 35 00 05 C4 09 00 90 70 97 58 A2 6F 52 [FD BRS]
0.0102407 1 DBx Rx d 14 39 0F 01 06 4D 85 04 60 80 1C 39 0E 00 20 [FD BRS]
0.0141249 1 E3x Rx d 10 39 80 00 0C 00 7F C1 81 F5 2F [FD BRS]
0.0156161 1 DBx Rx d 13 39 0F 00 15 E0 67 FE 20 FF FF 7F CF FF [FD BRS]
0.0166494 1 D9x Rx d 13 39 13 00 15 29 C1 00 08 A0 56 CD D3 4F [FD BRS]
0.0240976 1 E3x Rx d 9 3E 80 01 08 C3 02 14 60 B9 [FD BRS]
0.0249158 1 DCx Rx d 13 39 10 00 16 0F 12 0E AE 22 0A FA DC 3C [FD BRS]
0.0253001 1 18E19490x Rx d 15 02 84 00 64 64 64 01 00 00 00 82 12 02 00 01 [FD BRS]
0.0294864 1 2Dx Rx d 14 6A 3C 01 05 C4 09 00 90 70 97 58 A2 6F 52 [FD BRS]
0.0302345 1 DBx Rx d 14 39 0E 00 20 4F A0 FE 0C 38 80 83 1A 3F F7 [FD BRS]
0.0341037 1 D4x Rx d 10 39 0C 14 0C FF FF FF FF FD FF [FD BRS]
0.0355551 1 D9x Rx d 13 39 13 00 15 CB D1 01 08 A0 56 CD D3 4F [FD BRS]
0.0359313 1 DBx Rx d 13 39 0F 00 15 02 77 FF 20 FF FF 7F CF FF [FD BRS]
0.0448616 1 DCx Rx d 13 39 10 00 16 2B BA 0F AE 22 0A FA DC 3C [FD BRS]
0.0494438 1 2Dx Rx d 14 4B 27 02 05 C4 09 00 90 70 97 58 A2 6F 52 [FD BRS]
0.0499681 1 D4x Rx d 0  [FD]
0.0002136 1 D9x Rx d 13 39 13 00 15 9F FA E3 08 A0 56 4D D5 4F [FD BRS]
0.0091309 1 DCx Rx d 13 39 10 00 16 52 8A F1 AE 22 0A FA DC 3C [FD BRS]
0.0137811 1 2Dx Rx d 14 4E 8A E4 05 C4 09 00 90 70 97 58 A2 6F 52 [FD BRS]
0.0143075 1 D4x Rx d 8 39 04 06 04 10 C3 95 84 [FD BRS]
0.0144678 1 E3x Rx d 13 39 06 0B 08 00 11 11 18 00 00 D0 FF 05 [FD BRS]
0.0148510 1 DBx Rx d 14 39 0E 00 20 20 02 E1 0C 38 80 83 1A 3F F7 [FD BRS]
0.0191552 1 18E19490x Rx d 15 03 00 00 8C 01 8C 01 31 00 34 00 0A 00 00 00 [FD BRS]
0.0198664 1 D9x Rx d 13 39 13 00 15 34 64 E4 08 A0 56 8D D4 4F [FD BRS]
0.0202437 1 DBx Rx d 13 39 0F 00 15 79 BD E2 20 FF FF 7F CF FF [FD BRS]
0.0245730 1 21Cx Rx d 8 24 00 00 00 00 00 00 00 [FD BRS]
0.0291282 1 DCx Rx d 13 39 10 00 16 1F 62 F2 AE 22 0A FA DC 3C [FD BRS]
0.0337994 1 2Dx Rx d 14 51 83 E5 05 C4 09 00 90 70 97 58 A2 6F 52 [FD BRS]
0.0343277 1 E3x Rx d 13 00 80 00 04 8D 87 BE 00 39 04 22 08 00 [FD BRS]
0.0347049 1 DBx Rx d 14 39 0E 00 20 9C 6F E2 0C 38 80 83 1A 3F F7 [FD BRS]
0.0385061 1 D4x Rx d 14 39 04 0C 05 0E 0F F4 FF FF 39 15 01 14 44 [FD BRS]
0.0395955 1 D9x Rx d 14 39 13 00 15 4D 26 E5 08 A0 56 CD D3 4F 10 [FD BRS]
0.0402607 1 DBx Rx d 13 39 0F 00 15 9B AD E3 20 FF FF 7F CF FF [FD BRS]
0.0491359 1 DCx Rx d 13 39 10 00 16 3B CA F3 AE 22 0A FA DC 3C [FD BRS]
0.0018893 1 E3x Rx d 9 41 00 05 08 01 22 44 00 CA [FD BRS]
0.0029606 1 D9x Rx d 13 39 13 00 15 E5 A4 BE 08 A0 56 8D D4 4F [FD BRS]
0.0033398 1 DBx Rx d 13 39 0F 00 15 20 3E BC 20 FF FF 7F CF FF [FD BRS]
0.0124941 1 DCx Rx d 14 39 10 01 10 15 41 40 32 51 00 7E 06 0D 9C [FD BRS]
0.0130164 1 18E19490x Rx d 15 03 00 00 8B 01 8B 01 32 00 35 00 0B 00 00 00 [FD BRS]
0.0172107 1 2Dx Rx d 14 93 34 BF 05 C4 09 00 90 70 97 58 E2 6F 52 [FD BRS]
0.0181178 1 DBx Rx d 14 39 0E 00 20 3A 9C BC 0C 38 80 83 1A 3F F7 [FD BRS]
0.0232671 1 DBx Rx d 13 39 0F 00 15 C2 2E BD 20 FF FF 7F CF FF [FD BRS]
0.0243634 1 D9x Rx d 13 39 13 00 15 A7 01 BF 08 A0 56 0D D4 4F [FD BRS]
0.0325507 1 DCx Rx d 13 39 10 00 16 1B 7E CD AE 22 0A FA DC 3C [FD BRS]
0.0371949 1 2Dx Rx d 14 85 86 C0 05 C4 09 00 90 70 97 58 E2 6F 52 [FD BRS]
0.0381190 1 DBx Rx d 14 39 0E 00 20 AE B8 BD 0C 38 80 83 1A 3F F7 [FD BRS]
0.0418672 1 D4x Rx d 10 39 0C 14 0C FF FF FF FF FD FF [FD BRS]
0.0425264 1 18E19490x Rx d 15 04 02 00 02 00 02 00 88 36 EB 0C 55 0D 22 01 [FD BRS]
0.0432507 1 D9x Rx d 13 39 13 00 15 CE F4 C0 08 A0 56 4D D4 4F [FD BRS]
0.0436289 1 DBx Rx d 13 39 0F 00 15 E4 1F BE 20 FF FF 7F CF FF [FD BRS]
0.0028630 1 DCx Rx d 13 39 10 00 16 9C 74 AB AE 22 0A FA DC 3C [FD BRS]
0.0032423 1 18E19490x Rx d 15 01 02 00 4F 0D 5D 01 80 0C F1 00 BC 02 06 06 [FD BRS]
0.0076576 1 2Dx Rx d 14 4D 0E 9E 05 C4 09 00 90 70 97 58 E2 6F 52 [FD BRS]
0.0081800 1 D4x Rx d 8 39 04 06 04 DF 35 87 84 [FD BRS]
0.0083403 1 E3x Rx d 13 39 06 0B 08 00 11 11 18 00 00 D0 FF 05 [FD BRS]
0.0087225 1 DBx Rx d 14 39 0E 00 20 D2 B1 9B 0C 38 80 83 1A 3F F7 [FD BRS]
0.0135841 1 D9x Rx d 13 39 13 00 15 E2 74 9E 08 A0 56 4D D5 4F [FD BRS]
0.0139633 1 DBx Rx d 13 39 0F 00 15 22 02 9C 20 FF FF 7F CF FF [FD BRS]
0.0228045 1 DC08E2 Rx d 8 50 02 00 00 00 00 00 00
0.0230949 1 DCx Rx d 13 39 10 00 16 03 1C AC AE 22 0A FA DC 3C [FD BRS]
0.0276541 1 2Dx Rx d 14 52 07 9F 05 C4 09 00 90 70 97 58 E2 6F 52 [FD BRS]
0.0281785 1 E3x Rx d 13 00 80 00 04 D7 25 B0 00 39 04 22 08 00 [FD BRS]
0.0285536 1 DBx Rx d 14 39 0E 00 20 3E 4E 9C 0C 38 80 83 1A 3F F7 [FD BRS]
0.0323718 1 D4x Rx d 14 39 04 0C 05 0E 0F F4 FF FF 39 15 01 14 44 [FD BRS]
0.0330590 1 18E19490x Rx d 15 02 84 00 64 64 64 01 00 00 00 EE 12 02 00 01 [FD BRS]
0.0337721 1 D9x Rx d 14 39 13 00 15 D0 3E 9F 08 A0 56 0D D5 4F 10 [FD BRS]
0.0342875 1 DBx Rx d 13 39 0F 00 15 C0 12 9D 20 FF FF 7F CF FF [FD BRS]
0.0428588 1 DCx Rx d 13 39 10 00 16 27 B4 AD AE 22 0A FA DC 3C [FD BRS]
0.0476380 1 2Dx Rx d 14 C6 D2 A0 05 C4 09 00 90 70 97 58 E2 6F 52 [FD BRS]
0.0486101 1 DBx Rx d 15 39 0E 01 0F 6C 35 FF FF FF FF FF FF FF 3F D3 [FD BRS]
0.0021312 1 DCx Rx d 13 39 10 00 16 AC 9A 8A AE 22 0A FA DC 3C [FD BRS]
0.0025136 1 18E19490x Rx d 15 04 02 00 02 00 02 00 88 36 ED 0C 55 0D 22 01 [FD BRS]
0.0069638 1 2Dx Rx d 14 2B 8E 7D 05 C4 09 00 90 70 97 58 E2 6F 52 [FD BRS]
0.0079290 1 DBx Rx d 15 39 0E 01 0F 6C 35 FF FF FF FF FF FF FF 3F D3 [FD BRS]
0.0116282 1 E3x Rx d 9 41 00 05 08 01 50 E5 97 BC [FD BRS]
0.0126125 1 D9x Rx d 13 39 13 00 15 CF 1D 7D 08 A0 56 8D D4 4F [FD BRS]
0.0130627 1 DBx Rx d 13 39 0F 00 15 82 C4 7B 20 FF FF 7F CF FF [FD BRS]
0.0177790 1 21Cx Rx d 15 22 00 00 00 00 00 00 00 00 00 00 00 00 00 00 [FD BRS]
0.0221472 1 DCx Rx d 14 39 10 01 10 15 41 40 30 51 00 16 16 0D 9C [FD BRS]
0.0260224 1 44 Rx d 1 04
0.0269688 1 2Dx Rx d 14 0A 95 7E 05 C4 09 00 90 70 97 58 E2 6F 52 [FD BRS]
0.0278750 1 DBx Rx d 14 39 0F 01 06 4D 85 04 60 80 1C 39 0E 00 20 [FD BRS]
0.0316332 1 E3x Rx d 10 39 80 00 0C 00 7F EF 81 F2 2F [FD BRS]
0.0321384 1 18E19490x Rx d 15 00 00 00 A5 55 55 55 55 05 00 00 00 00 00 00 [FD BRS]
0.0330246 1 DBx Rx d 13 39 0F 00 15 2C B6 7C 20 FF FF 7F CF FF [FD BRS]
0.0340049 1 D9x Rx d 13 39 13 00 15 EC C0 7E 08 A0 56 4D D5 4F [FD BRS]
0.0415842 1 E3x Rx d 8 3A 02 00 04 F4 FF FF FF [FD BRS]
0.0422813 1 DCx Rx d 13 39 10 00 16 17 5A 8C AE 22 0A FA DC 3C [FD BRS]
0.0469375 1 2Dx Rx d 14 15 9C 7F 05 C4 09 00 90 70 97 58 E2 6F 52 [FD BRS]
0.0478677 1 DBx Rx d 14 39 0E 00 20 60 50 7C 0C 38 80 83 1A 3F F7 [FD BRS]
0.0484030 1 21Cx Rx d 15 23 00 00 00 00 00 00 00 00 00 00 00 00 00 00 [FD BRS]
0.0005741 1 DCx Rx d 13 39 10 00 16 C5 F0 6B AE 22 0A FA DC 3C [FD BRS]
0.0054543 1 2Dx Rx d 14 CB A6 5E 05 C4 09 00 90 70 97 58 E2 6F 52 [FD BRS]
0.0059796 1 E3x Rx d 13 00 80 00 04 AC A5 A3 00 39 04 22 08 00 [FD BRS]
0.0063808 1 DBx Rx d 14 39 FE 0B 08 61 00 00 00 01 00 00 00 39 0E [FD BRS]
0.0101690 1 D4x Rx d 9 39 04 0C 05 0E 0F F4 FF FF [FD BRS]
0.0110723 1 D9x Rx d 14 39 13 00 15 EB 10 5E 08 A0 56 8D D4 4F 10 [FD BRS]
0.0115875 1 DBx Rx d 13 39 0F 00 15 2E 8A 5C 20 FF FF 7F CF FF [FD BRS]
0.0163778 1 DC085D Rx d 8 40 02 00 00 00 00 00 00
0.0205740 1 DCx Rx d 13 39 10 00 16 5A 98 6C AE 22 0A FA DC 3C [FD BRS]
0.0209553 1 18E19490x Rx d 15 04 02 00 02 00 02 00 7E 36 ED 0C 55 0D 22 01 [FD BRS]
0.0216805 1 DBx Rx d 14 39 0E 02 2A 3E 00 49 00 65 0A D0 41 19 94 [FD BRS]
0.0254707 1 2Dx Rx d 14 D4 AF 5F 05 C4 09 00 90 70 97 58 E2 6F 52 [FD BRS]
0.0263748 1 DBx Rx d 13 39 0E 01 0F 64 35 FF FF FF FF FF FF FF [FD BRS]
0.0301020 1 E3x Rx d 9 41 00 05 08 01 F0 D3 E0 50 [FD BRS]
0.0305852 1 DCx Rx d 9 39 FE 6F 08 94 01 00 80 01 [FD BRS]
0.0310975 1 D9x Rx d 13 39 13 00 15 0C EC 5F 08 A0 56 4D D5 4F [FD BRS]
0.0314757 1 DBx Rx d 15 39 0E 00 20 64 82 5C 0C 38 80 83 1A 3F F7 7F [FD BRS]
0.0405850 1 DCx Rx d 14 39 10 01 10 15 41 40 00 51 00 E6 42 0C 9C [FD BRS]
0.0414482 1 DBx Rx d 13 39 0E 04 10 5C E3 0B 4C 24 B4 DB FF 2F [FD BRS]
0.0445344 1 44 Rx d 1 04
0.0454767 1 2Dx Rx d 14 40 7A 60 05 C4 09 00 90 70 97 58 E2 6F 52 [FD BRS]
0.0463729 1 DBx Rx d 14 39 0E 00 20 F0 A6 5D 0C 38 80 83 1A 3F F7 [FD BRS]
0.0005357 1 2Dx Rx d 14 FE E9 3E 05 C4 09 00 90 70 97 58 A2 6F 52 [FD BRS]
0.0015119 1 DBx Rx d 14 39 0E 00 20 A5 1B 3B 0C 38 80 83 1A 3F F7 [FD BRS]
0.0052011 1 D4x Rx d 10 39 0C 14 0C FF FF FF FF FD FF [FD BRS]
0.0060944 1 D9x Rx d 13 39 13 00 15 A7 E7 3E 08 A0 56 0D D6 4F [FD BRS]
0.0066486 1 DBx Rx d 13 39 0F 00 15 28 CE 3C 20 FF FF 7F CF FF [FD BRS]
0.0155999 1 DCx Rx d 13 39 10 00 16 4E DE 4C AE 22 0A FA DC 3C [FD BRS]
0.0205351 1 2Dx Rx d 14 97 FB 3F 05 C4 09 00 90 70 97 58 E2 6F 52 [FD BRS]
0.0210614 1 D4x Rx d 8 39 04 06 04 4E 31 74 84 [FD BRS]
0.0213066 1 DBx Rx d 14 39 0E 00 20 EE C0 3C 0C 48 80 83 1A 3F F7 [FD BRS]
0.0251908 1 E3x Rx d 9 39 06 0B 08 00 11 11 18 00 [FD BRS]
0.0256020 1 18E19490x Rx d 15 03 00 00 8E 01 8E 01 38 00 3B 00 0C 00 00 00 [FD BRS]
0.0263133 1 D9x Rx d 13 39 13 00 15 AA 1D 3F 08 A0 56 CD D5 4F [FD BRS]
0.0268055 1 DBx Rx d 13 39 0F 00 15 CA DE 3D 20 FF FF 7F CF FF [FD BRS]
0.0355977 1 DCx Rx d 13 39 10 00 16 6A 76 4D AE 22 0A FA DC 3C [FD BRS]
0.0405430 1 2Dx Rx d 14 F7 52 40 05 C4 09 00 90 70 97 58 A2 6F 52 [FD BRS]
0.0410673 1 E3x Rx d 13 00 80 00 04 1F 2B 9D 00 39 04 22 08 00 [FD BRS]
0.0414435 1 DBx Rx d 14 39 0E 00 20 7A E4 3D 0C 48 80 83 1A 3F F7 [FD BRS]
0.0452587 1 D4x Rx d 9 39 04 0C 05 0E 0F F4 FF FF [FD BRS]
0.0455241 1 4Fx Rx d 8 28 B5 0F 00 14 FC EA 63 [FD BRS]
0.0462434 1 D9x Rx d 14 39 13 00 15 63 5D 40 08 A0 56 0D D5 4F 10 [FD BRS]
0.0467736 1 DBx Rx d 13 39 0F 00 15 EC EF 3E 20 FF FF 7F CF FF [FD BRS]
0.0015285 1 E3x Rx d 8 3A 02 00 04 F4 FF FF FF [FD BRS]
0.0020497 1 DCx Rx d 13 39 10 00 16 A0 94 28 AE 22 0A FA DC 3C [FD BRS]
0.0068719 1 2Dx Rx d 14 2A EC 1B 05 C4 09 00 90 70 97 58 E2 6F 52 [FD BRS]
0.0078860 1 DBx Rx d 14 39 0E 00 20 BA 80 18 0C 48 80 83 1A 3F F7 [FD BRS]
0.0084193 1 21Cx Rx d 15 22 00 00 00 00 00 00 00 00 00 00 00 00 00 00 [FD BRS]
0.0116075 1 D4x Rx d 10 39 0C 14 0C FF FF FF FF FD FF [FD BRS]
0.0118487 1 18E19490x Rx d 15 04 02 00 02 00 02 00 88 36 ED 0C 55 0D 22 01 [FD BRS]
0.0127330 1 D9x Rx d 13 39 13 00 15 F0 38 1B 08 A0 56 8D D5 4F [FD BRS]
0.0131122 1 DBx Rx d 13 39 0F 00 15 40 A1 19 20 FF FF 7F CF FF [FD BRS]
0.0218735 1 DCx Rx d 13 39 10 00 16 84 3C 29 AE 22 0A FA DC 3C [FD BRS]
0.0268917 1 2Dx Rx d 14 01 C8 1C 05 C4 09 00 90 70 97 58 A2 6F 52 [FD BRS]
0.0274181 1 D4x Rx d 8 39 04 06 04 9E D9 6D 84 [FD BRS]
0.0275774 1 E3x Rx d 13 39 06 0B 08 00 11 11 18 00 00 D0 FF 05 [FD BRS]
0.0279596 1 DBx Rx d 14 39 0E 00 20 2E A4 19 0C 48 80 83 1A 3F F7 [FD BRS]
0.0324172 1 D9x Rx d 13 39 13 00 15 5E 4A 1C 08 A0 56 8D D5 4F [FD BRS]
0.0331653 1 DBx Rx d 13 39 0F 00 15 66 90 1A 20 FF FF 7F CF FF [FD BRS]
0.0377196 1 21Cx Rx d 15 23 00 00 00 00 00 00 00 00 00 00 00 00 00 00 [FD BRS]
0.0418758 1 DCx Rx d 13 39 10 00 16 C9 D4 2A AE 22 0A FA DC 3C [FD BRS]
0.0422571 1 18E19490x Rx d 15 00 00 00 A5 55 55 55 55 05 00 00 00 00 00 00 [FD BRS]
0.0470224 1 2Dx Rx d 14 1E C1 1D 05 C4 09 00 90 70 97 58 A2 6F 52 [FD BRS]
0.0475457 1 E3x Rx d 13 00 80 00 04 00 35 96 00 39 04 22 08 00 [FD BRS]
0.0479239 1 DBx Rx d 14 39 0E 00 20 92 C9 1A 0C 48 80 83 1A 3F F7 [FD BRS]
0.0000042 1 F9x Rx d 0  [FD]
0.0003555 1 DBx Rx d 13 39 0E 01 0F 64 35 FF FF FF FF FF FF FF [FD BRS]
0.0042787 1 E3x Rx d 9 41 00 05 08 01 0D E9 8D 69 [FD BRS]
0.0044709 1 DCx Rx d 9 39 FE 6F 08 94 01 00 80 01 [FD BRS]
0.0051332 1 D9x Rx d 13 39 13 00 15 8E 63 FB 08 A0 56 4D D5 4F [FD BRS]
0.0057784 1 DBx Rx d 15 39 0E 00 20 E4 9E F8 0C 48 80 83 1A 3F F7 7F [FD BRS]
0.0145537 1 DCx Rx d 14 39 10 01 10 15 41 40 38 51 00 46 06 10 9C [FD BRS]
0.0150740 1 18E19490x Rx d 15 03 00 00 8F 01 8F 01 3B 00 3E 00 0D 00 00 00 [FD BRS]
0.0157862 1 DBx Rx d 13 39 0E 04 10 5C E3 0B 4C 24 B4 DB FF 2F [FD BRS]
0.0187124 1 44 Rx d 1 04
0.0197627 1 2Dx Rx d 14 30 48 FC 05 C4 09 00 90 70 97 58 E2 6F 52 [FD BRS]
0.0203489 1 DBx Rx d 14 39 0E 00 20 D7 9E F9 0C 38 80 83 1A 3F F7 [FD BRS]
0.0242721 1 E3x Rx d 10 39 80 00 0C 00 7F F2 81 EC 2F [FD BRS]
0.0258282 1 DBx Rx d 13 39 0F 00 15 68 24 FA 20 FF FF 7F CF FF [FD BRS]
0.0264745 1 D9x Rx d 13 39 13 00 15 20 11 FC 08 A0 56 4D D5 4F [FD BRS]
0.0346248 1 DCx Rx d 13 39 10 00 16 DD 92 0A AE 22 0A FA DC 3C [FD BRS]
0.0395930 1 2Dx Rx d 14 2F 41 FD 05 C4 09 00 90 70 97 58 E2 6F 52 [FD BRS]
0.0403511 1 DBx Rx d 14 39 0E 00 20 6B F3 FA 0C 38 80 83 1A 3F F7 [FD BRS]
0.0442813 1 D4x Rx d 10 39 0C 14 0C FF FF FF FF FD FF [FD BRS]
0.0445205 1 18E19490x Rx d 15 04 02 00 02 00 02 00 88 36 ED 0C 55 0D 22 01 [FD BRS]
0.0454708 1 D9x Rx d 13 39 13 00 15 03 CF FD 08 A0 57 CD D5 4F [FD BRS]
0.0458510 1 DBx Rx d 13 39 0F 00 15 8A 34 FB 20 FF FF 7F CF FF [FD BRS]
0.0029559 1 D4x Rx d 9 39 04 0C 05 0E 0F F4 FF FF [FD BRS]
0.0031730 1 18E19490x Rx d 15 02 84 00 64 64 64 01 00 00 00 B0 12 02 00 01 [FD BRS]
0.0038852 1 4Fx Rx d 8 28 0A 0B 00 15 02 46 EF [FD BRS]
0.0040506 1 D9x Rx d 14 39 13 00 15 A3 DC DC 09 A0 56 0D D4 4F 10 [FD BRS]
0.0046227 1 DBx Rx d 13 39 0F 00 15 6A 18 DA 20 FF FF 7F CF FF [FD BRS]
0.0131060 1 DCx Rx d 13 39 10 00 16 90 50 EA AE 22 0A FA DC 3C [FD BRS]
0.0182312 1 2Dx Rx d 14 98 69 DD 05 C4 09 00 90 70 97 58 A2 6F 52 [FD BRS]
0.0189904 1 DBx Rx d 15 39 0E 01 0F 6C 35 FF FF FF FF FF FF FF 3F D3 [FD BRS]
0.0228996 1 E3x Rx d 9 41 00 05 08 01 5B BE 8C 0A [FD BRS]
0.0236860 1 D9x Rx d 13 39 13 00 15 AA 71 DD 09 A0 56 8D D3 4F [FD BRS]
0.0245021 1 DBx Rx d 13 39 0F 00 15 88 08 DB 20 FF FF 7F CF FF [FD BRS]
0.0331244 1 DCx Rx d 14 39 10 01 10 15 41 40 30 51 00 16 16 0D 9C [FD BRS]
0.0336458 1 18E19490x Rx d 15 03 00 00 89 01 89 01 3C 00 3F 00 0D 00 00 00 [FD BRS]
0.0372970 1 44 Rx d 1 04
0.0383174 1 2Dx Rx d 14 B9 72 DE 05 C4 09 00 90 70 97 58 A2 6F 52 [FD BRS]
0.0389895 1 DBx Rx d 14 39 0F 01 06 4D 85 04 60 80 1C 39 0E 00 20 [FD BRS]
0.0429048 1 E3x Rx d 10 39 80 00 0C 00 7F F2 81 EA 2F [FD BRS]
0.0444599 1 DBx Rx d 13 39 0F 00 15 26 7A DC 20 FF FF 7F CF FF [FD BRS]
0.0448462 1 D9x Rx d 13 39 13 00 15 48 62 DE 09 A0 57 CD D2 4F [FD BRS]
0.0008200 1 2Dx Rx d 14 B8 10 B8 05 C4 09 00 90 70 97 58 A2 6F 52 [FD BRS]
0.0013444 1 D4x Rx d 8 39 04 06 04 86 3F 59 84 [FD BRS]
0.0015048 1 E3x Rx d 13 39 06 0B 08 00 11 11 18 00 00 D0 FF 05 [FD BRS]
0.0018869 1 DBx Rx d 14 39 0E 00 20 7E 7D B5 0C 48 80 83 1A 3F F6 [FD BRS]
0.0055661 1 18E19490x Rx d 15 03 00 00 88 01 88 01 3E 00 41 00 0E 00 00 00 [FD BRS]
0.0062804 1 D9x Rx d 13 39 13 00 15 86 C1 B8 0A A0 56 4D CE 4F [FD BRS]
0.0071256 1 DBx Rx d 13 39 0F 00 15 F4 98 B6 20 FF FF 7F CF FF [FD BRS]
0.0156198 1 DCx Rx d 13 39 10 00 16 D3 87 C6 AE 22 0A FA DC 3C [FD BRS]
0.0208351 1 2Dx Rx d 14 A7 19 B9 05 C4 09 00 90 70 97 58 A2 6F 52 [FD BRS]
0.0213574 1 E3x Rx d 13 00 80 00 04 56 E4 82 00 39 04 22 08 00 [FD BRS]
0.0217336 1 DBx Rx d 14 39 0E 00 20 C2 10 B6 0C 48 80 83 1A 3F F6 [FD BRS]
0.0222609 1 21Cx Rx d 8 24 00 00 00 00 00 00 00 [FD BRS]
0.0255321 1 D4x Rx d 14 39 04 0C 05 0E 0F F4 FF FF 39 15 01 14 44 [FD BRS]
0.0263934 1 D9x Rx d 14 39 13 00 15 64 D1 B9 0A A0 56 4D CE 4F 10 [FD BRS]
0.0273586 1 DBx Rx d 13 39 0F 00 15 16 88 B7 20 FF FF 7F CF FF [FD BRS]
0.0356219 1 DCx Rx d 13 39 10 00 16 F7 2F C7 AE 22 0A FA DC 3C [FD BRS]
0.0360022 1 18E19490x Rx d 15 04 02 00 02 00 02 00 88 36 ED 0C 55 0D 22 01 [FD BRS]
0.0408325 1 2Dx Rx d 14 86 02 BA 05 C4 09 00 90 70 97 58 A2 6F 52 [FD BRS]
0.0415816 1 DBx Rx d 15 39 0E 01 0F 64 35 FF FF FF FF FF FF FF 3F D3 [FD BRS]
0.0454908 1 E3x Rx d 12 41 00 05 08 01 2D 6F BD 02 C4 46 ED [FD BRS]
0.0462721 1 D9x Rx d 13 39 13 00 15 92 BA BA 0A A0 56 0D CE 4F [FD BRS]
0.0471043 1 DBx Rx d 13 39 0F 00 15 A8 7D B8 20 FF FF 7F CF FF [FD BRS]
0.0009128 1 D4x Rx d 14 39 04 0C 05 0E 0F F4 FF FF 39 15 01 14 44 [FD BRS]
0.0014439 1 4Fx Rx d 8 28 5F 08 00 32 CE 83 27 [FD BRS]
0.0016093 1 18E19490x Rx d 15 02 84 00 64 64 64 01 00 00 00 57 12 02 00 01 [FD BRS]
0.0023196 1 D9x Rx d 14 39 13 00 15 99 80 91 0A A0 56 8D CD 4F 10 [FD BRS]
0.0028328 1 DBx Rx d 13 39 0F 00 15 05 2D 8F 20 FF FF 7F CF FF [FD BRS]
0.0109240 1 DCx Rx d 13 39 10 00 16 50 91 9F AE 22 0A FA DC 3C [FD BRS]
0.0161893 1 2Dx Rx d 14 BF 79 92 05 C4 09 00 90 70 97 58 A2 6F 52 [FD BRS]
0.0169694 1 DBx Rx d 15 39 0E 01 0F 70 35 FF FF FF FF FF FF FF 3F D3 [FD BRS]
0.0209346 1 E3x Rx d 9 41 00 05 08 01 8B 48 39 26 [FD BRS]
0.0214590 1 D9x Rx d 13 39 13 00 15 7E 7F 92 0A A0 57 0D CD 4F [FD BRS]
0.0224792 1 DBx Rx d 13 39 0F 00 15 BA C6 90 20 FF FF 7F CF FF [FD BRS]
0.0309424 1 DCx Rx d 14 39 10 01 10 15 41 40 00 51 00 9E 06 0C 9C [FD BRS]
0.0314648 1 18E19490x Rx d 15 03 00 00 8C 01 8C 01 3F 00 43 00 0F 00 00 00 [FD BRS]
0.0361960 1 2Dx Rx d 14 A0 70 93 05 C4 09 00 90 70 97 58 A2 6F 52 [FD BRS]
0.0369591 1 DBx Rx d 14 39 0E 00 20 BE 19 90 0C 48 80 83 1A 3F F6 [FD BRS]
0.0414447 1 D9x Rx d 13 39 13 00 15 FD 14 93 0A A0 56 0D CD 4F [FD BRS]
0.0424679 1 DBx Rx d 13 39 0F 00 15 58 D6 91 20 FF FF 7F CF FF [FD BRS]
0.0000019 1 F489249 Rx d 2 49 24
0.0034953 1 D4x Rx d 10 39 0C 14 0C FF FF FF FF FD FF [FD BRS]
0.0044246 1 D9x Rx d 13 39 13 00 15 A2 1A 6C 0A A0 56 4D CB 4F [FD BRS]
0.0051248 1 DBx Rx d 13 39 0F 00 15 61 CA 6A 20 FF FF 7F CF FF [FD BRS]
0.0135071 1 DCx Rx d 13 39 10 00 16 EB 7B 7A AE 22 0A FA DC 3C [FD BRS]
0.0188353 1 2Dx Rx d 14 AD 04 6D 05 C4 09 00 90 70 97 58 A2 6F 52 [FD BRS]
0.0193607 1 D4x Rx d 8 39 04 06 04 FD BF 4A 84 [FD BRS]
0.0197918 1 DBx Rx d 14 39 0E 00 20 84 40 6A 0C 48 80 83 1A 3F F6 [FD BRS]
0.0234460 1 18E19490x Rx d 15 03 00 00 8A 01 8A 01 41 00 45 00 0F 00 00 00 [FD BRS]
0.0241582 1 D9x Rx d 13 39 13 00 15 30 E5 6D 0A A0 56 8D CB 4F [FD BRS]
0.0245365 1 E3x Rx d 9 39 06 0B 08 00 11 11 18 00 [FD BRS]
0.0250416 1 DBx Rx d 13 39 0F 00 15 83 DA 6B 20 FF FF 7F CF FF [FD BRS]
0.0335079 1 DCx Rx d 13 39 10 00 16 CF D3 7B AE 22 0A FA DC 3C [FD BRS]
0.0388481 1 2Dx Rx d 14 8C 1F 6E 05 C4 09 00 90 70 97 58 A2 6F 52 [FD BRS]
0.0393735 1 E3x Rx d 13 00 80 00 04 AF 0D 73 00 39 04 22 08 00 [FD BRS]
0.0397496 1 DBx Rx d 14 39 0E 00 20 10 64 6B 0C 48 80 83 1A 3F F6 [FD BRS]
0.0435678 1 D4x Rx d 12 39 FE 1D 08 59 40 62 01 40 02 00 00 [FD BRS]
0.0442261 1 D9x Rx d 14 39 13 00 15 FD 69 6E 0A A0 56 0D CC 4F 10 [FD BRS]
0.0451733 1 DBx Rx d 13 39 0F 00 15 2D A8 6C 20 FF FF 7F CF FF [FD BRS]
0.0061652 1 DCx Rx d 14 39 10 01 10 15 41 40 32 51 00 2E 12 0D 9C [FD BRS]
0.0114794 1 2Dx Rx d 14 8A C7 4D 04 C4 09 00 90 70 97 58 A2 6F 52 [FD BRS]
0.0123936 1 DBx Rx d 14 39 0E 00 20 CD 20 4A 0C 48 80 83 1A 3F F3 [FD BRS]
0.0176349 1 DBx Rx d 13 39 0F 00 15 81 E6 4B 20 FF FF 7F CF FF [FD BRS]
0.0180222 1 D9x Rx d 13 39 13 00 15 63 ED 4D 0C A0 56 CD BA 4F [FD BRS]
0.0262304 1 DCx Rx d 13 39 10 00 16 DB 95 5B AE 22 0A FA DC 3C [FD BRS]
0.0266108 1 18E19490x Rx d 15 02 84 00 64 64 64 01 00 00 00 67 12 02 00 01 [FD BRS]
0.0314890 1 2Dx Rx d 14 AB DC 4E 04 C4 09 00 90 70 97 58 A2 6F 52 [FD BRS]
0.0323942 1 DBx Rx d 14 39 0E 00 20 96 57 4B 0C 48 80 83 1A 3F F3 [FD BRS]
0.0361594 1 D4x Rx d 10 39 0C 14 0C FF FF FF FF FD FF [FD BRS]
0.0370287 1 D9x Rx d 13 39 13 00 15 34 49 4E 0C A0 56 0D BA 4F [FD BRS]
0.0376689 1 DBx Rx d 13 39 0F 00 15 2F 94 4C 20 FF FF 7F CF FF [FD BRS]
0.0461561 1 DCx Rx d 13 39 10 00 16 44 FD 5C AE 22 0A FA DC 3C [FD BRS]
0.0000005 1 0 Rx d 0 
0.0079420 1 DCx Rx d 14 39 10 01 10 15 41 40 00 51 00 FE 42 10 9C [FD BRS]
0.0134072 1 2Dx Rx d 14 F7 81 2F 04 C4 09 00 90 70 97 58 A2 6F 52 [FD BRS]
0.0143283 1 DBx Rx d 14 39 0E 00 20 23 FA 2C 0C 48 80 83 1A 3F F7 [FD BRS]
0.0195569 1 D9x Rx d 13 39 13 00 15 0B B6 2F 08 A0 56 4D D5 4F [FD BRS]
0.0199331 1 DBx Rx d 13 39 0F 00 15 CB C0 2D 20 FF FF 7F CF FF [FD BRS]
0.0280214 1 DCx Rx d 13 39 10 00 16 5C 9F 3D AE 22 0A FA DC 3C [FD BRS]
0.0284027 1 18E19490x Rx d 15 02 84 00 64 64 64 01 00 00 00 68 12 02 00 01 [FD BRS]
0.0334179 1 2Dx Rx d 14 A2 67 30 04 C4 09 00 90 70 97 58 A2 6F 52 [FD BRS]
0.0343311 1 DBx Rx d 14 39 0E 00 20 B7 DE 2D 0C 48 80 83 1A 3F F7 [FD BRS]
0.0380983 1 D4x Rx d 10 39 0C 14 0C FF FF FF FF FD FF [FD BRS]
0.0389216 1 D9x Rx d 13 39 13 00 15 B1 B1 30 08 A0 56 8D D4 4F [FD BRS]
0.0396068 1 DBx Rx d 13 39 0F 00 15 ED F1 2E 20 FF FF 7F CF FF [FD BRS]
0.0479371 1 DCx Rx d 13 39 10 00 16 EE 4F 3E AE 22 0A FA DC 40 [FD BRS]
0.0000398 1 4Fx Rx d 8 20 50 03 A0 00 49 A2 2F [FD BRS]
0.0044432 1 2Dx Rx d 14 5D 46 12 04 C4 09 00 90 70 97 58 A2 6F 52 [FD BRS]
0.0053613 1 DBx Rx d 14 39 0E 00 20 6D 83 0F 0C 48 80 83 1A 3F F8 [FD BRS]
0.0091195 1 D4x Rx d 10 39 0C 14 0C FF FF FF FF FD FF [FD BRS]
0.0099049 1 D9x Rx d 13 39 13 00 15 D6 4E 12 08 A0 57 0D D7 4F [FD BRS]
0.0106351 1 DBx Rx d 13 39 0F 00 15 B2 36 10 20 FF FF 7F CF FF [FD BRS]
0.0189043 1 DCx Rx d 13 39 10 00 16 DA BD 20 AE 22 0A FA DC 40 [FD BRS]
0.0244435 1 2Dx Rx d 14 42 4F 13 04 C4 09 00 90 70 97 58 A2 6F 52 [FD BRS]
0.0249699 1 D4x Rx d 8 39 04 06 04 E0 10 38 84 [FD BRS]
0.0254211 1 DBx Rx d 14 39 0E 00 20 02 21 10 0C 48 80 83 1A 3F F8 [FD BRS]
0.0289253 1 18E19490x Rx d 15 03 00 00 8A 01 8A 01 45 00 49 00 11 00 00 00 [FD BRS]
0.0296355 1 E3x Rx d 9 39 06 0B 08 00 11 11 18 00 [FD BRS]
0.0298308 1 D9x Rx d 13 39 13 00 15 44 B1 13 08 A0 57 CD D7 4F [FD BRS]
0.0306690 1 DBx Rx d 13 39 0F 00 15 50 26 11 20 FF FF 7F CF FF [FD BRS]
0.0389093 1 DCx Rx d 13 39 10 00 16 01 2D 21 AE 22 0A FA DC 3C [FD BRS]
0.0444495 1 2Dx Rx d 14 1F 70 14 04 C4 09 00 90 70 97 58 A2 6F 52 [FD BRS]
0.0449738 1 E3x Rx d 13 00 80 00 04 60 FB 61 00 39 04 22 08 00 [FD BRS]
0.0453570 1 DBx Rx d 14 39 0E 00 20 96 05 11 0C 48 80 83 1A 3F F8 [FD BRS]
0.0491602 1 D4x Rx d 9 39 04 0C 05 0E 0F F4 FF FF [FD BRS]
0.0494315 1 4Fx Rx d 8 28 43 03 00 15 09 3D 27 [FD BRS]
0.0003305 1 D9x Rx d 13 39 13 00 15 35 2E F5 08 A0 57 8D D8 4F [FD BRS]
0.0010967 1 DBx Rx d 13 39 0F 00 15 9A B3 F3 20 FF FF 7F CF FF [FD BRS]
0.0049299 1 E3x Rx d 9 41 00 00 08 03 70 52 C6 0D [FD BRS]
0.0092601 1 DCx Rx d 13 39 10 00 16 7C 2B 03 AE 22 0A FA DC 3C [FD BRS]
0.0148603 1 2Dx Rx d 14 66 F9 F6 04 C4 09 00 90 70 97 58 A2 6F 52 [FD BRS]
0.0153867 1 E3x Rx d 14 41 00 02 08 02 C8 E2 EC 25 99 2E E8 00 80 [FD BRS]
0.0159018 1 DBx Rx d 14 39 0E 00 20 94 93 F3 0C 48 80 83 1A 3F F8 [FD BRS]
0.0195700 1 D4x Rx d 9 39 04 0C 05 0E 0F F4 FF FF [FD BRS]
0.0203573 1 D9x Rx d 14 39 13 00 15 20 56 F6 08 A0 57 CD D7 4F 10 [FD BRS]
0.0211065 1 DBx Rx d 13 39 0F 00 15 34 C1 F4 20 FF FF 7F CF FF [FD BRS]
0.0292468 1 DCx Rx d 13 39 10 00 16 E3 43 04 AE 22 0A FA DC 3C [FD BRS]
0.0296281 1 18E19490x Rx d 15 04 02 00 02 00 02 00 7E 36 ED 0C 56 0D 22 01 [FD BRS]
0.0348623 1 2Dx Rx d 14 79 F0 F7 04 C4 09 00 90 70 97 58 A2 6F 52 [FD BRS]
0.0357804 1 DBx Rx d 15 39 0E 01 0F 7C 35 FF FF FF FF FF FF FF 3F D3 [FD BRS]
0.0396396 1 E3x Rx d 9 41 00 05 08 01 C4 2B 1B 9B [FD BRS]
0.0403180 1 D9x Rx d 13 39 13 00 15 C2 46 F7 08 A0 57 CD D7 4F [FD BRS]
0.0410582 1 DBx Rx d 13 39 0F 00 15 D6 D1 F5 20 FF FF 7F CF FF [FD BRS]
0.0492725 1 DCx Rx d 14 39 10 01 10 15 41 40 00 51 00 A6 42 0C 9C [FD BRS]
0.0028620 1 DCx Rx d 14 39 10 01 10 15 41 40 30 51 00 76 06 0C 9C [FD BRS]
0.0075752 1 44 Rx d 1 04
0.0085256 1 2Dx Rx d 14 23 A6 DA 04 C4 09 00 90 70 97 58 A2 6F 52 [FD BRS]
0.0094338 1 DBx Rx d 14 39 0F 01 06 4D 85 04 60 9C 1E 39 0E 00 20 [FD BRS]
0.0128780 1 18E19490x Rx d 15 00 00 00 A5 55 55 55 55 05 00 00 00 00 00 00 [FD BRS]
0.0135872 1 E3x Rx d 10 39 80 00 0C 00 FF E5 81 CF 2F [FD BRS]
0.0146355 1 D9x Rx d 13 39 13 00 15 C3 54 DA 08 A0 57 0D DA 4F [FD BRS]
0.0150147 1 DBx Rx d 13 39 0F 00 15 AE 39 D8 20 FF FF 7F CF FF [FD BRS]
0.0228960 1 DCx Rx d 13 39 10 00 16 06 28 E8 AE 22 0A FA DC 40 [FD BRS]
0.0232792 1 E3x Rx d 9 3E 80 01 08 C3 02 14 60 B9 [FD BRS]
0.0284836 1 2Dx Rx d 14 3C AF DB 04 C4 09 00 90 70 97 58 A2 6F 52 [FD BRS]
0.0294257 1 DBx Rx d 14 39 0E 00 20 AD 18 D8 0C 48 80 83 1A 3F F8 [FD BRS]
0.0331719 1 D4x Rx d 10 39 0C 14 0C FF FF FF FF FD FF [FD BRS]
0.0339152 1 D9x Rx d 13 39 13 00 15 F1 1E DB 08 A0 57 4D DA 4F [FD BRS]
0.0347024 1 DBx Rx d 13 39 0F 00 15 4C 29 D9 20 FF FF 7F CF FF [FD BRS]
0.0428417 1 DCx Rx d 13 39 10 00 16 22 80 E9 AE 22 0A FA DC 40 [FD BRS]
0.0432240 1 18E19490x Rx d 15 01 02 00 50 0D 5D 01 80 0C F1 00 BC 02 06 06 [FD BRS]
0.0485212 1 2Dx Rx d 14 61 90 DC 04 C4 09 00 90 70 97 58 A2 6F 52 [FD BRS]
0.0490456 1 D4x Rx d 8 39 04 06 04 02 B7 2D 84 [FD BRS]
0.0492059 1 E3x Rx d 13 39 06 0B 08 00 11 11 18 00 00 D0 FF 05 [FD BRS]
0.0079039 1 DCx Rx d 14 39 10 01 10 15 41 40 38 51 00 46 06 0C 9C [FD BRS]
0.0126601 1 44 Rx d 1 04
0.0136644 1 2Dx Rx d 14 22 C4 BC 04 C4 09 00 90 70 97 58 A2 6F 52 [FD BRS]
0.0144306 1 DBx Rx d 14 39 0F 01 06 4D 85 04 60 2C 21 39 0E 00 20 [FD BRS]
0.0149479 1 21Cx Rx d 15 22 00 00 00 00 00 00 00 00 00 00 00 00 00 00 [FD BRS]
0.0179221 1 18E19490x Rx d 15 00 00 00 A5 55 55 55 55 05 00 00 00 00 00 00 [FD BRS]
0.0186303 1 E3x Rx d 10 39 80 00 0C 00 FF E5 81 C7 2F [FD BRS]
0.0196917 1 D9x Rx d 13 39 13 00 15 96 E7 BC 07 A0 57 CD DB 4F [FD BRS]
0.0200698 1 DBx Rx d 13 39 0F 00 15 6C 5C BA 20 FF FF 7F CF FF [FD BRS]
0.0279391 1 DCx Rx d 13 39 10 00 16 7B 2E CA AE 22 0A FA DC 40 [FD BRS]
0.0283203 1 E3x Rx d 8 3A 02 00 04 F4 FF FF FF [FD BRS]
0.0335917 1 2Dx Rx d 14 3D CD BD 04 C4 09 00 90 70 97 58 A2 6F 52 [FD BRS]
0.0345858 1 DBx Rx d 14 39 0E 00 20 38 F7 BA 0D 48 80 83 1A 3F F9 [FD BRS]
0.0383140 1 D4x Rx d 10 39 0C 14 0C FF FF FF FF FD FF [FD BRS]
0.0389633 1 D9x Rx d 13 39 13 00 15 3A 13 BD 07 A0 57 0D DD 4F [FD BRS]
0.0398115 1 DBx Rx d 13 39 0F 00 15 8E 4C BB 20 FF FF 7F CF FF [FD BRS]
0.0445287 1 21Cx Rx d 15 23 00 00 00 00 00 00 00 00 00 00 00 00 00 00 [FD BRS]
0.0478869 1 DCx Rx d 13 39 10 00 16 5F 86 CB AE 22 0A FA DC 40 [FD BRS]
0.0482683 1 18E19490x Rx d 15 01 02 00 4F 0D 5C 01 80 0C F1 00 BC 02 06 06 [FD BRS]
0.0004100 1 D9x Rx d 13 39 13 00 15 E9 0F 9D 07 A0 57 4D DD 4F [FD BRS]
0.0012742 1 DBx Rx d 15 39 0E 00 20 81 76 9A 0D 48 80 83 1A 3F F9 7F [FD BRS]
0.0093804 1 DCx Rx d 14 39 10 01 10 15 41 40 30 51 00 16 16 11 9C [FD BRS]
0.0113076 1 DBx Rx d 13 39 0E 04 10 5C E3 0B 4C 24 B4 DB FF 2F [FD BRS]
0.0142408 1 44 Rx d 1 04
0.0151791 1 2Dx Rx d 14 DD E5 9E 04 C4 09 00 90 70 97 58 A2 6F 52 [FD BRS]
0.0160763 1 DBx Rx d 14 39 0E 00 20 15 52 9B 0D 48 80 83 1A 3F F9 [FD BRS]
0.0194045 1 18E19490x Rx d 15 00 00 00 A5 55 55 55 55 05 00 00 00 00 00 00 [FD BRS]
0.0201137 1 E3x Rx d 10 39 80 00 0C 00 7F C1 81 C1 2F [FD BRS]
0.0211781 1 D9x Rx d 13 39 13 00 15 CF 3E 9E 07 A0 57 4D DD 4F [FD BRS]
0.0215563 1 DBx Rx d 13 39 0F 00 15 22 02 9C 20 FF FF 7F CF FF [FD BRS]
0.0294185 1 DCx Rx d 13 39 10 00 16 03 1C AC AE 22 0A FA DC 3C [FD BRS]
0.0351278 1 2Dx Rx d 14 C2 EC 9F 04 C4 09 00 90 70 97 58 A2 6F 52 [FD BRS]
0.0360789 1 DBx Rx d 14 39 0E 00 20 44 FE 9C 0D 48 80 83 1A 3F F9 [FD BRS]
0.0398221 1 D4x Rx d 10 39 0C 14 0C FF FF FF FF FD FF [FD BRS]
0.0404935 1 D9x Rx d 13 39 13 00 15 FD 74 9F 07 A0 57 0D DD 4F [FD BRS]
0.0413536 1 DBx Rx d 13 39 0F 00 15 C0 12 9D 20 FF FF 7F CF FF [FD BRS]
0.0493639 1 DCx Rx d 13 39 10 00 16 27 B4 AD AE 22 0A FA DC 3C [FD BRS]
0.0049348 1 2Dx Rx d 14 88 03 81 04 C4 09 00 90 70 97 58 A2 6F 52 [FD BRS]
0.0058800 1 DBx Rx d 14 39 0E 00 20 8F FA 7E 0D 48 80 83 1A 3F F9 [FD BRS]
0.0096192 1 D4x Rx d 10 39 0C 14 0C FF FF FF FF FD FF [FD BRS]
0.0102245 1 D9x Rx d 13 39 13 00 15 9A D3 81 07 A0 57 4D DF 4F [FD BRS]
0.0111556 1 DBx Rx d 13 39 0F 00 15 0A 87 7F 20 FF FF 7F CF FF [FD BRS]
0.0191689 1 DCx Rx d 13 39 10 00 16 B1 17 8F 8E 22 0A FA DC 40 [FD BRS]
0.0195533 1 18E19490x Rx d 15 01 02 00 50 0D 5C 01 80 0C F1 00 BC 02 06 06 [FD BRS]
0.0249685 1 2Dx Rx d 14 A9 18 82 04 C4 09 00 90 70 97 58 A2 6F 52 [FD BRS]
0.0254949 1 D4x Rx d 8 39 04 06 04 72 BC 1B 84 [FD BRS]
0.0256552 1 E3x Rx d 13 39 06 0B 08 00 11 11 18 00 00 D0 FF 05 [FD BRS]
0.0260364 1 DBx Rx d 14 39 0E 00 20 1B DE 7F 0D 48 80 83 1A 3F F9 [FD BRS]
0.0299569 1 D9x Rx d 13 39 13 00 15 CC 0D 82 07 A0 57 8D DF 4F [FD BRS]
0.0312441 1 DBx Rx d 13 39 0F 00 15 BB D8 80 20 FF FF 7F CF FF [FD BRS]
0.0391863 1 DCx Rx d 13 39 10 00 16 5E 75 90 8E 22 0A FA DC 3C [FD BRS]
0.0449625 1 2Dx Rx d 14 B6 11 83 04 C4 09 00 90 70 97 58 A2 6F 52 [FD BRS]
0.0454859 1 E3x Rx d 13 00 80 00 04 6B 70 44 00 39 04 22 08 00 [FD BRS]
0.0458780 1 DBx Rx d 14 39 0E 00 20 2A 62 80 0D 48 80 83 1A 3F F9 [FD BRS]
0.0492892 1 18E19490x Rx d 15 02 84 00 64 64 64 01 00 02 27 55 02 02 00 01 [FD BRS]
0.0005219 1 DCx Rx d 13 39 10 00 16 EC 8F 70 8E 22 0A FA DC 40 [FD BRS]
0.0014191 1 4Fx Rx d 8 20 75 0C A0 00 49 A2 2B [FD BRS]
0.0063245 1 2Dx Rx d 14 F1 8A 63 04 C4 09 00 90 70 97 58 A2 6F 52 [FD BRS]
0.0068478 1 DC085B Rx d 8 40 03 08 00 00 00 00 00
0.0072900 1 DBx Rx d 14 39 0E 00 20 74 7C 60 0D 48 80 83 1A 3F F9 [FD BRS]
0.0110032 1 D4x Rx d 10 39 0C 14 0C FF FF FF FF FD FF [FD BRS]
0.0113825 1 D9x Rx d 13 39 13 00 15 67 A4 63 06 A0 57 4D E0 4F [FD BRS]
0.0126147 1 DBx Rx d 13 39 0F 00 15 57 7C 61 20 FF FF 7F CF FF [FD BRS]
0.0204279 1 DCx Rx d 13 39 10 00 16 C8 27 71 8E 22 0A FA DC 40 [FD BRS]
0.0208103 1 18E19490x Rx d 15 01 02 00 50 0D 5D 01 80 0C F1 00 BC 02 06 06 [FD BRS]
0.0263545 1 2Dx Rx d 14 AC B5 64 04 C4 09 00 90 70 97 58 A2 6F 52 [FD BRS]
0.0268789 1 D4x Rx d 8 39 04 06 04 28 1E 15 84 [FD BRS]
0.0270392 1 E3x Rx d 13 39 06 0B 08 00 11 11 18 00 00 D0 FF 05 [FD BRS]
0.0274234 1 DBx Rx d 14 39 0E 00 20 E0 58 61 0D 48 80 83 1A 3F F9 [FD BRS]
0.0312469 1 D9x Rx d 13 39 13 00 15 C9 D6 64 06 A0 57 4D E0 4F [FD BRS]
0.0326350 1 DBx Rx d 13 39 0F 00 15 71 4D 62 20 FF FF 7F CF FF [FD BRS]
0.0404423 1 DCx Rx d 13 39 10 00 16 85 CF 72 8E 22 0A FA DC 40 [FD BRS]
0.0463515 1 2Dx Rx d 14 B3 BC 65 04 C4 09 00 90 70 97 58 A2 6F 52 [FD BRS]
0.0468759 1 E3x Rx d 13 00 80 00 04 B5 5A 3E 00 39 04 22 08 00 [FD BRS]
0.0472670 1 DBx Rx d 14 39 0E 00 20 5C 35 62 0D 48 80 83 1A 3F F9 [FD BRS]
0.0062765 1 DCx Rx d 13 39 10 00 16 B5 21 53 8E 22 0A FA DC 40 [FD BRS]
0.0066578 1 18E19490x Rx d 15 01 02 00 50 0D 5C 01 80 0C F1 00 BC 02 06 06 [FD BRS]
0.0122680 1 2Dx Rx d 14 53 94 46 04 C4 09 00 90 70 97 58 A2 6F 52 [FD BRS]
0.0127914 1 D4x Rx d 8 39 04 06 04 24 6D 0F 84 [FD BRS]
0.0129527 1 E3x Rx d 13 39 06 0B 08 00 11 11 18 00 00 D0 FF 05 [FD BRS]
0.0133339 1 DBx Rx d 14 39 0E 00 20 F7 AD 43 0D 48 80 83 1A 3F FA [FD BRS]
0.0171734 1 D9x Rx d 13 39 13 00 15 6F E7 46 06 A0 57 4D E3 4F [FD BRS]
0.0185476 1 DBx Rx d 13 39 0F 00 15 3F 13 44 20 FF FF 7F CF FF [FD BRS]
0.0262408 1 DC08E2 Rx d 8 50 02 00 00 00 00 00 00
0.0265312 1 DCx Rx d 13 39 10 00 16 2A 49 54 8E 22 0A FA DC 40 [FD BRS]
0.0322624 1 2Dx Rx d 14 4C 9D 47 04 C4 09 00 90 70 97 58 A2 6F 52 [FD BRS]
0.0327858 1 E3x Rx d 13 00 80 00 04 2C 7D 38 00 39 04 22 08 00 [FD BRS]
0.0331779 1 DBx Rx d 14 39 0E 00 20 1B 52 44 0D 48 80 83 1A 3F FA [FD BRS]
0.0363951 1 18E19490x Rx d 15 02 84 00 64 64 64 01 00 04 27 56 02 02 00 01 [FD BRS]
0.0371053 1 D4x Rx d 14 39 04 0C 05 0E 0F F4 FF FF 39 15 01 14 44 [FD BRS]
0.0376346 1 D9x Rx d 14 39 13 00 15 16 A5 47 06 A0 57 0D E4 4F 10 [FD BRS]
0.0385098 1 DBx Rx d 13 39 0F 00 15 DD 03 45 20 FF FF 7F CF FF [FD BRS]
0.0462791 1 DCx Rx d 13 39 10 00 16 0E E1 55 8E 22 0A FA DC 40 [FD BRS]
0.0049249 1 DCx Rx d 14 39 10 01 10 55 41 40 38 51 10 5E 06 5D 9D [FD BRS]
0.0054443 1 18E19490x Rx d 15 03 6C 06 2A 22 83 D2 4D 00 51 00 16 00 00 00 [FD BRS]
0.0109975 1 2Dx Rx d 14 8B A5 2B 04 C4 09 00 90 70 97 58 A2 6F 52 [FD BRS]
0.0117257 1 DBx Rx d 14 39 0E 00 20 DC FC 28 0D 48 80 83 1A 3F F9 [FD BRS]
0.0166692 1 D9x Rx d 13 39 13 00 15 0E 0A 2B 07 A0 57 CD DD 4F [FD BRS]
0.0172374 1 DBx Rx d 13 39 0F 00 15 43 83 29 20 FF FF 7F CF FF [FD BRS]
0.0210096 1 E3x Rx d 9 41 00 00 08 01 42 31 50 52 [FD BRS]
0.0249748 1 DCx Rx d 13 39 10 00 16 65 BA 39 8E 22 0A FA DC 40 [FD BRS]
0.0308880 1 2Dx Rx d 14 D6 9A 2C 04 C4 09 00 90 70 97 58 A2 6F 52 [FD BRS]
0.0318422 1 DBx Rx d 14 39 0E 00 20 48 D8 29 0D 48 80 83 1A 3F F9 [FD BRS]
0.0349414 1 18E19490x Rx d 15 04 02 00 02 00 02 00 7E 36 EB 0C 56 0D 22 01 [FD BRS]
0.0356676 1 D4x Rx d 10 39 0C 14 0C FF FF FF FF FD FF [FD BRS]
0.0360850 1 D9x Rx d 13 39 13 00 15 70 22 2C 07 A0 57 8D DD 4F [FD BRS]
0.0372081 1 DBx Rx d 13 39 0F 00 15 65 B2 2A 20 FF FF 7F CF FF [FD BRS]
0.0409043 1 E3x Rx d 9 41 00 00 08 02 34 39 37 7D [FD BRS]
0.0449385 1 DCx Rx d 13 39 10 00 16 28 52 3A 8E 22 0A FA DC 40 [FD BRS]
0.0002525 1 2Dx Rx d 14 55 9F 0A 04 C4 09 00 90 70 97 58 A2 6F 52 [FD BRS]
0.0007779 1 D4x Rx d 8 39 04 06 04 16 22 03 84 [FD BRS]
0.0009392 1 E3x Rx d 13 39 06 0B 08 00 11 11 18 00 C0 CF FF 05 [FD BRS]
0.0013223 1 DBx Rx d 14 39 0E 00 20 43 30 07 0D 48 80 83 1A 3F F8 [FD BRS]
0.0050698 1 D9x Rx d 13 39 13 00 15 01 0D 0A 07 A0 57 8D DB 4F [FD BRS]
0.0065390 1 DBx Rx d 13 39 0F 00 15 A3 AF 08 20 FF FF 7F CF FF [FD BRS]
0.0142192 1 DCx Rx d 13 39 10 00 16 55 54 18 8E 22 0A FA DC 40 [FD BRS]
0.0202125 1 D4x Rx d 14 39 04 0C 05 0E 0F F4 FF FF 39 0C 16 08 FF [FD BRS]
0.0207368 1 2Dx Rx d 14 4A 96 0B 04 C4 09 00 90 70 97 58 A2 6F 52 [FD BRS]
0.0212610 1 D4x Rx d 15 39 0C 08 3C FE 74 00 80 00 00 08 6C 55 BB 3D [FD BRS]
0.0219163 1 D9x Rx d 14 39 FE 28 08 29 00 00 00 00 00 00 00 39 13 [FD BRS]
0.0224407 1 DBx Rx d 14 39 0E 00 20 2E FB 08 0D 48 80 83 1A 3F F8 [FD BRS]
0.0229618 1 E3x Rx d 13 00 80 00 04 7A AC 2C 00 39 04 22 08 00 [FD BRS]
0.0243300 1 18E19490x Rx d 15 02 84 00 64 64 64 01 00 02 27 56 02 02 00 01 [FD BRS]
0.0266932 1 DBx Rx d 13 39 0F 00 15 41 BF 09 20 FF FF 7F CF FF [FD BRS]
0.0303007 1 D9x Rx d 10 39 13 01 0B 57 AC 48 55 95 00 [FD BRS]
0.0342089 1 DCx Rx d 13 39 10 00 16 71 FC 19 8E 22 0A FA DC 40 [FD BRS]
0.0402411 1 2Dx Rx d 14 17 A9 0C 04 C4 09 00 90 70 97 58 A2 6F 52 [FD BRS]
0.0411793 1 DBx Rx d 15 39 0E 01 0F 84 35 FF FF FF FF FF FF FF 3F D3 [FD BRS]
0.0449685 1 E3x Rx d 9 41 00 05 08 01 49 3E B0 10 [FD BRS]
0.0451638 1 D9x Rx d 13 39 13 00 15 82 A0 0C 08 A0 57 0D DA 4F [FD BRS]
0.0465190 1 DBx Rx d 13 39 0F 00 15 67 8E 0A 20 FF FF 7F CF FF [FD BRS]
0.0026629 1 D9x Rx d 13 39 13 00 15 31 CF EE 08 A0 57 CD D7 4F [FD BRS]
0.0030431 1 E3x Rx d 9 41 00 05 08 01 46 BA FE 74 [FD BRS]
0.0042793 1 DBx Rx d 13 39 0F 00 15 25 58 EC 20 FF FF 7F CF FF [FD BRS]
0.0118726 1 DCx Rx d 14 39 10 01 10 55 41 40 00 51 10 FE 46 5D 9D [FD BRS]
0.0123929 1 18E19490x Rx d 15 03 6D 06 38 22 75 D2 4F 00 53 00 18 00 00 00 [FD BRS]
0.0179871 1 2Dx Rx d 14 07 32 EF 04 C4 09 00 90 70 97 58 E2 6F 52 [FD BRS]
0.0189263 1 DBx Rx d 14 39 0E 00 20 54 B6 EC 0D 48 80 83 1A 3F F8 [FD BRS]
0.0236549 1 D9x Rx d 13 39 13 00 15 E0 96 EF 08 A0 57 8D D8 4F [FD BRS]
0.0242100 1 DBx Rx d 13 39 0F 00 15 C7 48 ED 20 FF FF 7F CF FF [FD BRS]
0.0319713 1 DCx Rx d 13 39 10 00 16 EE BE FD 8E 22 0A FA DC 40 [FD BRS]
0.0379635 1 2Dx Rx d 14 52 D4 F0 04 C4 09 00 90 70 97 58 E2 6F 52 [FD BRS]
0.0389287 1 DBx Rx d 14 39 0E 00 20 B4 53 ED 0D 48 80 83 1A 3F F8 [FD BRS]
0.0418499 1 18E19490x Rx d 15 04 02 00 02 00 02 00 88 36 ED 0C 56 0D 22 01 [FD BRS]
0.0426591 1 D4x Rx d 10 39 0C 14 0C FF FF FF FF FD FF [FD BRS]
0.0428984 1 D9x Rx d 13 39 13 00 15 5A 91 F0 08 A0 57 4D D9 4F [FD BRS]
0.0442586 1 DBx Rx d 13 39 0F 00 15 E1 79 EE 20 FF FF 7F CF FF [FD BRS]
0.0001099 1 2Dx Rx d 14 E5 FC D0 04 C4 09 00 90 70 97 58 A2 6F 52 [FD BRS]
0.0010470 1 DBx Rx d 15 39 0E 01 0F 84 35 FF FF FF FF FF FF FF 3F D3 [FD BRS]
0.0047582 1 E3x Rx d 12 41 00 05 08 01 84 1F A4 44 D3 D8 2C [FD BRS]
0.0050615 1 D9x Rx d 13 39 13 00 15 2D 0A D0 04 A0 57 8D EC 4F [FD BRS]
0.0063867 1 DBx Rx d 13 39 0F 00 15 E3 45 CE 20 FF FF 7F CF FF [FD BRS]
0.0140200 1 DCx Rx d 14 39 10 01 10 55 41 40 00 51 10 CE 02 5D 9D [FD BRS]
0.0145383 1 18E19490x Rx d 15 03 6C 06 31 22 7A D2 50 00 54 00 19 00 00 00 [FD BRS]
0.0200925 1 2Dx Rx d 14 FA F5 D1 04 C4 09 00 90 70 97 58 A2 6F 52 [FD BRS]
0.0210376 1 DBx Rx d 14 39 0E 00 20 95 87 CE 0D 58 80 83 1A 3F FB [FD BRS]
0.0257302 1 D9x Rx d 13 39 13 00 15 F6 C6 D1 05 A0 58 4D EC 4F [FD BRS]
0.0263214 1 DBx Rx d 13 39 0F 00 15 01 55 CF 20 FF FF 7F CF FF [FD BRS]
0.0340196 1 DCx Rx d 13 39 10 00 16 93 B8 DF 8E 22 0A FA DC 40 [FD BRS]
0.0400728 1 2Dx Rx d 14 DB EE D2 04 C4 09 00 90 70 97 58 A2 6F 52 [FD BRS]
0.0410409 1 DBx Rx d 14 39 0E 00 20 01 A3 CF 0D 58 80 83 1A 3F FB [FD BRS]
0.0438871 1 18E19490x Rx d 15 04 03 00 02 00 02 00 88 36 ED 0C 56 0D 22 01 [FD BRS]
0.0447614 1 D4x Rx d 10 39 0C 14 0C FF FF FF FF FD FF [FD BRS]
0.0451687 1 D9x Rx d 13 39 13 00 15 00 AD D2 05 A0 58 0D EC 4F [FD BRS]
0.0463978 1 DBx Rx d 13 39 0F 00 15 BE BE D0 20 FF FF 7F CF FF [FD BRS]
0.0008138 1 2Dx Rx d 14 B9 A1 B1 04 C4 09 00 90 70 97 58 A2 6F 52 [FD BRS]
0.0013361 1 E3x Rx d 13 00 80 00 04 0A A7 1A 00 39 04 22 08 00 [FD BRS]
0.0017963 1 DBx Rx d 14 39 0E 00 20 DD 78 AE 0E 58 80 83 1A 3F FF [FD BRS]
0.0046255 1 18E19490x Rx d 15 02 84 00 64 64 64 01 00 02 27 55 02 03 00 01 [FD BRS]
0.0055137 1 D4x Rx d 14 39 04 0C 05 0E 0F F4 FF FF 39 15 01 14 44 [FD BRS]
0.0060430 1 D9x Rx d 14 39 13 00 15 39 FC B1 01 A0 58 CD FE 4F 10 [FD BRS]
0.0070881 1 DBx Rx d 13 39 0F 00 15 07 11 AF 20 FF FF 7F CF FF [FD BRS]
0.0145954 1 DCx Rx d 13 39 10 00 16 AF 72 BF 8E 22 0A FA DC 40 [FD BRS]
0.0207976 1 2Dx Rx d 14 98 BA B2 04 C4 09 00 90 70 97 58 A2 6F 52 [FD BRS]
0.0217598 1 DBx Rx d 15 39 0E 01 0F 84 35 FF FF FF FF FF FF FF 3F D3 [FD BRS]
0.0254540 1 E3x Rx d 9 41 00 05 08 01 8B 5D 8E C4 [FD BRS]
0.0256473 1 D9x Rx d 13 39 13 00 15 BF 78 B2 01 A0 58 4D FE 4F [FD BRS]
0.0270985 1 DBx Rx d 13 39 0F 00 15 B8 FA B0 20 FF FF 7F CF FF [FD BRS]
0.0346377 1 DCx Rx d 14 39 10 01 10 55 41 40 00 51 10 9E 16 5D 9D [FD BRS]
0.0351601 1 18E19490x Rx d 15 03 6C 06 33 22 82 D2 51 00 55 00 1A 00 00 00 [FD BRS]
0.0408033 1 2Dx Rx d 14 87 B3 B3 04 C4 09 00 90 70 97 58 A2 6F 52 [FD BRS]
0.0417995 1 DBx Rx d 14 39 0E 00 20 8C C1 B0 0D 58 80 83 1A 3F FF [FD BRS]
0.0463970 1 D9x Rx d 13 39 13 00 15 2D 87 B3 01 A0 58 8D FE 4F [FD BRS]
0.0470302 1 DBx Rx d 13 39 0F 00 15 5A EA B1 20 FF FF 7F CF FF [FD BRS]
0.0018175 1 18E19490x Rx d 15 02 84 00 64 64 64 01 00 03 27 56 02 02 00 01 [FD BRS]
0.0027397 1 D4x Rx d 14 39 04 0C 05 0E 0F F4 FF FF 39 15 01 14 44 [FD BRS]
0.0032690 1 D9x Rx d 14 39 13 00 15 AC A8 93 03 A0 58 8D F0 8F 10 [FD BRS]
0.0045462 1 DBx Rx d 13 39 0F 00 15 58 D6 91 20 FF FF 7F CF FF [FD BRS]
0.0118164 1 DCx Rx d 13 39 10 00 16 89 D4 A1 0E 22 0A FA DC 40 [FD BRS]
0.0180056 1 2Dx Rx d 14 1B BF 94 04 C4 09 00 90 70 97 58 A2 6F 52 [FD BRS]
0.0189908 1 DBx Rx d 15 39 0E 01 0F 84 35 FF FF FF FF FF FF FF 3F D3 [FD BRS]
0.0226843 1 D9x Rx d 13 39 13 00 15 5D A0 94 04 A0 58 CD F2 6F [FD BRS]
0.0230665 1 E3x Rx d 12 41 00 05 08 01 54 11 B8 57 22 2F E3 [FD BRS]
0.0243696 1 DBx Rx d 13 39 0F 00 15 7E E7 92 20 FF FF 7F CF FF [FD BRS]
0.0318539 1 DCx Rx d 14 39 10 01 10 55 41 40 30 51 10 6E 06 5C 9D [FD BRS]
0.0323732 1 18E19490x Rx d 15 03 6D 06 39 22 55 D2 54 00 58 00 1B 00 00 00 [FD BRS]
0.0381615 1 2Dx Rx d 14 04 B6 95 04 C4 09 00 90 70 97 58 A2 6F 52 [FD BRS]
0.0388826 1 DBx Rx d 14 39 0E 00 20 EF F5 92 0D 58 80 83 1A 3F FC [FD BRS]
0.0435952 1 D9x Rx d 13 39 13 00 15 97 DB 95 04 A0 58 4D F3 6F [FD BRS]
0.0443914 1 DBx Rx d 13 39 0F 00 15 9C F7 93 20 FF FF 7F CF FF [FD BRS]
0.0480796 1 E3x Rx d 9 41 00 00 08 01 42 31 50 52 [FD BRS]
