date 2025-01-01 00:00:00.000
base hex  timestamps absolute
no internal events logged

0.0000006 1 A27658B Rx d 2 49 24
0.0023288 1 DBx Rx d 14 39 0E 00 20 1B 79 71 0D 58 80 83 1A 3F 29 [FD BRS]
0.0070801 1 DBx Rx d 13 39 0F 00 15 56 62 71 20 FF FF 7F CF FF [FD BRS]
0.0078513 1 2Dx Rx d 14 02 41 92 04 C4 09 00 90 70 97 58 62 46 52 [FD BRS]
0.0083726 1 D4x Rx d 8 39 04 06 04 DC 9D 57 84 [FD BRS]
0.0085320 1 D9x Rx d 13 39 13 00 15 B4 6D 70 08 A0 58 4D DD 0F [FD BRS]
0.0089092 1 E3x Rx d 11 00 80 00 04 74 6E 4F 00 41 00 05 [FD BRS]
0.0095873 1 DCx Rx d 14 39 10 01 10 55 40 3F 00 52 10 E9 46 E9 9C [FD BRS]
0.0223403 1 DBx Rx d 14 39 0E 00 20 A7 14 72 0D 58 80 83 1A 3F 29 [FD BRS]
0.0270836 1 DBx Rx d 13 39 0F 00 15 70 53 72 20 FF FF 7F CF FF [FD BRS]
0.0278238 1 2Dx Rx d 14 1D 48 93 04 C4 09 00 90 70 97 58 62 46 52 [FD BRS]
0.0283432 1 D9x Rx d 13 39 13 00 15 3C EB 71 07 A0 58 8D DD 0F [FD BRS]
0.0294914 1 DCx Rx d 13 39 10 00 16 DB 96 71 0E A2 21 00 23 58 [FD BRS]
0.0298737 1 18E19490x Rx d 15 02 84 00 64 64 64 01 00 03 27 54 02 02 00 00 [FD BRS]
0.0327229 1 E3x Rx d 9 39 04 22 08 00 3C 06 7E 78 [FD BRS]
0.0377693 1 D4x Rx d 12 39 04 0C 05 0E 0F F4 FF FF 39 FE 1D [FD BRS]
0.0423464 1 DBx Rx d 15 39 0E 01 0F 6C 35 FF FF FF FF FF FF FF 1F D3 [FD BRS]
0.0470997 1 DBx Rx d 13 39 0F 00 15 92 43 73 20 FF FF 7F CF FF [FD BRS]
0.0478289 1 2Dx Rx d 14 40 77 94 04 C4 09 00 90 70 97 58 62 46 52 [FD BRS]
0.0483502 1 D9x Rx d 13 39 13 00 15 6A 35 72 07 A0 58 4D DD 0F [FD BRS]
0.0495184 1 DCx Rx d 13 39 10 00 16 96 7E 72 0E A2 21 00 23 58 [FD BRS]
0.0005154 1 2Dx Rx d 14 31 27 6E 04 C4 09 00 90 70 97 58 62 46 52 [FD BRS]
0.0017597 1 D9x Rx d 14 39 13 01 0B 58 BA 58 55 95 00 FE 03 BA FF [FD BRS]
0.0022729 1 DCx Rx d 13 39 10 00 16 B6 CA 4C 0E A2 21 00 23 58 [FD BRS]
0.0053681 1 E3x Rx d 9 41 00 05 08 00 80 03 43 CD [FD BRS]
0.0150222 1 DBx Rx d 14 39 0E 00 20 BF B8 4E 0D 58 80 83 1A 3F 29 [FD BRS]
0.0197734 1 DBx Rx d 13 39 0F 00 15 EB B5 4E 20 FF FF 7F CF FF [FD BRS]
0.0205276 1 2Dx Rx d 14 2E 2E 6F 04 C4 09 00 90 70 97 58 62 46 52 [FD BRS]
0.0210469 1 D4x Rx d 8 39 04 06 04 F1 CC 50 84 [FD BRS]
0.0212063 1 D9x Rx d 13 39 13 00 15 BD 74 4D 08 A0 58 8D DD 0F [FD BRS]
0.0215835 1 E3x Rx d 11 00 80 00 04 59 3F 48 00 41 00 05 [FD BRS]
0.0221847 1 DCx Rx d 14 39 10 01 10 55 40 3F 00 52 10 B1 12 E9 9C [FD BRS]
0.0226970 1 18E19490x Rx d 15 03 68 06 C7 16 71 D2 10 0E 10 0E 1E 00 F4 00 [FD BRS]
0.0350330 1 DBx Rx d 14 39 0E 00 20 5F 5D 4F 0D 58 80 83 1A 3F 29 [FD BRS]
0.0397773 1 DBx Rx d 13 39 0F 00 15 09 A5 4F 20 FF FF 7F CF FF [FD BRS]
0.0405115 1 2Dx Rx d 14 7B C8 70 04 C4 09 00 90 70 97 58 62 46 52 [FD BRS]
0.0410308 1 D9x Rx d 13 39 13 00 15 F1 D3 4E 07 A0 58 4D DD 0F [FD BRS]
0.0421160 1 DCx Rx d 13 39 10 00 16 DF 8A 4E 0E A2 21 00 23 58 [FD BRS]
0.0454092 1 E3x Rx d 9 39 04 22 08 00 3C 06 7E 78 [FD BRS]
0.0087726 1 DBx Rx d 14 39 0E 00 20 9E BB 27 0D 48 80 83 1A 3F 29 [FD BRS]
0.0135168 1 DBx Rx d 13 39 0F 00 15 1F 66 27 20 FF FF 7F CF FF [FD BRS]
0.0142400 1 2Dx Rx d 14 B2 22 48 04 C4 09 00 90 70 97 58 62 46 52 [FD BRS]
0.0147603 1 D9x Rx d 13 39 13 00 15 B2 36 26 08 A0 58 0D DE 0F [FD BRS]
0.0158495 1 DCx Rx d 13 39 10 00 16 18 B6 26 0E A2 21 00 23 54 [FD BRS]
0.0162318 1 18E19490x Rx d 15 02 84 00 64 64 64 01 00 04 27 56 02 02 00 00 [FD BRS]
0.0191381 1 E3x Rx d 9 39 04 22 08 00 3C 06 7E 78 [FD BRS]
0.0241724 1 D4x Rx d 14 39 04 0C 05 0E 0F F4 FF FF 39 15 01 14 45 [FD BRS]
0.0287795 1 DBx Rx d 15 39 0E 01 0F 78 35 FF FF FF FF FF FF FF 1F D3 [FD BRS]
0.0335318 1 DBx Rx d 13 39 0F 00 15 A1 93 28 20 FF FF 7F CF FF [FD BRS]
0.0342240 1 2Dx Rx d 14 AD 2B 49 04 C4 09 00 90 70 97 58 62 46 52 [FD BRS]
0.0347443 1 D9x Rx d 13 39 13 00 15 6F 96 27 08 A0 58 8D DD 0F [FD BRS]
0.0351215 1 DC085B Rx d 8 40 02 08 00 00 00 00 00
0.0358697 1 DCx Rx d 13 39 10 00 16 42 F9 27 0E A2 21 00 23 58 [FD BRS]
0.0459122 1 18E19490x Rx d 15 03 68 06 C8 16 73 D2 10 0E 10 0E 1E 00 F7 00 [FD BRS]
0.0487684 1 DBx Rx d 14 39 0F 01 06 4E 85 04 60 78 19 39 0E 00 20 [FD BRS]
0.0003771 1 DC085B Rx d 8 40 02 08 00 00 00 00 00
0.0010532 1 DCx Rx d 13 39 10 00 16 78 1E F5 0E A2 21 00 23 58 [FD BRS]
0.0140462 1 DBx Rx d 14 39 0F 01 06 4E 85 04 60 78 19 39 0E 00 20 [FD BRS]
0.0187895 1 DBx Rx d 13 39 0F 00 15 12 F0 F7 20 FF FF 7F CF FF [FD BRS]
0.0194847 1 2Dx Rx d 14 C0 D4 18 04 C4 09 00 90 70 97 58 62 46 52 [FD BRS]
0.0200069 1 D9x Rx d 13 39 13 00 15 BF A0 F6 08 A0 58 0D DE 0F [FD BRS]
0.0210001 1 DCx Rx d 13 39 10 00 16 35 F6 F6 0E A2 21 00 23 58 [FD BRS]
0.0213854 1 18E19490x Rx d 15 00 00 00 01 00 00 00 55 05 69 06 D8 03 00 00 [FD BRS]
0.0340974 1 DBx Rx d 14 39 0E 00 20 B2 A0 F8 0D 58 80 83 1A 3F 29 [FD BRS]
0.0388397 1 DBx Rx d 13 39 0F 00 15 AC 05 F8 20 FF FF 7F CF FF [FD BRS]
0.0394899 1 2Dx Rx d 14 DF DD 19 04 C4 09 00 90 70 97 58 62 46 52 [FD BRS]
0.0409613 1 D9x Rx d 14 39 13 01 0B 58 BA 58 55 95 00 FE 03 BA FF [FD BRS]
0.0414755 1 DCx Rx d 13 39 10 00 16 6F B9 F7 0E A2 21 00 23 54 [FD BRS]
0.0443567 1 E3x Rx d 9 41 00 05 08 00 80 03 43 CD [FD BRS]
0.0003542 1 18E19490x Rx d 15 00 00 00 01 00 00 00 55 05 68 06 D8 03 00 00 [FD BRS]
0.0033204 1 DBx Rx d 14 39 0E 00 20 1F 0F D2 0D 58 80 83 1A 3F 29 [FD BRS]
0.0080647 1 DBx Rx d 13 39 0F 00 15 7A 9F D2 20 FF FF 7F CF FF [FD BRS]
0.0087439 1 2Dx Rx d 14 5E 1C F3 04 C4 09 00 90 70 97 58 62 46 52 [FD BRS]
0.0092632 1 D9x Rx d 13 39 13 00 15 FC 04 D1 08 A0 58 CD DD 0F [FD BRS]
0.0102614 1 DCx Rx d 13 39 10 00 16 BE D8 D1 0E A2 21 00 23 58 [FD BRS]
0.0136516 1 E3x Rx d 9 39 04 22 08 00 3C 06 7E 78 [FD BRS]
0.0186799 1 D4x Rx d 9 39 04 0C 05 0E 0F F4 FF FF [FD BRS]
0.0233270 1 DBx Rx d 15 39 0E 01 0F 84 35 FF FF FF FF FF FF FF 1F D3 [FD BRS]
0.0280803 1 DBx Rx d 13 39 0F 00 15 98 8F D3 20 FF FF 7F CF FF [FD BRS]
0.0287415 1 2Dx Rx d 14 03 23 F4 04 C4 09 00 90 70 97 58 62 46 52 [FD BRS]
0.0292638 1 D9x Rx d 13 39 13 00 15 60 F9 D2 07 A0 58 4D DD 0F [FD BRS]
0.0301980 1 DCx Rx d 13 39 10 00 16 8D D7 D2 0E A2 21 00 23 54 [FD BRS]
0.0305793 1 18E19490x Rx d 15 01 EA 01 56 0D 61 01 80 0C E9 00 BC 02 06 06 [FD BRS]
0.0336105 1 E3x Rx d 10 39 80 00 0C 00 7F A0 8F 47 30 [FD BRS]
0.0433095 1 DBx Rx d 14 39 0E 00 20 67 D4 D4 0D 58 80 83 1A 3F 29 [FD BRS]
0.0480608 1 DBx Rx d 13 39 0F 00 15 36 FD D4 20 FF FF 7F CF FF [FD BRS]
0.0487270 1 2Dx Rx d 14 1C 2A F5 04 C4 09 00 90 70 97 58 62 46 52 [FD BRS]
0.0492483 1 D9x Rx d 13 39 13 00 15 4D 26 D3 08 A0 58 CD DC 0F [FD BRS]
0.0084357 1 DBx Rx d 14 39 0E 00 20 E4 AD B2 0D 48 80 83 1A 3F 29 [FD BRS]
0.0131780 1 DBx Rx d 13 39 0F 00 15 7C DB B2 20 FF FF 7F CF FF [FD BRS]
0.0138282 1 2Dx Rx d 14 9F 2F D3 04 C4 09 00 90 70 97 58 62 46 52 [FD BRS]
0.0152026 1 D9x Rx d 14 39 13 01 0B 58 BA 58 55 95 00 FE 03 BA FF [FD BRS]
0.0157137 1 DCx Rx d 13 39 10 00 16 FC F5 B1 0E A2 21 00 23 54 [FD BRS]
0.0160951 1 18E19490x Rx d 15 04 5B 01 5B 01 0E 00 2A 30 EB 0C 5C 0D 22 01 [FD BRS]
0.0186703 1 E3x Rx d 12 41 00 05 08 00 80 03 43 CD 97 16 A9 [FD BRS]
0.0283753 1 DBx Rx d 14 39 0E 00 20 FC 2A B3 0D 48 80 83 1A 3F 29 [FD BRS]
0.0331266 1 DBx Rx d 13 39 0F 00 15 9E CB B3 20 FF FF 7F CF FF [FD BRS]
0.0338368 1 2Dx Rx d 14 C2 10 D4 04 C4 09 00 90 70 97 58 62 46 52 [FD BRS]
0.0343561 1 D4x Rx d 8 39 04 06 04 97 E3 31 84 [FD BRS]
0.0345165 1 D9x Rx d 13 39 13 00 15 AC 9E B2 08 A0 58 0D DD 0F [FD BRS]
0.0348937 1 E3x Rx d 13 00 80 00 04 3F 10 29 00 41 00 05 08 01 [FD BRS]
0.0352689 1 DCx Rx d 14 39 10 01 10 55 40 3F 00 52 10 B9 12 E9 9C [FD BRS]
0.0454063 1 18E19490x Rx d 15 00 00 00 01 00 00 00 55 05 69 06 D8 03 00 00 [FD BRS]
0.0483865 1 DBx Rx d 14 39 0E 00 20 10 D5 B4 0D 48 80 83 1A 3F 29 [FD BRS]
0.0005258 1 18E19490x Rx d 15 04 59 01 5D 01 0F 00 34 30 EB 0C 5C 0D 22 01 [FD BRS]
0.0037049 1 DBx Rx d 15 39 0E 01 0F 7C 35 FF FF FF FF FF FF FF 1F D3 [FD BRS]
0.0084592 1 DBx Rx d 13 39 0F 00 15 C1 0C 8D 20 FF FF 7F CF FF [FD BRS]
0.0091094 1 2Dx Rx d 14 B7 8F AE 04 C4 09 00 90 70 97 58 62 46 52 [FD BRS]
0.0096307 1 D9x Rx d 13 39 13 00 15 F3 59 8C 08 A0 58 0D DD 0F [FD BRS]
0.0105079 1 DCx Rx d 13 39 10 00 16 EF 4E 8C 0E A2 21 00 23 58 [FD BRS]
0.0139651 1 E3x Rx d 10 39 80 00 0C 00 FF 81 8F 47 30 [FD BRS]
0.0236861 1 DBx Rx d 14 39 0E 00 20 BF 13 8E 0D 48 80 83 1A 3F 29 [FD BRS]
0.0284384 1 DBx Rx d 13 39 0F 00 15 E7 3D 8E 20 FF FF 7F CF FF [FD BRS]
0.0290826 1 2Dx Rx d 14 A8 86 AF 04 C4 09 00 90 70 97 58 62 46 52 [FD BRS]
0.0296019 1 D9x Rx d 13 39 13 00 15 B1 FC 8D 08 A0 58 8D DD 0F [FD BRS]
0.0304301 1 DCx Rx d 13 39 10 00 16 CB E6 8D 0E A2 21 00 23 58 [FD BRS]
0.0308124 1 18E19490x Rx d 15 00 00 00 01 00 00 00 55 05 68 06 D8 03 00 00 [FD BRS]
0.0437464 1 DBx Rx d 14 39 0E 00 20 A7 94 8F 0D 48 80 83 1A 3F 29 [FD BRS]
0.0484897 1 DBx Rx d 13 39 0F 00 15 05 2D 8F 20 FF FF 7F CF FF [FD BRS]
0.0491081 1 D9x Rx d 14 39 13 01 0B 58 BA 58 55 95 00 FE 03 BA FF [FD BRS]
0.0004898 1 DBx Rx d 14 39 0E 00 20 B7 0F 67 0D 48 80 83 1A 3F 29 [FD BRS]
0.0051831 1 DBx Rx d 13 39 0F 00 15 1B 1E 67 20 FF FF 7F CF FF [FD BRS]
0.0058322 1 2Dx Rx d 14 34 8A 88 04 C4 09 00 90 70 97 58 62 46 52 [FD BRS]
0.0068426 1 D9x Rx d 14 39 13 01 0B 58 BA 58 55 95 00 FE 03 BA FF [FD BRS]
0.0073548 1 DCx Rx d 13 39 10 00 16 4E DD 66 0E A2 21 00 23 58 [FD BRS]
0.0077391 1 18E19490x Rx d 15 04 5C 01 5B 01 0F 00 34 30 ED 0C 5C 0D 22 01 [FD BRS]
0.0107143 1 E3x Rx d 9 41 00 05 08 00 80 03 43 CD [FD BRS]
0.0204293 1 DBx Rx d 14 39 0E 00 20 DA C4 68 0D 48 80 83 1A 3F 29 [FD BRS]
0.0251816 1 DBx Rx d 13 39 0F 00 15 A5 EB 68 20 FF FF 7F CF FF [FD BRS]
0.0258528 1 2Dx Rx d 14 2B 83 89 04 C4 09 00 90 70 97 58 62 46 52 [FD BRS]
0.0263741 1 D4x Rx d 8 39 04 06 04 EC 63 22 84 [FD BRS]
0.0265335 1 D9x Rx d 13 39 13 00 15 BB B4 67 08 A0 58 CD DD 0F [FD BRS]
0.0269087 1 E3x Rx d 11 00 80 00 04 0A A7 1A 00 41 00 05 [FD BRS]
0.0271789 1 DCx Rx d 14 39 10 01 10 55 40 3F 38 52 10 41 46 E9 9C [FD BRS]
0.0372254 1 18E19490x Rx d 15 00 00 00 01 00 00 00 55 05 68 06 D8 03 00 00 [FD BRS]
0.0404485 1 DBx Rx d 14 39 FE 0B 08 61 00 00 00 01 00 00 00 39 0E [FD BRS]
0.0451858 1 DBx Rx d 13 39 0F 00 15 47 FB 69 20 FF FF 7F CF FF [FD BRS]
0.0458430 1 2Dx Rx d 14 0A 98 8A 04 C4 09 00 90 70 97 58 62 46 52 [FD BRS]
0.0463623 1 D9x Rx d 13 39 13 00 15 4A 1E 68 08 A0 58 8D DE 0F [FD BRS]
0.0471325 1 DCx Rx d 13 39 10 00 16 0E EB 68 0E A2 21 00 23 54 [FD BRS]
0.0000012 1 19D5279B Rx d 9 
0.0027866 1 E3x Rx d 9 39 04 22 08 00 3C 06 7E 78 [FD BRS]
0.0078349 1 D4x Rx d 12 39 04 0C 05 0E 0F F4 FF FF 39 FE 1D [FD BRS]
0.0125120 1 DBx Rx d 15 39 0E 01 0F 7C 35 FF FF FF FF FF FF FF 1F D3 [FD BRS]
0.0172643 1 DBx Rx d 13 39 0F 00 15 19 22 47 20 FF FF 7F CF FF [FD BRS]
0.0178526 1 D9x Rx d 13 39 13 00 15 B4 72 46 08 A0 58 0D DE 0F [FD BRS]
0.0182309 1 2Dx Rx d 14 73 11 68 04 C4 09 00 90 70 97 58 62 46 52 [FD BRS]
0.0190800 1 DCx Rx d 13 39 10 00 16 5A 9B 46 0E A2 21 00 23 58 [FD BRS]
0.0227502 1 E3x Rx d 10 39 80 00 0C 00 FF A5 8F 47 30 [FD BRS]
0.0291395 1 18E19490x Rx d 15 03 68 06 C8 16 64 D2 11 0E 11 0E 1E 00 F9 00 [FD BRS]
0.0324936 1 DBx Rx d 14 39 0E 00 20 11 A7 48 0D 48 80 83 1A 3F 29 [FD BRS]
0.0372439 1 DBx Rx d 13 39 0F 00 15 A7 D7 48 20 FF FF 7F CF FF [FD BRS]
0.0378462 1 D9x Rx d 13 39 13 00 15 B9 88 47 08 A0 58 CD DD 0F [FD BRS]
0.0382224 1 2Dx Rx d 14 6C 18 69 04 C4 09 00 90 70 97 58 62 46 52 [FD BRS]
0.0391626 1 DCx Rx d 13 39 10 00 16 00 D4 47 0E A2 21 00 23 54 [FD BRS]
0.0426787 1 21Cx Rx d 15 11 02 01 04 00 00 01 F4 03 E8 05 DC 07 D0 09 [FD BRS]
0.0026040 1 DBx Rx d 14 39 0E 00 20 C5 2E 26 0D 48 80 83 1A 3F 29 [FD BRS]
0.0073463 1 DBx Rx d 13 39 0F 00 15 FD 76 26 20 FF FF 7F CF FF [FD BRS]
0.0079345 1 2Dx Rx d 14 17 55 47 04 C4 09 00 90 70 97 58 62 46 52 [FD BRS]
0.0091207 1 DCx Rx d 13 39 10 00 16 55 5E 25 0E A2 21 00 23 54 [FD BRS]
0.0095020 1 D9x Rx d 14 39 13 01 0B 58 BA 58 55 95 00 FE 03 BA FF [FD BRS]
0.0127902 1 E3x Rx d 9 41 00 05 08 00 80 03 43 CD [FD BRS]
0.0191935 1 18E19490x Rx d 15 01 E7 01 56 0D 61 01 80 0C E9 00 BC 02 06 06 [FD BRS]
0.0225436 1 DBx Rx d 14 39 0E 00 20 9E BB 27 0D 48 80 83 1A 3F 29 [FD BRS]
0.0272949 1 DBx Rx d 13 39 0F 00 15 1F 66 27 20 FF FF 7F CF FF [FD BRS]
0.0279581 1 2Dx Rx d 14 B2 22 48 04 C4 09 00 90 70 97 58 62 46 52 [FD BRS]
0.0284804 1 D4x Rx d 8 39 04 06 04 28 1E 15 84 [FD BRS]
0.0286408 1 D9x Rx d 13 39 13 00 15 C2 D9 26 08 A0 58 CD DE 0F [FD BRS]
0.0290190 1 E3x Rx d 11 00 80 00 04 80 ED 0D 00 41 00 05 [FD BRS]
0.0292882 1 DCx Rx d 14 39 10 01 10 55 40 3F 00 52 10 D9 06 E9 9C [FD BRS]
0.0425531 1 DBx Rx d 14 39 0E 00 20 3C C1 28 0D 48 80 83 1A 3F 29 [FD BRS]
0.0430753 1 4Fx Rx d 8 28 12 08 04 37 35 CC 2A [FD BRS]
0.0472984 1 DBx Rx d 13 39 0F 00 15 A1 93 28 20 FF FF 7F CF FF [FD BRS]
0.0479316 1 2Dx Rx d 14 AD 2B 49 04 C4 09 00 90 70 97 58 62 46 52 [FD BRS]
0.0484519 1 D9x Rx d 13 39 13 00 15 80 7C 27 08 A0 58 4D DE 0F [FD BRS]
0.0491021 1 DCx Rx d 13 39 10 00 16 2A D4 27 0E A2 01 00 23 58 [FD BRS]
0.0021219 1 DBx Rx d 14 39 FE 0B 08 61 00 00 00 01 00 00 00 39 0E [FD BRS]
0.0068592 1 DBx Rx d 13 39 0F 00 15 D9 7B 05 20 FF FF 7F CF FF [FD BRS]
0.0074874 1 2Dx Rx d 14 4B 08 26 04 C4 09 00 90 70 97 58 62 46 52 [FD BRS]
0.0080077 1 D9x Rx d 13 39 13 00 15 EE C2 04 08 A0 58 CD DC 0F [FD BRS]
0.0085668 1 DCx Rx d 13 39 10 00 16 65 B0 04 0E A2 21 00 23 54 [FD BRS]
0.0123840 1 E3x Rx d 9 39 04 22 08 00 3C 46 7E 78 [FD BRS]
0.0166222 1 DBx Rx d 14 39 0E 02 2A 3E 00 49 00 65 0A C0 81 18 88 [FD BRS]
0.0174354 1 D4x Rx d 14 39 04 0C 05 0E 0F F4 FF FF 39 0C 16 08 FF [FD BRS]
0.0186536 1 18E19490x Rx d 15 04 5B 01 57 01 0F 00 48 30 ED 0C 5C 0D 22 01 [FD BRS]
0.0221187 1 DBx Rx d 13 39 0E 01 0F 84 35 FF FF FF FF FF FF FF [FD BRS]
0.0267860 1 DBx Rx d 15 39 0E 00 20 4D 5F 06 0D 48 80 83 1A 3F 29 80 [FD BRS]
0.0274463 1 D9x Rx d 13 39 13 00 15 D9 64 05 08 A0 58 4D DD 0F [FD BRS]
0.0278245 1 2Dx Rx d 14 54 01 27 04 C4 09 00 90 70 97 58 62 46 52 [FD BRS]
0.0286897 1 DCx Rx d 13 39 10 00 16 41 18 05 0E A2 21 00 23 54 [FD BRS]
0.0367187 1 DBx Rx d 13 39 0E 04 10 5C E3 0B 4C 24 B4 DB FF 1F [FD BRS]
0.0371551 1 DC085D Rx d 8 40 02 00 00 00 00 00 00
0.0421014 1 DBx Rx d 14 39 0E 00 20 55 D8 07 0D 48 80 83 1A 3F 29 [FD BRS]
0.0468546 1 DBx Rx d 13 39 0F 00 15 1D 5A 07 20 FF FF 7F CF FF [FD BRS]
0.0474698 1 2Dx Rx d 14 F1 76 28 04 C4 09 00 90 70 97 58 62 46 52 [FD BRS]
0.0479901 1 D9x Rx d 13 39 13 00 15 5F E0 06 08 A0 58 CD DD 0F [FD BRS]
0.0485873 1 DCx Rx d 13 39 10 00 16 64 DD 06 0E A2 01 00 23 54 [FD BRS]
0.0489696 1 18E19490x Rx d 15 00 00 00 01 00 00 00 55 05 68 06 D8 03 00 00 [FD BRS]
0.0004039 1 DBx Rx d 13 39 0F 00 15 E2 5B DE 20 FF FF 7F CF FF [FD BRS]
0.0009451 1 D4x Rx d 15 39 0C 08 3C FE 74 03 80 00 00 08 6C 95 BA 2F [FD BRS]
0.0016044 1 2Dx Rx d 14 DA 70 FF 04 C4 09 00 90 70 97 58 62 46 52 [FD BRS]
0.0021247 1 D9x Rx d 13 39 13 00 15 64 C0 DD 08 A0 58 CD DD 0F [FD BRS]
0.0025020 1 DCx Rx d 13 39 10 00 16 E9 49 DD 0E A2 21 00 23 58 [FD BRS]
0.0121134 1 18E19490x Rx d 15 03 68 06 C4 16 6E D2 0F 0E 10 0E 1E 00 F8 00 [FD BRS]
0.0156405 1 DBx Rx d 14 39 0F 01 06 4E 85 04 60 F8 1C 39 0E 00 20 [FD BRS]
0.0203838 1 DBx Rx d 13 39 0F 00 15 00 4B DF 20 FF FF 7F CF FF [FD BRS]
0.0209771 1 D9x Rx d 13 39 13 00 15 58 88 DE 07 A0 58 CD DD 0F [FD BRS]
0.0213524 1 2Dx Rx d 14 C8 0D 00 04 C4 09 00 90 70 97 58 62 46 52 [FD BRS]
0.0220525 1 DCx Rx d 13 39 10 00 16 DA 46 DE 0E A2 21 00 23 54 [FD BRS]
0.0356925 1 DBx Rx d 14 39 0E 00 20 E7 39 E0 0D 48 80 83 1A 3F 29 [FD BRS]
0.0404348 1 DBx Rx d 13 39 0F 00 15 BD 9C E0 20 FF FF 7F CF FF [FD BRS]
0.0409970 1 2Dx Rx d 14 D7 04 01 04 C4 09 00 90 70 97 58 62 46 52 [FD BRS]
0.0419492 1 DCx Rx d 13 39 10 00 16 E8 24 DF 0E A2 01 00 23 58 [FD BRS]
0.0423334 1 D9x Rx d 14 39 13 01 0B 58 BA 58 55 95 00 FE 03 BA FF [FD BRS]
0.0428456 1 18E19490x Rx d 15 04 5C 01 5A 01 0F 00 48 30 ED 0C 5C 0D 22 01 [FD BRS]
0.0458528 1 E3x Rx d 9 41 00 05 08 00 80 03 43 CD [FD BRS]
0.0016179 1 D4x Rx d 14 39 04 0C 05 0E 0F F4 FF FF 39 15 01 14 45 [FD BRS]
0.0064890 1 DBx Rx d 15 39 0E 01 0F 7C 35 FF FF FF FF FF FF FF 1F D3 [FD BRS]
0.0111603 1 DBx Rx d 13 39 0F 00 15 F4 98 B6 20 FF FF 7F CF FF [FD BRS]
0.0115456 1 D9x Rx d 13 39 13 00 15 A2 59 B5 08 A0 58 8D DD 0F [FD BRS]
0.0119218 1 2Dx Rx d 14 E3 0B D7 04 C4 09 00 90 70 97 58 62 46 52 [FD BRS]
0.0124412 1 21Dx Rx d 3 30 40 28 [FD BRS]
0.0125724 1 DCx Rx d 13 39 10 00 16 50 92 B5 0E A2 21 00 23 58 [FD BRS]
0.0129535 1 21Cx Rx d 15 21 00 AF 00 69 00 49 00 3D 00 36 00 32 04 DA [FD BRS]
0.0136117 1 18E19490x Rx d 15 01 EA 01 56 0D 61 01 80 0C ED 00 BC 02 06 06 [FD BRS]
0.0263467 1 DBx Rx d 14 39 0F 01 06 4E 85 04 60 F8 1C 39 0E 00 20 [FD BRS]
0.0310880 1 DBx Rx d 13 39 0F 00 15 16 88 B7 20 FF FF 7F CF FF [FD BRS]
0.0314953 1 D9x Rx d 13 39 13 00 15 D6 43 B6 08 A0 57 0D DE 0F [FD BRS]
0.0318735 1 2Dx Rx d 14 46 7C D8 04 C4 09 00 90 70 97 58 62 46 52 [FD BRS]
0.0326027 1 DCx Rx d 13 39 10 00 16 1D 7A B6 0E A2 21 00 23 58 [FD BRS]
0.0409797 1 21Cx Rx d 15 22 33 00 30 04 5D 01 C3 01 05 00 98 00 5D 00 [FD BRS]
0.0427789 1 18E19490x Rx d 15 02 84 00 64 64 64 01 00 04 27 55 02 02 00 00 [FD BRS]
0.0463980 1 DBx Rx d 14 39 0E 00 20 4D D0 B8 0D 48 80 83 1A 3F 29 [FD BRS]
0.0038122 1 DBx Rx d 13 39 0F 00 15 7E E7 92 20 FF FF 7F CF FF [FD BRS]
0.0041985 1 D9x Rx d 13 39 13 00 15 F8 7C 91 08 A0 58 CD DD 0F [FD BRS]
0.0045747 1 2Dx Rx d 14 DC 7B B3 04 C4 09 00 90 70 97 58 62 46 52 [FD BRS]
0.0052189 1 DCx Rx d 13 39 10 00 16 80 9E 91 0E A2 01 00 23 54 [FD BRS]
0.0056012 1 18E19490x Rx d 15 02 84 00 64 64 64 01 00 03 27 52 02 03 00 00 [FD BRS]
0.0092924 1 E3x Rx d 9 39 04 22 08 00 3C 06 7E 78 [FD BRS]
0.0143248 1 D4x Rx d 9 39 04 0C 05 0E 0F F4 FF FF [FD BRS]
0.0190759 1 DBx Rx d 15 39 0E 01 0F 84 35 FF FF FF FF FF FF FF 1F D3 [FD BRS]
0.0239512 1 DBx Rx d 13 39 0F 00 15 9C F7 93 20 FF FF 7F CF FF [FD BRS]
0.0243385 1 D9x Rx d 13 39 13 00 15 0E 17 92 08 A0 58 8D DD 0F [FD BRS]
0.0247137 1 2Dx Rx d 14 81 44 B4 04 C4 09 00 90 70 97 58 62 46 52 [FD BRS]
0.0252338 1 DCx Rx d 13 39 10 00 16 A5 5B 92 0E A2 21 00 23 54 [FD BRS]
0.0292521 1 E3x Rx d 10 39 80 00 0C 00 FF AE 8F 48 30 [FD BRS]
0.0353563 1 18E19490x Rx d 15 03 68 06 C2 16 69 D2 0F 0E 0F 0E 1E 00 F9 00 [FD BRS]
0.0390554 1 DBx Rx d 14 39 0E 00 20 57 15 94 0D 48 80 83 1A 3F 29 [FD BRS]
0.0438087 1 DBx Rx d 13 39 0F 00 15 32 85 94 20 FF FF 7F CF FF [FD BRS]
0.0441960 1 D9x Rx d 13 39 13 00 15 9C E8 93 08 A0 58 4D DD 0F [FD BRS]
0.0445722 1 2Dx Rx d 14 9E 4D B5 04 C4 09 00 90 70 97 58 62 46 52 [FD BRS]
0.0453154 1 DCx Rx d 13 39 10 00 16 FF 14 93 0E A2 21 00 23 58 [FD BRS]
0.0010385 1 DBx Rx d 13 39 0F 00 15 0B 99 6F 20 FF FF 7F CF FF [FD BRS]
0.0014248 1 D9x Rx d 13 39 13 00 15 A6 C9 6E 08 A0 58 0D DE 0F [FD BRS]
0.0018051 1 2Dx Rx d 14 3C 53 90 04 C4 09 00 90 70 97 58 62 46 52 [FD BRS]
0.0023772 1 DCx Rx d 13 39 10 00 16 B5 2B 6E 0E A2 21 00 23 54 [FD BRS]
0.0065104 1 E3x Rx d 9 39 04 22 08 00 3C 46 7E 78 [FD BRS]
0.0108025 1 DBx Rx d 14 39 0E 02 2A 3E 00 49 00 65 0A C0 81 18 88 [FD BRS]
0.0115427 1 D4x Rx d 14 39 04 0C 05 0E 0F F4 FF FF 39 0C 16 08 FF [FD BRS]
0.0125309 1 18E19490x Rx d 15 04 5D 01 5A 01 0E 00 3E 30 EB 0C 5C 0D 22 01 [FD BRS]
0.0163150 1 DBx Rx d 13 39 0E 01 0F 84 35 FF FF FF FF FF FF FF [FD BRS]
0.0210853 1 DBx Rx d 15 39 0E 00 20 59 99 70 0D 48 80 83 1A 3F 29 80 [FD BRS]
0.0217424 1 2Dx Rx d 14 23 5A 91 04 C4 09 00 90 70 97 58 62 46 52 [FD BRS]
0.0222628 1 D9x Rx d 13 39 13 00 15 B1 4A 6F 07 A0 58 CD DD 0F [FD BRS]
0.0226399 1 DCx Rx d 13 39 10 00 16 91 83 6F 0E A2 21 00 23 54 [FD BRS]
0.0308490 1 DBx Rx d 13 39 0E 04 10 5C E3 0B 4C 24 B4 DB FF 1F [FD BRS]
0.0312273 1 DC085D Rx d 8 40 02 00 00 00 00 00 00
0.0362815 1 DBx Rx d 14 39 0E 00 20 02 0C 71 0D 48 80 83 1A 3F 29 [FD BRS]
0.0411038 1 DBx Rx d 13 39 0F 00 15 56 62 71 20 FF FF 7F CF FF [FD BRS]
0.0414891 1 D9x Rx d 13 39 13 00 15 7E 4E 70 07 A0 58 0D DD 0F [FD BRS]
0.0418683 1 2Dx Rx d 14 02 41 92 04 C4 09 00 90 70 97 58 62 46 52 [FD BRS]
0.0423915 1 DCx Rx d 13 39 10 00 16 81 D9 70 0E A2 21 00 23 54 [FD BRS]
0.0427758 1 18E19490x Rx d 15 00 00 00 01 00 00 00 55 05 68 06 D8 03 00 00 [FD BRS]
0.0027629 1 18E19490x Rx d 15 00 00 00 01 00 00 00 55 05 68 06 D8 03 00 00 [FD BRS]
0.0065200 1 DBx Rx d 14 39 0E 00 20 41 35 4C 0D 48 80 83 1A 3F 29 [FD BRS]
0.0112642 1 DBx Rx d 13 39 0F 00 15 2F 94 4C 20 FF FF 7F CF FF [FD BRS]
0.0116505 1 D9x Rx d 13 39 13 00 15 F1 16 4B 08 A0 58 8D DD 0F [FD BRS]
0.0120278 1 2Dx Rx d 14 10 3C 6D 04 C4 09 00 90 70 97 58 62 46 52 [FD BRS]
0.0126149 1 DCx Rx d 13 39 10 00 16 57 45 4B 0E A2 21 00 23 54 [FD BRS]
0.0167181 1 E3x Rx d 9 39 04 22 08 00 3C 06 7E 78 [FD BRS]
0.0217585 1 D4x Rx d 12 39 04 0C 05 0E 0F F4 FF FF 39 FE 1D [FD BRS]
0.0265256 1 DBx Rx d 15 39 0E 01 0F 84 35 FF FF FF FF FF FF FF 1F D3 [FD BRS]
0.0314019 1 DBx Rx d 13 39 0F 00 15 CD 84 4D 20 FF FF 7F CF FF [FD BRS]
0.0317872 1 D9x Rx d 13 39 13 00 15 5F 64 4C 08 A0 58 8D DD 0F [FD BRS]
0.0321644 1 2Dx Rx d 14 31 27 6E 04 C4 09 00 90 70 97 58 62 46 52 [FD BRS]
0.0326836 1 DCx Rx d 13 39 10 00 16 C8 2D 4C 0E A2 21 00 23 54 [FD BRS]
0.0330669 1 18E19490x Rx d 15 01 EB 01 55 0D 61 01 80 0C E9 00 BC 02 06 06 [FD BRS]
0.0366762 1 E3x Rx d 10 39 80 00 0C 00 7F B2 8F 48 30 [FD BRS]
0.0465082 1 DBx Rx d 14 39 0E 00 20 E5 DF 4E 0D 48 80 83 1A 3F 29 [FD BRS]
0.0000361 1 DBx Rx d 14 39 0E 00 20 F3 70 28 0D 48 80 83 1A 3F 29 [FD BRS]
0.0048594 1 DBx Rx d 13 39 0F 00 15 A1 93 28 20 FF FF 7F CF FF [FD BRS]
0.0052467 1 D9x Rx d 13 39 13 00 15 CF 23 27 08 A0 58 0D DD 0F [FD BRS]
0.0056230 1 2Dx Rx d 14 AD 2B 49 04 C4 09 00 90 70 97 58 62 46 52 [FD BRS]
0.0061421 1 D4x Rx d 8 39 04 06 04 48 D0 E2 84 [FD BRS]
0.0063015 1 DCx Rx d 14 39 10 01 10 55 40 3F 38 52 10 41 46 E9 9C [FD BRS]
0.0068197 1 E3x Rx d 11 00 80 00 04 AE 14 DA 00 41 00 05 [FD BRS]
0.0200467 1 DBx Rx d 14 39 0E 00 20 67 54 29 0D 48 80 83 1A 3F 29 [FD BRS]
0.0248620 1 DBx Rx d 13 39 0F 00 15 43 83 29 20 FF FF 7F CF FF [FD BRS]
0.0252492 1 D9x Rx d 13 39 13 00 15 71 D6 28 08 A0 58 0D DD 0F [FD BRS]
0.0256265 1 2Dx Rx d 14 8C 30 4A 04 C4 09 00 90 70 97 58 62 46 52 [FD BRS]
0.0261487 1 DCx Rx d 13 39 10 00 16 26 67 28 0E A2 21 00 23 54 [FD BRS]
0.0265320 1 18E19490x Rx d 15 02 84 00 64 64 64 01 00 02 27 55 02 03 00 00 [FD BRS]
0.0302362 1 E3x Rx d 9 39 04 22 08 00 3C 06 7E 78 [FD BRS]
0.0352726 1 D4x Rx d 14 39 04 0C 05 0E 0F F4 FF FF 39 15 01 14 45 [FD BRS]
0.0400537 1 DBx Rx d 15 39 0E 01 0F 84 35 FF FF FF FF FF FF FF 1F D3 [FD BRS]
0.0448952 1 D9x Rx d 13 39 13 00 15 43 9C 29 08 A0 58 4D DD 0F [FD BRS]
0.0452714 1 DBx Rx d 13 39 0F 00 15 65 B2 2A 20 FF FF 7F CF FF [FD BRS]
0.0456576 1 2Dx Rx d 14 93 39 4B 04 C4 09 00 90 70 97 58 62 46 52 [FD BRS]
0.0461768 1 DCx Rx d 13 39 10 00 16 02 CF 29 0E A2 21 00 23 54 [FD BRS]
0.0001548 1 E3x Rx d 13 39 80 00 0C 00 7F B2 8F 48 30 B0 FE C3 [FD BRS]
0.0100078 1 DBx Rx d 14 39 0E 00 20 38 13 08 0D 48 80 83 1A 3F 29 [FD BRS]
0.0148321 1 DBx Rx d 13 39 0F 00 15 A3 AF 08 20 FF FF 7F CF FF [FD BRS]
0.0152194 1 D9x Rx d 13 39 13 00 15 82 40 07 08 A0 58 4D DE 0F [FD BRS]
0.0155996 1 2Dx Rx d 14 EE 7F 29 04 C4 09 00 90 70 97 58 62 46 52 [FD BRS]
0.0161228 1 DCx Rx d 13 39 10 00 16 28 58 07 0E A2 21 00 23 54 [FD BRS]
0.0165041 1 18E19490x Rx d 15 00 00 00 01 00 00 00 55 05 69 06 D8 03 00 00 [FD BRS]
0.0300691 1 DBx Rx d 14 39 0E 00 20 AC 37 09 0D 48 80 83 1A 3F 29 [FD BRS]
0.0348324 1 DBx Rx d 13 39 0F 00 15 41 BF 09 20 FF FF 7F CF FF [FD BRS]
0.0353006 1 2Dx Rx d 14 CF 64 2A 04 C4 09 00 90 70 97 58 62 46 52 [FD BRS]
0.0358868 1 DCx Rx d 13 39 10 00 16 32 21 08 0E A2 21 00 23 54 [FD BRS]
0.0363571 1 D9x Rx d 14 39 13 01 0B 58 BA 58 55 95 00 FE 03 BA FF [FD BRS]
0.0401693 1 E3x Rx d 9 41 00 05 08 00 80 03 43 CD [FD BRS]
0.0460176 1 18E19490x Rx d 15 01 EE 01 55 0D 61 01 80 0C E9 00 BC 02 06 06 [FD BRS]
0.0012764 1 DBx Rx d 13 39 0F 00 15 F1 FE E6 20 FF FF 7F CF FF [FD BRS]
0.0017406 1 2Dx Rx d 14 95 32 07 04 C4 09 00 90 70 97 58 62 46 52 [FD BRS]
0.0022619 1 D9x Rx d 14 39 13 01 0B 58 BA 58 55 95 00 FE 03 BA FF [FD BRS]
0.0027751 1 DCx Rx d 13 39 10 00 16 72 3D E5 0E A2 21 00 23 58 [FD BRS]
0.0065923 1 E3x Rx d 9 41 00 05 08 00 80 03 43 CD [FD BRS]
0.0164533 1 DBx Rx d 14 39 0E 00 20 0B C6 E7 0D 48 80 83 1A 3F 29 [FD BRS]
0.0212679 1 D9x Rx d 13 39 13 00 15 EB 98 E6 07 A0 58 4D DD 0F [FD BRS]
0.0216440 1 DBx Rx d 13 39 0F 00 15 13 EE E7 20 FF FF 7F CF FF [FD BRS]
0.0220302 1 2Dx Rx d 14 30 45 08 04 C4 09 00 90 70 97 58 62 46 52 [FD BRS]
0.0225514 1 D4x Rx d 8 39 04 06 04 8C AD D5 84 [FD BRS]
0.0227108 1 DCx Rx d 14 39 10 01 10 55 40 3F 00 52 10 D9 06 E9 9C [FD BRS]
0.0232280 1 E3x Rx d 11 00 80 00 04 24 5E CD 00 41 00 05 [FD BRS]
0.0234971 1 18E19490x Rx d 15 03 68 06 C4 16 75 D2 11 0E 10 0E 1E 00 F4 00 [FD BRS]
0.0364651 1 DBx Rx d 14 39 0E 00 20 12 CC E8 0D 48 80 83 1A 3F 29 [FD BRS]
0.0411967 1 D9x Rx d 13 39 13 00 15 8C F4 E7 08 A0 58 4D DE 0F [FD BRS]
0.0415739 1 DBx Rx d 13 39 0F 00 15 AD 1B E8 20 FF FF 7F CF FF [FD BRS]
0.0419621 1 2Dx Rx d 14 2F 4C 09 04 C4 09 00 90 70 97 58 62 46 52 [FD BRS]
0.0424852 1 DCx Rx d 13 39 10 00 16 1B 7D E7 0E A2 21 00 23 58 [FD BRS]
0.0466314 1 E3x Rx d 9 39 04 22 08 00 3C 06 7E 78 [FD BRS]
0.0000010 1 F9x Rx d 0  [FD]
0.0044014 1 DBx Rx d 13 39 0F 00 15 E4 1F BE 20 FF FF 7F CF FF [FD BRS]
0.0048666 1 2Dx Rx d 14 1B 43 DF 04 C4 09 00 90 70 97 58 62 46 52 [FD BRS]
0.0053888 1 D9x Rx d 14 39 13 01 0B 58 BA 58 55 95 00 FE 03 BA FF [FD BRS]
0.0059011 1 DCx Rx d 13 39 10 00 16 D5 83 BD 0E A2 21 00 23 58 [FD BRS]
0.0097053 1 E3x Rx d 12 41 00 05 08 00 80 03 43 CD 93 2E 71 [FD BRS]
0.0154386 1 18E19490x Rx d 15 01 EC 01 55 0D 61 01 80 0C E9 00 BC 02 06 06 [FD BRS]
0.0195787 1 DBx Rx d 14 39 0E 00 20 A1 2F BF 0D 48 80 83 1A 3F 29 [FD BRS]
0.0243153 1 D9x Rx d 13 39 13 00 15 E4 00 BE 08 A0 58 4D DD 0F [FD BRS]
0.0246944 1 DBx Rx d 13 39 0F 00 15 06 0F BF 20 FF FF 7F CF FF [FD BRS]
0.0250846 1 2Dx Rx d 14 8F 96 E0 04 C4 09 00 90 70 97 58 62 46 52 [FD BRS]
0.0256048 1 D4x Rx d 8 39 04 06 04 E8 33 CD 84 [FD BRS]
0.0257651 1 DCx Rx d 14 39 10 01 10 55 40 3F 00 52 10 99 16 E8 9C [FD BRS]
0.0262793 1 E3x Rx d 13 00 80 00 04 E7 DB C5 00 41 00 05 08 01 [FD BRS]
0.0395903 1 DBx Rx d 14 39 0E 00 20 E3 EB C0 0D 48 80 83 1A 3F 29 [FD BRS]
0.0442779 1 D9x Rx d 13 39 13 00 15 76 FF BF 08 A0 58 8D DD 0F [FD BRS]
0.0446550 1 DBx Rx d 13 39 0F 00 15 BF A0 C0 20 FF FF 7F CF FF [FD BRS]
0.0450422 1 2Dx Rx d 14 90 9F E1 04 C4 09 00 90 70 97 58 62 46 52 [FD BRS]
0.0455624 1 DCx Rx d 13 39 10 00 16 C2 24 BF 0E A2 21 00 23 54 [FD BRS]
0.0459428 1 18E19490x Rx d 15 02 84 00 64 64 64 01 00 05 27 55 02 02 00 00 [FD BRS]
0.0497450 1 E3x Rx d 12 39 04 22 08 00 3C 06 7E 78 0F FA FF [FD BRS]
0.0055404 1 DBx Rx d 14 39 0E 00 20 D6 21 9C 0D 48 80 83 1A 3F 29 [FD BRS]
0.0103637 1 DBx Rx d 13 39 0F 00 15 22 02 9C 20 FF FF 7F CF FF [FD BRS]
0.0107500 1 D9x Rx d 13 39 13 00 15 8C 6F 9B 08 A0 58 4D DD 0F [FD BRS]
0.0111262 1 2Dx Rx d 14 66 05 BD 04 C4 09 00 90 70 97 58 62 46 52 [FD BRS]
0.0116474 1 D4x Rx d 8 39 04 06 04 F7 2D C6 84 [FD BRS]
0.0118067 1 DCx Rx d 14 39 10 01 10 55 40 3F 30 52 10 61 06 E9 9C [FD BRS]
0.0123219 1 E3x Rx d 11 00 80 00 04 8D 87 BE 00 41 00 05 [FD BRS]
0.0125941 1 18E19490x Rx d 15 03 68 06 CD 16 6C D2 10 0E 10 0E 1E 00 F5 00 [FD BRS]
0.0255521 1 DBx Rx d 14 39 0E 00 20 8D B4 9D 0D 48 80 83 1A 3F 29 [FD BRS]
0.0301837 1 D9x Rx d 13 39 13 00 15 EF 33 9C 08 A0 57 CD DD 0F [FD BRS]
0.0305599 1 DBx Rx d 13 39 0F 00 15 C0 12 9D 20 FF FF 7F CF FF [FD BRS]
0.0309461 1 2Dx Rx d 14 47 1E BE 04 C4 09 00 90 70 97 58 62 46 52 [FD BRS]
0.0314672 1 DCx Rx d 13 39 10 00 16 9B 8A 9C 0E A2 21 00 23 54 [FD BRS]
0.0356975 1 E3x Rx d 9 39 04 22 08 00 3C 06 7E 78 [FD BRS]
0.0407259 1 D4x Rx d 14 39 04 0C 05 0E 0F F4 FF FF 39 15 01 14 45 [FD BRS]
0.0414240 1 18E19490x Rx d 15 04 5C 01 5A 01 0F 00 3E 30 ED 0C 5C 0D 22 01 [FD BRS]
0.0455582 1 DBx Rx d 15 39 0E 01 0F 7C 35 FF FF FF FF FF FF FF 0F D3 [FD BRS]
0.0021774 1 DBx Rx d 14 39 0E 00 20 33 4F 7C 0D 48 80 83 1A 3F 29 [FD BRS]
0.0067690 1 D9x Rx d 13 39 13 00 15 4F F5 7B 08 A0 57 CD DD 0F [FD BRS]
0.0071452 1 DBx Rx d 13 39 0F 00 15 2C B6 7C 20 FF FF 7F CF FF [FD BRS]
0.0075324 1 2Dx Rx d 14 A7 36 9D 04 C4 09 00 90 70 97 58 62 46 52 [FD BRS]
0.0080515 1 DCx Rx d 13 39 10 00 16 49 20 7B 0E A2 21 00 23 54 [FD BRS]
0.0125678 1 4Fx Rx d 8 20 77 07 A0 00 49 A0 9E [FD BRS]
0.0179360 1 18E19490x Rx d 15 02 84 00 64 64 64 01 00 04 27 58 02 03 00 00 [FD BRS]
0.0222371 1 DBx Rx d 14 39 0E 00 20 D3 AA 7D 0D 48 80 83 1A 3F 29 [FD BRS]
0.0269984 1 DBx Rx d 13 39 0F 00 15 CE A6 7D 20 FF FF 7F CF FF [FD BRS]
0.0274146 1 2Dx Rx d 14 86 2D 9E 04 C4 09 00 90 70 97 58 62 46 52 [FD BRS]
0.0279338 1 DCx Rx d 13 39 10 00 16 C0 82 7C 0E A2 01 00 23 58 [FD BRS]
0.0283191 1 D9x Rx d 14 39 13 01 0B 58 BA 58 55 95 00 FE 03 BA FF [FD BRS]
0.0322933 1 E3x Rx d 9 41 00 05 08 00 80 03 43 CD [FD BRS]
0.0421773 1 DBx Rx d 14 39 0E 00 20 1B 06 7E 0D 48 80 83 1A 3F 29 [FD BRS]
0.0469976 1 DBx Rx d 13 39 0F 00 15 E8 97 7E 20 FF FF 7F CF FF [FD BRS]
0.0473839 1 D9x Rx d 13 39 13 00 15 73 78 7D 08 A0 57 0D DD 0F [FD BRS]
0.0477601 1 2Dx Rx d 14 99 24 9F 04 C4 09 00 90 70 97 58 62 46 52 [FD BRS]
0.0482793 1 D4x Rx d 8 39 04 06 04 6E 0A C0 84 [FD BRS]
0.0484406 1 DCx Rx d 14 39 10 01 10 55 40 3F 32 52 10 31 46 E9 9C [FD BRS]
0.0489559 1 E3x Rx d 11 00 80 00 04 14 A0 B8 00 41 00 05 [FD BRS]
0.0492280 1 18E19490x Rx d 15 03 69 06 C7 16 4C D2 11 0E 11 0E 1E 00 F7 00 [FD BRS]
0.0000954 1 DBx Rx d 14 39 0F 01 06 4E 85 04 60 78 19 39 0E 00 20 [FD BRS]
0.0046249 1 D9x Rx d 13 39 13 00 15 1E FB 58 08 A0 57 CD DC 0F [FD BRS]
0.0050031 1 DBx Rx d 13 39 0F 00 15 44 D9 59 20 FF FF 7F CF FF [FD BRS]
0.0053883 1 2Dx Rx d 14 BD 92 7A 04 C4 09 00 90 70 97 58 62 46 52 [FD BRS]
0.0059074 1 DCx Rx d 13 39 10 00 16 78 A3 58 0E A2 01 00 23 54 [FD BRS]
0.0147195 1 21Cx Rx d 8 24 00 00 00 00 00 00 00 [FD BRS]
0.0201468 1 DBx Rx d 14 39 0E 00 20 3B 87 5A 0D 48 80 83 1A 3F 29 [FD BRS]
0.0249791 1 DBx Rx d 13 39 0F 00 15 62 E8 5A 20 FF FF 7F CF FF [FD BRS]
0.0253643 1 2Dx Rx d 14 A2 9B 7B 04 C4 09 00 90 70 97 58 62 46 52 [FD BRS]
0.0258834 1 D9x Rx d 14 39 13 01 0B 58 BA 58 55 95 00 FE 03 BA FF [FD BRS]
0.0263947 1 DCx Rx d 13 39 10 00 16 34 26 59 0E A2 21 00 23 54 [FD BRS]
0.0267750 1 18E19490x Rx d 15 04 5B 01 5E 01 0F 00 3E 30 EB 0C 5C 0D 22 01 [FD BRS]
0.0301773 1 E3x Rx d 12 41 00 05 08 00 80 03 43 CD 92 66 6E [FD BRS]
0.0400863 1 DBx Rx d 14 39 0E 00 20 DB 62 5B 0D 48 80 83 1A 3F 29 [FD BRS]
0.0448538 1 D9x Rx d 13 39 13 00 15 7F 83 5A 08 A0 57 8D DD 0F [FD BRS]
0.0452310 1 DBx Rx d 13 39 0F 00 15 80 F8 5B 20 FF FF 7F CF FF [FD BRS]
0.0456192 1 2Dx Rx d 14 FF A4 7C 04 C4 09 00 90 70 97 58 62 46 52 [FD BRS]
0.0461404 1 D4x Rx d 8 39 04 06 04 6C BB B9 84 [FD BRS]
0.0462997 1 DCx Rx d 14 39 10 01 10 55 40 3F 00 52 10 F9 46 E9 9C [FD BRS]
0.0468139 1 E3x Rx d 13 00 80 00 04 63 53 B1 00 41 00 05 08 01 [FD BRS]
0.0003924 1 DBx Rx d 14 39 0E 00 20 1F 8F 2F 0D 48 80 83 1A 3F 29 [FD BRS]
0.0049940 1 D9x Rx d 13 39 13 00 15 50 2F 2E 08 A0 57 0D DD 0F [FD BRS]
0.0053721 1 DBx Rx d 13 39 0F 00 15 0F E1 2F 20 FF FF 7F CF FF [FD BRS]
0.0057583 1 2Dx Rx d 14 BA FB 50 04 C4 09 00 90 70 97 58 62 46 52 [FD BRS]
0.0062795 1 DCx Rx d 13 39 10 00 16 9D A7 2E 0E A2 21 00 23 54 [FD BRS]
0.0106387 1 E3x Rx d 9 39 04 22 08 00 3C 06 7E 78 [FD BRS]
0.0156671 1 D4x Rx d 14 39 04 0C 05 0E 0F F4 FF FF 39 15 01 14 45 [FD BRS]
0.0203972 1 DBx Rx d 15 39 0E 01 0F 6C 35 FF FF FF FF FF FF FF 0F D3 [FD BRS]
0.0249968 1 D9x Rx d 13 39 13 00 15 62 65 2F 08 A0 57 4D DD 0F [FD BRS]
0.0254350 1 DBx Rx d 13 39 0F 00 15 B0 0A 30 20 FF FF 7F CF FF [FD BRS]
0.0258231 1 2Dx Rx d 14 A5 F2 51 04 C4 09 00 90 70 97 58 62 46 52 [FD BRS]
0.0263463 1 DCx Rx d 13 39 10 00 16 B9 0F 2F 0E A2 21 00 23 54 [FD BRS]
0.0267276 1 18E19490x Rx d 15 01 ED 01 55 0D 60 01 80 0C ED 00 BC 02 06 06 [FD BRS]
0.0405276 1 DBx Rx d 14 39 0F 01 06 4E 85 04 60 78 19 39 0E 00 20 [FD BRS]
0.0450862 1 D9x Rx d 13 39 13 00 15 AD 61 30 08 A0 57 8D DD 0F [FD BRS]
0.0454614 1 DBx Rx d 13 39 0F 00 15 52 1A 31 20 FF FF 7F CF FF [FD BRS]
0.0458466 1 2Dx Rx d 14 84 E9 52 04 C4 09 00 90 70 97 58 62 46 52 [FD BRS]
0.0463657 1 DCx Rx d 13 39 10 00 16 A9 55 30 0E A2 21 00 23 54 [FD BRS]
0.0018213 1 D9x Rx d 13 39 13 00 15 BD F0 07 08 A0 58 CD DD 0F [FD BRS]
0.0023154 1 DBx Rx d 13 39 0F 00 15 A3 AF 08 20 FF FF 7F CF FF [FD BRS]
0.0027026 1 2Dx Rx d 14 EE 7F 29 04 C4 09 00 90 70 97 58 62 46 52 [FD BRS]
0.0032238 1 DCx Rx d 13 39 10 00 16 28 58 07 0E A2 21 00 23 54 [FD BRS]
0.0036060 1 DC085B Rx d 8 40 02 08 00 00 00 00 00
0.0172800 1 DBx Rx d 14 39 0F 01 06 4E 85 04 60 78 19 39 0E 00 20 [FD BRS]
0.0218235 1 D9x Rx d 13 39 13 00 15 A3 B0 08 08 A0 58 4D DD 0F [FD BRS]
0.0223867 1 DBx Rx d 13 39 0F 00 15 41 BF 09 20 FF FF 7F CF FF [FD BRS]
0.0227739 1 2Dx Rx d 14 CF 64 2A 04 C4 09 00 90 70 97 58 62 46 52 [FD BRS]
0.0232941 1 DCx Rx d 13 39 10 00 16 32 21 08 0E A2 21 00 23 54 [FD BRS]
0.0236754 1 18E19490x Rx d 15 00 00 00 01 00 00 00 55 05 69 06 D8 03 00 00 [FD BRS]
0.0374674 1 DBx Rx d 14 39 0E 00 20 DF EB 0A 0D 48 80 83 1A 3F 29 [FD BRS]
0.0422927 1 DBx Rx d 13 39 0F 00 15 67 8E 0A 20 FF FF 7F CF FF [FD BRS]
0.0426789 1 2Dx Rx d 14 D0 6D 2B 04 C4 09 00 90 70 97 58 62 46 52 [FD BRS]
0.0432020 1 D9x Rx d 14 39 13 01 0B 58 BA 58 55 95 00 FE 03 BA FF [FD BRS]
0.0437154 1 DCx Rx d 13 39 10 00 16 16 89 09 0E A2 21 00 23 54 [FD BRS]
0.0474726 1 E3x Rx d 9 41 00 05 08 00 80 03 43 CD [FD BRS]
0.0042059 1 DBx Rx d 14 39 0E 00 20 C8 6D E1 0D 48 80 83 1A 3F 29 [FD BRS]
0.0086954 1 D9x Rx d 13 39 13 00 15 68 35 E0 08 A0 58 CD DC 0F [FD BRS]
0.0092666 1 DBx Rx d 13 39 0F 00 15 5F 8C E1 20 FF FF 7F CF FF [FD BRS]
0.0096528 1 2Dx Rx d 14 F6 1F 02 04 C4 09 00 90 70 97 58 62 46 52 [FD BRS]
0.0101750 1 DCx Rx d 13 39 10 00 16 FA F2 E0 0E A2 21 00 23 54 [FD BRS]
0.0186688 1 D9x Rx d 9 39 FE 28 08 29 00 00 00 00 [FD BRS]
0.0244039 1 DBx Rx d 14 39 0E 00 20 00 C1 E2 0D 48 80 83 1A 3F 29 [FD BRS]
0.0292022 1 DBx Rx d 13 39 0F 00 15 79 BD E2 20 FF FF 7F CF FF [FD BRS]
0.0295864 1 2Dx Rx d 14 E9 16 03 04 C4 09 00 90 70 97 58 62 46 52 [FD BRS]
0.0301076 1 D9x Rx d 14 39 13 01 0B 58 BA 58 55 95 00 FE 03 BA FF [FD BRS]
0.0306209 1 DCx Rx d 13 39 10 00 16 DE 5A E1 0E A2 21 00 23 54 [FD BRS]
0.0310012 1 18E19490x Rx d 15 04 5B 01 5A 01 0F 00 3E 30 EE 0C 5C 0D 22 01 [FD BRS]
0.0343944 1 E3x Rx d 9 41 00 05 08 00 80 03 43 CD [FD BRS]
0.0396217 1 DCx Rx d 9 39 FE 6F 08 94 01 00 80 03 [FD BRS]
0.0442057 1 DBx Rx d 14 39 0E 00 20 94 E5 E3 0D 48 80 83 1A 3F 29 [FD BRS]
0.0489243 1 D9x Rx d 13 39 13 00 15 36 FD E2 08 A0 58 0D DE 0F [FD BRS]
0.0493055 1 DBx Rx d 13 39 0F 00 15 9B AD E3 20 FF FF 7F CF FF [FD BRS]
0.0020704 1 DBx Rx d 14 39 0E 00 20 2C 01 B1 0D 48 80 83 1A 3F 29 [FD BRS]
0.0067159 1 D9x Rx d 13 39 13 00 15 18 50 B0 08 A0 58 CD DD 0F [FD BRS]
0.0070911 1 DBx Rx d 13 39 0F 00 15 5A EA B1 20 FF FF 7F CF FF [FD BRS]
0.0074753 1 2Dx Rx d 14 80 26 D2 04 C4 09 00 90 70 97 58 62 46 52 [FD BRS]
0.0079954 1 D4x Rx d 8 39 04 06 04 78 2E 97 84 [FD BRS]
0.0081558 1 DCx Rx d 14 39 10 01 10 55 40 3F 00 52 10 E9 46 E9 9C [FD BRS]
0.0086690 1 E3x Rx d 11 00 80 00 04 D0 DD 8F 00 41 00 05 [FD BRS]
0.0220830 1 DBx Rx d 14 39 0E 00 20 E4 AD B2 0D 48 80 83 1A 3F 29 [FD BRS]
0.0266665 1 D9x Rx d 13 39 13 00 15 5A F5 B1 08 A0 58 4D DD 0F [FD BRS]
0.0270417 1 DBx Rx d 13 39 0F 00 15 7C DB B2 20 FF FF 7F CF FF [FD BRS]
0.0274279 1 2Dx Rx d 14 9F 2F D3 04 C4 09 00 90 70 97 58 62 46 52 [FD BRS]
0.0279501 1 DCx Rx d 13 39 10 00 16 82 12 B1 0E A2 21 00 23 58 [FD BRS]
0.0283314 1 18E19490x Rx d 15 02 84 00 64 64 64 01 00 05 27 53 02 02 00 00 [FD BRS]
0.0322806 1 E3x Rx d 9 39 04 22 08 00 3C 06 7E 78 [FD BRS]
0.0373190 1 D4x Rx d 9 39 04 0C 05 0E 0F F4 FF FF [FD BRS]
0.0420881 1 DBx Rx d 15 39 0E 01 0F 70 35 FF FF FF FF FF FF FF 0F D3 [FD BRS]
0.0464936 1 D9x Rx d 13 39 13 00 15 79 28 B2 08 A0 58 8D DC 0F [FD BRS]
0.0471018 1 DBx Rx d 13 39 0F 00 15 9E CB B3 20 FF FF 7F CF FF [FD BRS]
0.0474860 1 2Dx Rx d 14 C2 10 D4 04 C4 09 00 90 70 97 58 62 46 52 [FD BRS]
0.0480042 1 DCx Rx d 13 39 10 00 16 B1 1D B2 0E A2 21 00 23 54 [FD BRS]
0.0001692 1 DBx Rx d 14 39 0F 01 06 4E 85 04 60 78 19 39 0E 00 20 [FD BRS]
0.0045107 1 D9x Rx d 13 39 13 00 15 ED DC 86 07 A0 58 4D DD 0F [FD BRS]
0.0051658 1 DBx Rx d 13 39 0F 00 15 15 AA 87 20 FF FF 7F CF FF [FD BRS]
0.0055510 1 2Dx Rx d 14 F5 B9 A8 04 C4 09 00 90 70 97 58 62 46 52 [FD BRS]
0.0060712 1 DCx Rx d 13 39 10 00 16 7D F8 86 0E A2 21 00 23 54 [FD BRS]
0.0203572 1 DBx Rx d 14 39 0E 00 20 3F AA 88 0D 48 80 83 1A 3F 29 [FD BRS]
0.0251305 1 DBx Rx d 13 39 0F 00 15 AB 5F 88 20 FF FF 7F CF FF [FD BRS]
0.0255186 1 2Dx Rx d 14 EA B0 A9 04 C4 09 00 90 70 97 58 62 46 52 [FD BRS]
0.0260418 1 D9x Rx d 14 39 13 01 0B 58 BA 58 55 95 00 FE 03 BA FF [FD BRS]
0.0265552 1 DCx Rx d 13 39 10 00 16 59 50 87 0E A2 21 00 23 54 [FD BRS]
0.0269355 1 18E19490x Rx d 15 04 59 01 5C 01 0F 00 34 30 EB 0C 5C 0D 22 01 [FD BRS]
0.0303167 1 E3x Rx d 9 41 00 05 08 00 80 03 43 CD [FD BRS]
0.0401587 1 DBx Rx d 14 39 0E 00 20 AB 8E 89 0D 48 80 83 1A 3F 29 [FD BRS]
0.0447403 1 D9x Rx d 13 39 13 00 15 7B 1A 88 08 A0 58 0D DD 0F [FD BRS]
0.0451284 1 DBx Rx d 13 39 0F 00 15 49 4F 89 20 FF FF 7F CF FF [FD BRS]
0.0455156 1 2Dx Rx d 14 CB AB AA 04 C4 09 00 90 70 97 58 62 46 52 [FD BRS]
0.0460368 1 D4x Rx d 8 39 04 06 04 1C B0 8F 84 [FD BRS]
0.0461992 1 DCx Rx d 14 39 10 01 10 55 40 3F 00 52 10 A9 02 E8 9C [FD BRS]
0.0467153 1 E3x Rx d 11 00 80 00 04 13 58 87 00 41 00 05 [FD BRS]
0.0004607 1 D9x Rx d 13 39 13 00 15 8E 20 5C 08 A0 58 CD DD 0F [FD BRS]
0.0012409 1 DBx Rx d 13 39 0F 00 15 CC 9A 5D 20 FF FF 7F CF FF [FD BRS]
0.0016261 1 2Dx Rx d 14 C1 B6 7E 04 C4 09 00 90 70 97 58 62 46 52 [FD BRS]
0.0021482 1 DCx Rx d 13 39 10 00 16 C2 0E 5C 0E A2 21 00 23 54 [FD BRS]
0.0025294 1 21Cx Rx d 15 23 00 00 00 00 00 00 00 00 00 00 00 00 00 00 [FD BRS]
0.0063616 1 E3x Rx d 9 39 04 22 08 00 3C 06 7E 78 [FD BRS]
0.0113900 1 D4x Rx d 14 39 04 0C 05 0E 0F F4 FF FF 39 15 01 14 45 [FD BRS]
0.0161891 1 DBx Rx d 15 39 0E 01 0F 84 35 FF FF FF FF FF FF FF 0F D3 [FD BRS]
0.0204646 1 D9x Rx d 13 39 13 00 15 CC 85 5D 08 A0 58 4D DD 0F [FD BRS]
0.0212848 1 DCx Rx d 13 39 10 00 16 E6 A6 5D 0E A2 21 00 23 54 [FD BRS]
0.0216649 1 2Dx Rx d 14 DE BF 7F 04 C4 09 00 90 70 97 58 62 46 52 [FD BRS]
0.0221881 1 DBx Rx d 13 39 0F 00 15 EA AB 5E 20 FF FF 7F CF FF [FD BRS]
0.0225753 1 18E19490x Rx d 15 01 EB 01 55 0D 60 01 80 0C ED 00 BC 02 06 06 [FD BRS]
0.0310934 1 21Cx Rx d 8 24 00 00 00 00 00 00 00 [FD BRS]
0.0361827 1 DBx Rx d 14 39 0F 01 06 4E 85 04 60 78 19 39 0E 00 20 [FD BRS]
0.0404632 1 D9x Rx d 13 39 13 00 15 9A 5B 5E 08 A0 58 8D DD 0F [FD BRS]
0.0411804 1 DBx Rx d 13 39 0F 00 15 08 BB 5F 20 FF FF 7F CF FF [FD BRS]
0.0415676 1 2Dx Rx d 14 CC C2 80 04 C4 09 00 90 70 97 58 62 46 52 [FD BRS]
0.0420877 1 DCx Rx d 13 39 10 00 16 AB 4E 5E 0E A2 21 00 23 54 [FD BRS]
0.0025078 1 DBx Rx d 14 39 0E 00 20 AC AF 39 0D 48 80 83 1A 3F 29 [FD BRS]
0.0069943 1 D9x Rx d 13 39 13 00 15 68 50 38 08 A0 57 0D DC 0F [FD BRS]
0.0075705 1 DBx Rx d 13 39 0F 00 15 42 9D 39 20 FF FF 7F CF FF [FD BRS]
0.0079547 1 2Dx Rx d 14 76 82 5A 04 C4 09 00 90 70 97 58 62 46 52 [FD BRS]
0.0084739 1 D4x Rx d 8 39 04 06 04 51 2F 7F 84 [FD BRS]
0.0086342 1 DCx Rx d 14 39 10 01 10 55 40 3F 32 52 10 29 52 E9 9C [FD BRS]
0.0091494 1 E3x Rx d 11 00 80 00 04 5E C7 77 00 41 00 05 [FD BRS]
0.0225194 1 DBx Rx d 14 39 0E 00 20 AD 91 3A 0D 48 80 83 1A 3F 29 [FD BRS]
0.0230386 1 4Fx Rx d 8 28 B5 0A 04 37 3F 22 C2 [FD BRS]
0.0269952 1 D9x Rx d 13 39 13 00 15 37 81 39 08 A0 58 4D DC 0F [FD BRS]
0.0275074 1 DCx Rx d 13 39 10 00 16 08 EC 39 0E A2 21 00 23 54 [FD BRS]
0.0278876 1 2Dx Rx d 14 69 8B 5B 04 C4 09 00 90 70 97 58 62 46 52 [FD BRS]
0.0284067 1 DBx Rx d 13 39 0F 00 15 64 AC 3A 20 FF FF 7F CF FF [FD BRS]
0.0287909 1 18E19490x Rx d 15 02 84 00 64 64 64 01 00 06 27 55 02 03 00 00 [FD BRS]
0.0326801 1 E3x Rx d 9 39 04 22 08 00 3C 06 7E 78 [FD BRS]
0.0377145 1 D4x Rx d 9 39 04 0C 05 0E 0F F4 FF FF [FD BRS]
0.0425256 1 DBx Rx d 15 39 0E 01 0F 7C 35 FF FF FF FF FF FF FF 0F D3 [FD BRS]
0.0469891 1 D9x Rx d 13 39 13 00 15 64 B3 3A 08 A0 58 4D DD 0F [FD BRS]
0.0475393 1 DBx Rx d 13 39 0F 00 15 86 BC 3B 20 FF FF 7F CF FF [FD BRS]
0.0479235 1 2Dx Rx d 14 3E 97 5C 04 C4 09 00 90 70 97 58 62 46 52 [FD BRS]
0.0484447 1 DCx Rx d 13 39 10 00 16 45 04 3A 0E A2 21 00 23 54 [FD BRS]
0.0038899 1 E3x Rx d 9 39 04 22 08 00 3C 06 7E 78 [FD BRS]
0.0089202 1 D4x Rx d 14 39 04 0C 05 0E 0F F4 FF FF 39 15 01 14 45 [FD BRS]
0.0137443 1 DBx Rx d 15 39 0E 01 0F 64 35 FF FF FF FF FF FF FF 0F D3 [FD BRS]
0.0178979 1 D9x Rx d 13 39 13 00 15 D6 76 0D 07 A0 58 8D DC 0F [FD BRS]
0.0186341 1 DCx Rx d 13 39 10 00 16 C4 09 0D 0E A2 21 00 23 54 [FD BRS]
0.0190142 1 2Dx Rx d 14 AC 49 2F 04 C4 09 00 90 70 97 58 62 46 52 [FD BRS]
0.0195334 1 DBx Rx d 13 39 0F 00 15 EF CD 0E 20 FF FF 7F CF FF [FD BRS]
0.0199206 1 DC085B Rx d 8 40 02 08 00 00 00 00 00
0.0288089 1 18E19490x Rx d 15 03 68 06 BF 16 67 D2 11 0E 11 0E 1E 00 F3 00 [FD BRS]
0.0337380 1 DBx Rx d 14 39 0F 01 06 4E 85 04 60 00 19 39 0E 00 20 [FD BRS]
0.0378945 1 D9x Rx d 13 39 13 00 15 82 49 0E 08 A0 57 4D DD 0F [FD BRS]
0.0387197 1 DCx Rx d 13 39 10 00 16 89 E1 0E 0E A2 21 00 23 54 [FD BRS]
0.0390998 1 2Dx Rx d 14 F9 AF 30 04 C4 09 00 90 70 97 58 62 46 52 [FD BRS]
0.0396210 1 DBx Rx d 13 39 0F 00 15 0D DD 0F 20 FF FF 7F CF FF [FD BRS]
0.0019465 1 18E19490x Rx d 15 04 58 01 5D 01 0F 00 3E 30 EE 0C 5C 0D 22 01 [FD BRS]
0.0026697 1 D4x Rx d 14 39 04 0C 05 0E 0F F4 FF FF 39 15 01 14 45 [FD BRS]
0.0070379 1 DBx Rx d 15 39 0E 01 0F 7C 35 FF FF FF FF FF FF FF 0F D3 [FD BRS]
0.0111104 1 D9x Rx d 13 39 13 00 15 95 63 DB 08 A0 57 8D DD 0F [FD BRS]
0.0118806 1 DCx Rx d 13 39 10 00 16 2C 6E DB 0E A2 21 00 23 54 [FD BRS]
0.0122607 1 2Dx Rx d 14 EE 41 FD 04 C4 09 00 90 70 97 58 62 46 52 [FD BRS]
0.0127829 1 DBx Rx d 13 39 0F 00 15 26 7A DC 20 FF FF 7F CF FF [FD BRS]
0.0131681 1 DC085B Rx d 8 40 02 08 00 00 00 00 00
0.0270301 1 DBx Rx d 14 39 0F 01 06 4E 85 04 60 D8 17 39 0E 00 20 [FD BRS]
0.0311096 1 D9x Rx d 13 39 13 00 15 3B 11 DC 08 A0 57 8D DD 0F [FD BRS]
0.0318348 1 DCx Rx d 13 39 10 00 16 DB 2B DC 0E A2 01 00 23 54 [FD BRS]
0.0322200 1 DBx Rx d 13 39 0F 00 15 C4 6A DD 20 FF FF 7F CF FF [FD BRS]
0.0326051 1 2Dx Rx d 14 C5 79 FE 04 C4 09 00 90 70 97 58 62 46 52 [FD BRS]
0.0331243 1 18E19490x Rx d 15 00 00 00 01 00 00 00 55 05 68 06 D8 03 00 00 [FD BRS]
0.0472323 1 DBx Rx d 14 39 0E 00 20 6C AC DE 0D 48 80 83 1A 3F 29 [FD BRS]
0.0115330 1 DBx Rx d 14 39 0E 00 20 91 52 B1 0D 48 80 83 1A 3F 29 [FD BRS]
0.0162343 1 DCx Rx d 13 39 10 00 16 D8 5D B0 0E A2 21 00 23 54 [FD BRS]
0.0166184 1 DBx Rx d 13 39 0F 00 15 5A EA B1 20 FF FF 7F CF FF [FD BRS]
0.0170036 1 2Dx Rx d 14 80 26 D2 04 C4 09 00 90 70 97 58 62 46 52 [FD BRS]
0.0175239 1 D9x Rx d 14 39 13 01 0B 58 BA 58 55 95 00 FE 03 BA FF [FD BRS]
0.0216292 1 E3x Rx d 9 41 00 05 08 00 80 03 43 CD [FD BRS]
0.0263784 1 18E19490x Rx d 15 01 EB 01 55 0D 60 01 80 0C E9 00 BC 02 06 06 [FD BRS]
0.0315315 1 DBx Rx d 14 39 0E 00 20 2D 3F B2 0D 48 80 83 1A 3F 29 [FD BRS]
0.0357830 1 D9x Rx d 13 39 13 00 15 92 37 B1 08 A0 57 0D DC 0F [FD BRS]
0.0363152 1 DCx Rx d 14 39 10 01 10 55 40 3F 30 52 10 51 12 E9 9C [FD BRS]
0.0368294 1 2Dx Rx d 14 95 0C D3 04 C4 09 00 90 70 97 58 62 46 52 [FD BRS]
0.0373506 1 D4x Rx d 8 39 04 06 04 E9 2A 64 84 [FD BRS]
0.0375099 1 DBx Rx d 13 39 0F 00 15 7C DB B2 20 FF FF 7F CF FF [FD BRS]
0.0378951 1 E3x Rx d 11 00 80 00 04 0F EE 5C 00 41 00 05 [FD BRS]
0.0004418 1 DBx Rx d 13 39 0E 01 0F 7C 35 FF FF FF FF FF FF FF [FD BRS]
0.0043703 1 D9x Rx d 13 39 13 00 15 44 A3 81 08 A0 57 8D DD 0F [FD BRS]
0.0051335 1 DCx Rx d 13 39 10 00 16 E2 90 81 0E A2 21 00 23 54 [FD BRS]
0.0055147 1 DBx Rx d 15 39 0E 00 20 59 66 82 0D 48 80 83 1A 3F 29 80 [FD BRS]
0.0061758 1 2Dx Rx d 14 2C EA A3 04 C4 09 00 90 70 97 58 62 46 52 [FD BRS]
0.0152709 1 DBx Rx d 13 39 0E 04 10 5C E3 0B 4C 24 B4 DB FF 1F [FD BRS]
0.0156492 1 DC085D Rx d 8 40 02 00 00 00 00 00 00
0.0204275 1 DBx Rx d 14 39 0E 00 20 CD 42 83 0D 48 80 83 1A 3F 29 [FD BRS]
0.0243760 1 D9x Rx d 13 39 13 00 15 62 92 82 08 A0 57 8D DD 0F [FD BRS]
0.0250952 1 DCx Rx d 13 39 10 00 16 AF 78 82 0E A2 21 00 23 54 [FD BRS]
0.0254785 1 18E19490x Rx d 15 00 00 00 01 00 00 00 55 05 68 06 D8 03 00 00 [FD BRS]
0.0261787 1 2Dx Rx d 14 71 D5 A4 04 C4 09 00 90 70 97 58 62 46 52 [FD BRS]
0.0267009 1 DBx Rx d 13 39 0F 00 15 9D E9 83 20 FF FF 7F CF FF [FD BRS]
0.0343687 1 D9x Rx d 9 39 FE 28 08 29 00 00 00 00 [FD BRS]
0.0404278 1 DBx Rx d 14 39 0E 00 20 EE 0C 84 0D 48 80 83 1A 3F 29 [FD BRS]
0.0450320 1 DCx Rx d 13 39 10 00 16 8B D0 83 0E A2 21 00 23 54 [FD BRS]
0.0454121 1 D9x Rx d 14 39 13 01 0B 58 BA 58 55 95 00 FE 03 BA FF [FD BRS]
0.0459255 1 2Dx Rx d 14 6E DC A5 04 C4 09 00 90 70 97 58 62 46 52 [FD BRS]
0.0464457 1 DBx Rx d 13 39 0F 00 15 33 9B 84 20 FF FF 7F CF FF [FD BRS]
0.0002476 1 D9x Rx d 13 39 13 00 15 A0 0E 57 08 A0 57 CD DC 0F [FD BRS]
0.0007678 1 DCx Rx d 14 39 10 01 10 55 40 3F 00 52 10 C1 12 E9 9C [FD BRS]
0.0012830 1 DBx Rx d 13 39 0F 00 15 A6 C9 58 20 FF FF 7F CF FF [FD BRS]
0.0016691 1 2Dx Rx d 14 96 AA 79 04 C4 09 00 90 70 97 58 62 46 52 [FD BRS]
0.0021895 1 D4x Rx d 8 39 04 06 04 99 21 52 84 [FD BRS]
0.0023488 1 E3x Rx d 11 00 80 00 04 31 D2 4A 00 41 00 05 [FD BRS]
0.0161468 1 DBx Rx d 14 39 0E 00 20 4E 78 59 0D 48 80 83 1A 3F 29 [FD BRS]
0.0166640 1 4Fx Rx d 8 28 A6 01 04 19 74 88 07 [FD BRS]
0.0200945 1 D9x Rx d 13 39 13 00 15 CB 4D 58 08 A0 57 4D DD 0F [FD BRS]
0.0206437 1 DCx Rx d 13 39 10 00 16 10 8E 58 0E A2 21 00 23 54 [FD BRS]
0.0210260 1 18E19490x Rx d 15 02 84 00 64 64 64 01 00 04 27 53 02 03 00 00 [FD BRS]
0.0217262 1 2Dx Rx d 14 BD 92 7A 04 C4 09 00 90 70 97 58 62 46 52 [FD BRS]
0.0222464 1 DBx Rx d 13 39 0F 00 15 44 D9 59 20 FF FF 7F CF FF [FD BRS]
0.0262366 1 E3x Rx d 9 39 04 22 08 00 3C 06 7E 78 [FD BRS]
0.0312689 1 D4x Rx d 14 39 04 0C 05 0E 0F F4 FF FF 39 15 01 14 45 [FD BRS]
0.0361510 1 DBx Rx d 15 39 0E 01 0F 84 35 FF FF FF FF FF FF FF 0F D3 [FD BRS]
0.0400255 1 D9x Rx d 13 39 13 00 15 29 5D 59 08 A0 57 4D DD 0F [FD BRS]
0.0406517 1 DCx Rx d 13 39 10 00 16 34 26 59 0E A2 21 00 23 54 [FD BRS]
0.0412568 1 DBx Rx d 13 39 0F 00 15 62 E8 5A 20 FF FF 7F CF FF [FD BRS]
0.0416430 1 2Dx Rx d 14 A8 B8 7B 04 C4 09 00 90 70 97 58 62 46 52 [FD BRS]
0.0421634 1 D4x Rx d 15 39 0C 08 3C FE 74 03 80 00 00 08 6C 95 BA 26 [FD BRS]
0.0023201 1 D9x Rx d 13 39 13 00 15 AC 7F 20 08 A0 57 8D DD 0F [FD BRS]
0.0028942 1 DCx Rx d 14 39 10 01 10 55 40 3F 30 52 10 69 06 E8 9C [FD BRS]
0.0036124 1 DBx Rx d 13 39 0F 00 15 53 04 21 20 FF FF 7F CF FF [FD BRS]
0.0039996 1 2Dx Rx d 14 7E 5B 42 04 C4 09 00 90 70 97 58 62 46 52 [FD BRS]
0.0045220 1 D4x Rx d 8 39 04 06 04 7B 86 47 84 [FD BRS]
0.0046813 1 E3x Rx d 11 00 80 00 04 01 2C 3F 00 41 00 05 [FD BRS]
0.0130936 1 18E19490x Rx d 15 00 00 00 01 00 00 00 55 05 68 06 D8 03 00 00 [FD BRS]
0.0184707 1 DBx Rx d 14 39 0E 00 20 E1 7D 22 0D 48 80 83 1A 3F 29 [FD BRS]
0.0224862 1 D9x Rx d 13 39 13 00 15 4E 6F 21 08 A0 57 8D DD 0F [FD BRS]
0.0229544 1 DCx Rx d 13 39 10 00 16 87 DE 21 0E A2 21 00 23 54 [FD BRS]
0.0235616 1 DBx Rx d 13 39 0F 00 15 75 35 22 20 FF FF 7F CF FF [FD BRS]
0.0239467 1 2Dx Rx d 14 6B 71 43 04 C4 09 00 90 70 97 58 62 46 52 [FD BRS]
0.0285511 1 E3x Rx d 9 39 04 22 08 00 3C 06 7E 78 [FD BRS]
0.0335655 1 D4x Rx d 9 39 04 0C 05 0E 0F F4 FF FF [FD BRS]
0.0384746 1 DBx Rx d 15 39 0E 01 0F 84 35 FF FF FF FF FF FF FF 0F D3 [FD BRS]
0.0424081 1 D9x Rx d 13 39 13 00 15 C8 EB 22 08 A0 57 0D DD 0F [FD BRS]
0.0429132 1 DCx Rx d 13 39 10 00 16 CA 36 22 0E A2 21 00 23 54 [FD BRS]
0.0432946 1 18E19490x Rx d 15 01 ED 01 55 0D 60 01 80 0C E9 00 BC 02 06 06 [FD BRS]
0.0439948 1 2Dx Rx d 14 36 4E 44 04 C4 09 00 90 70 97 58 62 46 52 [FD BRS]
0.0445170 1 DBx Rx d 13 39 0F 00 15 97 25 23 20 FF FF 7F CF FF [FD BRS]
0.0484962 1 E3x Rx d 10 39 80 00 0C 00 7F A0 8F 4A 30 [FD BRS]
0.0063965 1 DBx Rx d 14 39 0E 00 20 90 AF F3 0D 48 80 83 1A 3F 29 [FD BRS]
0.0107257 1 DCx Rx d 13 39 10 00 16 99 91 F2 0E A2 21 00 23 54 [FD BRS]
0.0111090 1 D9x Rx d 14 39 13 01 0B 58 BA 58 55 95 00 FE 03 BA FF [FD BRS]
0.0116242 1 2Dx Rx d 14 44 B8 14 04 C4 09 00 90 70 97 58 62 46 52 [FD BRS]
0.0121464 1 DBx Rx d 13 39 0F 00 15 9A B3 F3 20 FF FF 7F CF FF [FD BRS]
0.0125335 1 18E19490x Rx d 15 04 59 01 5B 01 0F 00 2A 30 EB 0C 5C 0D 22 01 [FD BRS]
0.0164177 1 E3x Rx d 9 41 00 05 08 00 80 03 43 CD [FD BRS]
0.0263938 1 DBx Rx d 14 39 0E 00 20 B3 E1 F4 0D 48 80 83 1A 3F 29 [FD BRS]
0.0303623 1 D9x Rx d 13 39 13 00 15 4F 1A F3 08 A0 58 CD DC 0F [FD BRS]
0.0307575 1 DCx Rx d 14 39 10 01 10 55 40 3F 30 52 10 21 56 E9 9C [FD BRS]
0.0314966 1 DBx Rx d 13 39 0F 00 15 34 C1 F4 20 FF FF 7F CF FF [FD BRS]
0.0318838 1 2Dx Rx d 14 51 92 15 04 C4 09 00 90 70 97 58 62 46 52 [FD BRS]
0.0324022 1 D4x Rx d 8 39 04 06 04 79 37 3E 84 [FD BRS]
0.0325625 1 E3x Rx d 11 00 80 00 04 76 DF 36 00 41 00 05 [FD BRS]
0.0409868 1 18E19490x Rx d 15 00 00 00 01 00 00 00 55 05 68 06 D8 03 00 00 [FD BRS]
0.0464049 1 DBx Rx d 14 39 0E 00 20 27 C5 F5 0D 48 80 83 1A 3F 29 [FD BRS]
0.0469251 1 4Fx Rx d 8 28 34 0D 04 19 75 E6 24 [FD BRS]
0.0006677 1 DBx Rx d 14 39 0E 00 20 71 EC C1 0D 48 80 83 1A 3F 29 [FD BRS]
0.0048980 1 DCx Rx d 13 39 10 00 16 EE B4 C0 0E A2 21 00 23 54 [FD BRS]
0.0052793 1 D9x Rx d 14 39 13 01 0B 58 BA 58 55 95 00 FE 03 BA FF [FD BRS]
0.0057925 1 DBx Rx d 13 39 0F 00 15 5D B0 C1 20 FF FF 7F CF FF [FD BRS]
0.0061787 1 2Dx Rx d 14 B1 84 E2 04 C4 09 00 90 70 97 58 62 46 52 [FD BRS]
0.0106711 1 E3x Rx d 9 41 00 05 08 00 80 03 43 CD [FD BRS]
0.0149623 1 18E19490x Rx d 15 01 EE 01 55 0D 60 01 80 0C E9 00 BC 02 06 06 [FD BRS]
0.0206814 1 DBx Rx d 14 39 0E 00 20 70 D2 C2 0D 48 80 83 1A 3F 29 [FD BRS]
0.0243299 1 D9x Rx d 13 39 13 00 15 58 43 C1 08 A0 58 8D DC 0F [FD BRS]
0.0249711 1 DCx Rx d 14 39 10 01 10 55 40 3F 00 52 10 D1 42 E9 9C [FD BRS]
0.0257682 1 DBx Rx d 13 39 0F 00 15 7B 81 C2 20 FF FF 7F CF FF [FD BRS]
0.0261554 1 2Dx Rx d 14 A4 AE E3 04 C4 09 00 90 70 97 58 62 46 52 [FD BRS]
0.0266738 1 D4x Rx d 8 39 04 06 04 D2 5F 34 84 [FD BRS]
0.0268341 1 E3x Rx d 11 00 80 00 04 7A AC 2C 00 41 00 05 [FD BRS]
0.0406791 1 DBx Rx d 14 39 0E 00 20 E4 F6 C3 0D 48 80 83 1A 3F 29 [FD BRS]
0.0411993 1 4Fx Rx d 8 28 E3 0B 04 19 76 68 C4 [FD BRS]
0.0443198 1 D9x Rx d 13 39 13 00 15 AE 28 C2 08 A0 58 CD DC 0F [FD BRS]
0.0448950 1 DCx Rx d 13 39 10 00 16 87 F4 C2 0E A2 21 00 23 54 [FD BRS]
0.0452783 1 18E19490x Rx d 15 02 84 00 64 64 64 01 00 05 27 56 02 03 00 00 [FD BRS]
0.0459815 1 2Dx Rx d 14 F3 B2 E4 04 C4 09 00 90 70 97 58 62 46 52 [FD BRS]
0.0465016 1 DBx Rx d 13 39 0F 00 15 99 91 C3 20 FF FF 7F CF FF [FD BRS]
0.0007140 1 D9x Rx d 13 39 13 00 15 6D 45 8F 08 A0 57 8D DC 0F [FD BRS]
0.0010911 1 DCx Rx d 14 39 10 01 10 55 40 3F 82 52 10 81 46 E9 9C [FD BRS]
0.0016074 1 18E19490x Rx d 15 03 69 06 C5 16 71 D2 0F 0E 0F 0E 1E 00 01 01 [FD BRS]
0.0023066 1 2Dx Rx d 14 E2 69 B1 04 C4 09 00 90 70 97 58 62 46 52 [FD BRS]
0.0028258 1 D4x Rx d 8 39 04 06 04 2F E6 2A 84 [FD BRS]
0.0029862 1 DBx Rx d 13 39 0F 00 15 BA C6 90 20 FF FF 7F CF FF [FD BRS]
0.0033743 1 E3x Rx d 11 00 80 00 04 20 0E 22 00 41 00 05 [FD BRS]
0.0169203 1 DBx Rx d 14 39 0E 00 20 5A 31 91 0D 48 80 83 1A 3F 29 [FD BRS]
0.0174385 1 4Fx Rx d 8 28 C3 09 04 19 77 0C B7 [FD BRS]
0.0204870 1 D9x Rx d 13 39 13 00 15 02 F4 90 08 A0 57 CD DC 0F [FD BRS]
0.0210342 1 DCx Rx d 13 39 10 00 16 CC 1B 90 0E A2 21 00 23 54 [FD BRS]
0.0220294 1 2Dx Rx d 14 C9 51 B2 04 C4 09 00 90 70 97 58 62 46 52 [FD BRS]
0.0225506 1 DBx Rx d 13 39 0F 00 15 58 D6 91 20 FF FF 7F CF FF [FD BRS]
0.0269418 1 E3x Rx d 9 39 04 22 08 00 3C 06 7E 78 [FD BRS]
0.0310840 1 18E19490x Rx d 15 04 5B 01 59 01 0F 00 34 30 ED 0C 5B 0D 22 01 [FD BRS]
0.0319712 1 D4x Rx d 14 39 04 0C 05 0E 0F F4 FF FF 39 15 01 14 45 [FD BRS]
0.0369253 1 DBx Rx d 15 39 0E 01 0F 7C 35 FF FF FF FF FF FF FF 0F D3 [FD BRS]
0.0404898 1 D9x Rx d 13 39 13 00 15 E5 08 91 08 A0 57 0D DD 0F [FD BRS]
0.0411120 1 DCx Rx d 13 39 10 00 16 E8 B3 91 0E A2 21 00 23 54 [FD BRS]
0.0419832 1 D4x Rx d 15 39 0C 08 3C FE 74 03 80 00 00 08 6C 95 BA 24 [FD BRS]
0.0426414 1 2Dx Rx d 14 D6 58 B3 04 C4 09 00 90 70 97 58 62 46 52 [FD BRS]
0.0431607 1 DBx Rx d 13 39 0F 00 15 7E E7 92 20 FF FF 7F CF FF [FD BRS]
0.0026166 1 E3x Rx d 9 39 04 22 08 00 3C 06 7E 78 [FD BRS]
0.0076450 1 D4x Rx d 14 39 04 0C 05 0E 0F F4 FF FF 39 15 01 14 45 [FD BRS]
0.0126161 1 DBx Rx d 15 39 0E 01 0F 7C 35 FF FF FF FF FF FF FF 0F D3 [FD BRS]
0.0161025 1 D9x Rx d 13 39 13 00 15 A8 11 5F 08 A0 58 CD DD 0F [FD BRS]
0.0166277 1 DCx Rx d 13 39 10 00 16 E7 CB 5F 0E A2 01 00 23 54 [FD BRS]
0.0170111 1 18E19490x Rx d 15 01 EC 01 55 0D 60 01 80 0C ED 00 BC 02 06 06 [FD BRS]
0.0177113 1 D4x Rx d 15 39 0C 08 3C FE 74 03 80 00 00 08 6C 95 3A 24 [FD BRS]
0.0183695 1 2Dx Rx d 14 D9 E8 81 04 C4 09 00 90 70 97 58 62 46 52 [FD BRS]
0.0188888 1 DBx Rx d 13 39 0F 00 15 B5 6C 60 20 FF FF 7F CF FF [FD BRS]
0.0326090 1 DBx Rx d 14 39 0F 01 06 4E 85 04 60 34 1D 39 0E 00 20 [FD BRS]
0.0361025 1 D9x Rx d 13 39 13 00 15 C5 9C 60 08 A0 58 8D DD 0F [FD BRS]
0.0366416 1 DCx Rx d 13 39 10 00 16 8B FA 60 0E A2 21 00 23 54 [FD BRS]
0.0376898 1 2Dx Rx d 14 F8 F3 82 04 C4 09 00 90 70 97 58 62 46 52 [FD BRS]
0.0382119 1 DBx Rx d 13 39 0F 00 15 57 7C 61 20 FF FF 7F CF FF [FD BRS]
0.0466933 1 18E19490x Rx d 15 02 84 00 64 64 64 01 00 05 27 56 02 02 00 00 [FD BRS]
0.0013304 1 18E19490x Rx d 15 01 ED 01 55 0D 60 01 80 0C E9 00 BC 02 06 06 [FD BRS]
0.0072895 1 DBx Rx d 14 39 0E 00 20 6A 70 2C 0D 48 80 83 1A 3F 29 [FD BRS]
0.0107729 1 D9x Rx d 13 39 13 00 15 87 BD 2B 08 A0 58 4D DD 0F [FD BRS]
0.0113391 1 DCx Rx d 14 39 10 01 10 55 40 3F 00 52 10 E1 42 E9 9C [FD BRS]
0.0123963 1 2Dx Rx d 14 DB 2C 4D 04 C4 09 00 90 70 97 58 62 46 52 [FD BRS]
0.0129165 1 D4x Rx d 8 39 04 06 04 F4 85 16 84 [FD BRS]
0.0130758 1 DBx Rx d 13 39 0F 00 15 29 D0 2C 20 FF FF 7F CF FF [FD BRS]
0.0134630 1 E3x Rx d 11 00 80 00 04 5C 76 0E 00 41 00 05 [FD BRS]
0.0272940 1 DBx Rx d 14 39 0E 00 20 FE 54 2D 0D 48 80 83 1A 3F 29 [FD BRS]
0.0278132 1 4Fx Rx d 8 28 CA 05 04 19 78 42 91 [FD BRS]
0.0309407 1 D9x Rx d 13 39 13 00 15 29 CF 2C 08 A0 58 4D DD 0F [FD BRS]
0.0313179 1 DCx Rx d 13 39 10 00 16 F4 E7 2C 0E A2 21 00 23 54 [FD BRS]
0.0317012 1 18E19490x Rx d 15 02 84 00 64 64 64 01 00 04 27 56 02 02 00 00 [FD BRS]
0.0324034 1 2Dx Rx d 14 FA 37 4E 04 C4 09 00 90 70 97 58 62 46 52 [FD BRS]
0.0329235 1 DBx Rx d 13 39 0F 00 15 CB C0 2D 20 FF FF 7F CF FF [FD BRS]
0.0372878 1 E3x Rx d 9 39 04 22 08 00 3C 06 7E 78 [FD BRS]
0.0423421 1 D4x Rx d 14 39 04 0C 05 0E 0F F4 FF FF 39 15 01 14 45 [FD BRS]
0.0473062 1 DBx Rx d 15 39 0E 01 0F 78 35 FF FF FF FF FF FF FF 0F D3 [FD BRS]
0.0045571 1 DBx Rx d 14 39 0E 00 20 8E B8 FF 0D 48 80 83 1A 3F 29 [FD BRS]
0.0079606 1 D9x Rx d 13 39 13 00 15 35 CE FE 08 A0 58 CD DC 0F [FD BRS]
0.0084637 1 DCx Rx d 14 39 10 01 10 55 40 3F 00 52 10 99 06 E8 9C [FD BRS]
0.0096719 1 2Dx Rx d 14 03 1D 20 04 C4 09 00 90 70 97 58 62 46 52 [FD BRS]
0.0101931 1 D4x Rx d 8 39 04 06 04 4C 80 0D 84 [FD BRS]
0.0103544 1 DBx Rx d 13 39 0F 00 15 02 77 FF 20 FF FF 7F CF FF [FD BRS]
0.0107437 1 E3x Rx d 11 00 80 00 04 43 68 05 00 41 00 05 [FD BRS]
0.0245597 1 DBx Rx d 14 39 0E 00 20 70 B5 00 0D 48 80 83 1A 3F 29 [FD BRS]
0.0281371 1 D9x Rx d 13 39 13 00 15 A7 31 FF 08 A0 58 0D DC 0F [FD BRS]
0.0285153 1 DCx Rx d 13 39 10 00 16 EA A8 FF 0E A2 21 00 23 54 [FD BRS]
0.0288976 1 18E19490x Rx d 15 02 84 00 64 64 64 01 00 04 27 53 02 02 00 00 [FD BRS]
0.0296188 1 2Dx Rx d 14 1C 14 21 04 C4 09 00 90 70 97 58 62 46 52 [FD BRS]
0.0301410 1 DBx Rx d 13 39 0F 00 15 B3 28 00 20 FF FF 7F CF FF [FD BRS]
0.0345342 1 E3x Rx d 9 39 04 22 08 00 3C 06 7E 78 [FD BRS]
0.0395805 1 D4x Rx d 12 39 04 0C 05 0E 0F F4 FF FF 39 FE 1D [FD BRS]
0.0445716 1 DBx Rx d 15 39 0E 01 0F 84 35 FF FF FF FF FF FF FF 0F D3 [FD BRS]
0.0480591 1 D9x Rx d 13 39 13 00 15 7B F5 00 08 A0 57 0D DC 0F [FD BRS]
0.0484443 1 DCx Rx d 13 39 10 00 16 B7 30 00 0E A2 21 00 23 54 [FD BRS]
0.0034556 1 DBx Rx d 14 39 0E 00 20 00 59 D2 0D 48 80 83 1A 3F 29 [FD BRS]
0.0070051 1 D9x Rx d 13 39 13 00 15 E1 70 D1 08 A0 57 0D DD 0F [FD BRS]
0.0073793 1 DCx Rx d 14 39 10 01 10 55 40 3F 30 52 10 51 12 E9 9C [FD BRS]
0.0085265 1 2Dx Rx d 14 54 3F F3 04 C4 09 00 90 70 97 58 62 46 52 [FD BRS]
0.0090487 1 D4x Rx d 8 39 04 06 04 3B 73 04 84 [FD BRS]
0.0092090 1 DBx Rx d 13 39 0F 00 15 7A 9F D2 20 FF FF 7F CF FF [FD BRS]
0.0095952 1 E3x Rx d 11 00 80 00 04 79 04 FC 00 41 00 05 [FD BRS]
0.0234502 1 DBx Rx d 14 39 0E 00 20 F2 68 D3 0C 48 80 83 1A 3F 29 [FD BRS]
0.0269067 1 D9x Rx d 13 39 13 00 15 17 1B D2 08 A0 57 4D DD 0F [FD BRS]
0.0272838 1 DCx Rx d 13 39 10 00 16 8D D7 D2 0E A2 21 00 23 54 [FD BRS]
0.0276661 1 18E19490x Rx d 15 02 84 00 64 64 64 01 00 05 27 54 02 03 00 00 [FD BRS]
0.0285013 1 2Dx Rx d 14 09 00 F4 04 C4 09 00 90 70 97 58 62 46 52 [FD BRS]
0.0290235 1 DBx Rx d 13 39 0F 00 15 98 8F D3 20 FF FF 7F CF FF [FD BRS]
0.0294218 1 21Cx Rx d 15 23 00 00 00 00 00 00 00 00 00 00 00 00 00 00 [FD BRS]
0.0334141 1 E3x Rx d 9 39 04 22 08 00 3C 06 7E 78 [FD BRS]
0.0384464 1 D4x Rx d 14 39 04 0C 05 0E 0F F4 FF FF 39 15 01 14 45 [FD BRS]
0.0434635 1 DBx Rx d 15 39 0E 01 0F 64 35 FF FF FF FF FF FF FF 0F D3 [FD BRS]
0.0467390 1 D9x Rx d 13 39 13 00 15 20 BD D3 08 A0 57 CD DC 0F [FD BRS]
0.0472112 1 DCx Rx d 13 39 10 00 16 A9 7F D3 0E A2 21 00 23 54 [FD BRS]
0.0484874 1 2Dx Rx d 14 16 09 F5 04 C4 09 00 90 70 97 58 62 46 52 [FD BRS]
0.0490075 1 DBx Rx d 13 39 0F 00 15 36 FD D4 20 FF FF 7F CF FF [FD BRS]
0.0042037 1 DBx Rx d 15 39 0E 01 0F 6C 35 FF FF FF FF FF FF FF 0F D3 [FD BRS]
0.0073992 1 D9x Rx d 13 39 13 00 15 33 9C A1 08 A0 57 8D DC 0F [FD BRS]
0.0079033 1 DCx Rx d 13 39 10 00 16 F6 D6 A1 0E A2 21 00 23 54 [FD BRS]
0.0092156 1 2Dx Rx d 14 45 9A C3 04 C4 09 00 90 70 97 58 62 46 52 [FD BRS]
0.0097377 1 DBx Rx d 13 39 0F 00 15 7D C5 A2 20 FF FF 7F CF FF [FD BRS]
0.0191139 1 21Cx Rx d 15 22 33 00 30 01 8C 00 FF 00 BE 00 86 00 5C 00 [FD BRS]
0.0241952 1 DBx Rx d 14 39 0F 01 06 4E 85 04 60 78 19 39 0E 00 20 [FD BRS]
0.0273967 1 D9x Rx d 13 39 13 00 15 B5 18 A2 08 A0 57 0D DC 0F [FD BRS]
0.0278449 1 DCx Rx d 13 39 10 00 16 BB 3E A2 0E A2 21 00 23 54 [FD BRS]
0.0282282 1 18E19490x Rx d 15 00 00 00 01 00 00 00 55 05 68 06 D8 03 00 00 [FD BRS]
0.0292104 1 2Dx Rx d 14 18 A5 C4 04 C4 09 00 90 70 97 58 62 46 52 [FD BRS]
0.0297306 1 DBx Rx d 13 39 0F 00 15 9F D5 A3 20 FF FF 7F CF FF [FD BRS]
0.0441867 1 DBx Rx d 14 39 0E 00 20 57 8D A4 0D 48 80 83 1A 3F 29 [FD BRS]
0.0478269 1 DCx Rx d 13 39 10 00 16 9F 96 A3 0E A2 21 00 23 54 [FD BRS]
0.0483742 1 D9x Rx d 14 39 13 01 0B 58 BA 58 55 95 00 FE 03 BA FF [FD BRS]
0.0492635 1 2Dx Rx d 14 07 AC C5 04 C4 09 00 90 70 97 58 62 46 52 [FD BRS]
0.0008953 1 E3x Rx d 10 39 80 00 0C 00 7F B2 8F 4B 30 [FD BRS]
0.0045915 1 18E19490x Rx d 15 03 68 06 C7 16 7F D2 11 0E 12 0E 1E 00 F8 00 [FD BRS]
0.0110056 1 DBx Rx d 14 39 0E 00 20 8C 75 6C 0D 48 80 83 1A 3F 29 [FD BRS]
0.0141301 1 D9x Rx d 13 39 13 00 15 EE 5E 6B 08 A0 57 4D DD 0F [FD BRS]
0.0145483 1 DCx Rx d 13 39 10 00 16 43 03 6B 0E A2 21 00 23 54 [FD BRS]
0.0160155 1 2Dx Rx d 14 7D 83 8D 04 C4 09 00 90 70 97 58 62 46 52 [FD BRS]
0.0165356 1 DBx Rx d 13 39 0F 00 15 2D A8 6C 20 FF FF 7F CF FF [FD BRS]
0.0210719 1 21Cx Rx d 15 11 02 01 05 02 C3 01 C5 01 3D 00 F2 00 AD 00 [FD BRS]
0.0217381 1 21Dx Rx d 3 30 40 28 [FD BRS]
0.0219112 1 21Cx Rx d 15 21 00 B9 00 7B 00 50 00 40 00 38 00 33 02 12 [FD BRS]
0.0310054 1 DBx Rx d 14 39 0E 00 20 18 51 6D 0D 48 80 83 1A 3F 29 [FD BRS]
0.0344606 1 DCx Rx d 13 39 10 00 16 DC 6B 6C 0E A2 21 00 23 54 [FD BRS]
0.0348420 1 18E19490x Rx d 15 04 5A 01 5A 01 0F 00 34 30 ED 0C 5C 0D 22 01 [FD BRS]
0.0355623 1 D9x Rx d 14 39 13 01 0B 58 BA 58 55 95 00 FE 03 BA FF [FD BRS]
0.0360745 1 2Dx Rx d 14 5C 98 8E 04 C4 09 00 90 70 97 58 62 46 52 [FD BRS]
0.0365967 1 DBx Rx d 13 39 0F 00 15 CF B8 6D 20 FF FF 7F CF FF [FD BRS]
0.0408959 1 E3x Rx d 9 41 00 05 08 00 80 03 43 CD [FD BRS]
0.0445051 1 DC08E2 Rx d 8 40 02 00 00 00 00 00 00
0.0459652 1 21Cx Rx d 15 22 33 00 30 01 8C 00 FF 00 BE 00 86 00 5C 00 [FD BRS]
0.0083023 1 21Cx Rx d 8 24 00 00 00 00 00 00 00 [FD BRS]
0.0133315 1 DBx Rx d 14 39 0E 00 20 3F 14 40 0C 48 80 83 1A 3F 29 [FD BRS]
0.0166897 1 DCx Rx d 13 39 10 00 16 86 81 3F 0E A2 21 00 23 50 [FD BRS]
0.0170721 1 18E19490x Rx d 15 04 59 01 5A 01 0E 00 34 30 EB 0C 5B 0D 22 01 [FD BRS]
0.0177913 1 D9x Rx d 14 39 13 01 0B 58 BA 58 55 95 00 FE 03 BA FF [FD BRS]
0.0183726 1 2Dx Rx d 14 BE 74 61 04 C4 09 00 90 70 97 58 62 46 52 [FD BRS]
0.0188938 1 DBx Rx d 13 39 0F 00 15 B7 50 40 20 FF FF 7F CF FF [FD BRS]
0.0232040 1 E3x Rx d 12 41 00 05 08 00 80 03 43 CD 8A 32 6D [FD BRS]
0.0333290 1 DBx Rx d 14 39 0E 00 20 AB 30 41 0C 48 80 83 1A 3F 29 [FD BRS]
0.0366185 1 D9x Rx d 13 39 13 00 15 DF 38 40 08 A0 57 8D DC 0F [FD BRS]
0.0369986 1 DCx Rx d 14 39 10 01 10 55 40 3F 30 52 10 69 46 E8 9C [FD BRS]
0.0383709 1 2Dx Rx d 14 9F 6F 62 04 C4 09 00 90 70 97 58 62 46 52 [FD BRS]
0.0388910 1 D4x Rx d 8 39 04 06 04 0D 6C E7 84 [FD BRS]
0.0390514 1 DBx Rx d 13 39 0F 00 15 55 40 41 20 FF FF 7F CF FF [FD BRS]
0.0394376 1 E3x Rx d 13 00 80 00 04 EB A8 DF 00 41 00 05 08 01 [FD BRS]
0.0469118 1 18E19490x Rx d 15 00 00 00 01 00 00 00 55 05 68 06 D8 03 00 00 [FD BRS]
0.0128224 1 DBx Rx d 14 39 0F 01 06 4E 85 04 60 78 19 39 0E 00 20 [FD BRS]
0.0158099 1 D9x Rx d 13 39 13 00 15 43 8A 16 08 A0 57 0D DD 0F [FD BRS]
0.0161851 1 DCx Rx d 13 39 10 00 16 06 D3 16 0E A2 21 00 23 54 [FD BRS]
0.0177903 1 2Dx Rx d 14 2B C3 38 04 C4 09 00 90 70 97 58 62 46 52 [FD BRS]
0.0183104 1 DBx Rx d 13 39 0F 00 15 1C 44 17 20 FF FF 7F CF FF [FD BRS]
0.0229606 1 4Fx Rx d 8 20 7F 0A A0 00 49 A0 87 [FD BRS]
0.0262418 1 18E19490x Rx d 15 02 84 00 64 64 64 01 00 03 27 55 02 02 00 00 [FD BRS]
0.0328139 1 DBx Rx d 14 39 0E 00 20 87 29 18 0D 48 80 83 1A 3F 29 [FD BRS]
0.0361581 1 DCx Rx d 13 39 10 00 16 22 7B 17 0E A2 21 00 23 54 [FD BRS]
0.0367794 1 D9x Rx d 14 39 13 01 0B 58 BA 58 55 95 00 FE 03 BA FF [FD BRS]
0.0378057 1 2Dx Rx d 14 34 CA 39 04 C4 09 00 90 70 97 58 62 46 52 [FD BRS]
0.0383288 1 DBx Rx d 13 39 0F 00 15 A2 B1 18 20 FF FF 7F CF FF [FD BRS]
0.0426740 1 E3x Rx d 9 41 00 05 08 00 80 03 43 CD [FD BRS]
0.0033779 1 E3x Rx d 11 41 00 05 08 01 DA 77 0C 4C 09 65 [FD BRS]
0.0069781 1 18E19490x Rx d 15 00 00 00 01 00 00 00 55 05 68 06 D8 03 00 00 [FD BRS]
0.0135362 1 DBx Rx d 14 39 0E 00 20 06 3B E8 0C 48 80 83 1A 3F 29 [FD BRS]
0.0140584 1 4Fx Rx d 8 28 C1 08 04 37 49 FB E7 [FD BRS]
0.0164469 1 D9x Rx d 13 39 13 00 15 0B 69 E7 08 A0 57 4D DC 0F [FD BRS]
0.0168271 1 DCx Rx d 13 39 10 00 16 65 9A E7 0E A2 21 00 23 54 [FD BRS]
0.0185013 1 2Dx Rx d 14 05 68 09 04 C4 09 00 90 70 97 58 62 46 52 [FD BRS]
0.0190224 1 DBx Rx d 13 39 0F 00 15 AD 1B E8 20 FF FF 7F CF FF [FD BRS]
0.0234096 1 E3x Rx d 9 39 04 22 08 00 3C 06 7E 78 [FD BRS]
0.0284400 1 D4x Rx d 9 39 04 0C 05 0E 0F F4 FF FF [FD BRS]
0.0335411 1 DBx Rx d 15 39 0E 01 0F 84 35 FF FF FF FF FF FF FF 0F D3 [FD BRS]
0.0364495 1 D9x Rx d 13 39 13 00 15 B5 9C E8 08 A0 57 4D DC 0F [FD BRS]
0.0368277 1 DCx Rx d 13 39 10 00 16 7F E3 E8 0E A2 21 00 23 54 [FD BRS]
0.0372130 1 18E19490x Rx d 15 01 E8 01 55 0D 5F 01 80 0C E9 00 BC 02 06 06 [FD BRS]
0.0384893 1 2Dx Rx d 14 24 73 0A 04 C4 09 00 90 70 97 58 62 46 52 [FD BRS]
0.0390094 1 DBx Rx d 13 39 0F 00 15 4F 0B E9 20 FF FF 7F CF FF [FD BRS]
0.0484067 1 E3x Rx d 10 39 80 00 0C 00 7F A0 8F 4B 30 [FD BRS]
0.0000018 1 F9x Rx d 0  [FD]
0.0001371 1 DBx Rx d 13 39 0F 00 15 A8 7D B8 20 FF FF 7F CF FF [FD BRS]
0.0146653 1 DBx Rx d 14 39 0E 00 20 DF D7 B9 0D 48 80 83 1A 3F 29 [FD BRS]
0.0178015 1 DCx Rx d 13 39 10 00 16 35 61 B8 0E A2 01 00 23 54 [FD BRS]
0.0181848 1 18E19490x Rx d 15 04 5A 01 5D 01 0F 00 48 30 EB 0C 5C 0D 22 01 [FD BRS]
0.0189051 1 D9x Rx d 14 39 13 01 0B 58 BA 58 55 95 00 FE 03 BA FF [FD BRS]
0.0196523 1 2Dx Rx d 14 52 4A DA 04 C4 09 00 90 70 97 58 62 46 52 [FD BRS]
0.0201725 1 DBx Rx d 13 39 0F 00 15 4A 6D B9 20 FF FF 7F CF FF [FD BRS]
0.0244967 1 E3x Rx d 9 41 00 05 08 00 80 03 43 CD [FD BRS]
0.0346647 1 DBx Rx d 14 39 0E 00 20 AC 0B BA 0D 48 80 83 1A 3F 29 [FD BRS]
0.0378099 1 DCx Rx d 14 39 10 01 10 55 40 3F 00 52 10 91 06 E8 9C [FD BRS]
0.0383241 1 D9x Rx d 13 39 13 00 15 22 05 B9 08 A0 57 8D DC 0F [FD BRS]
0.0396414 1 2Dx Rx d 14 4D 43 DB 04 C4 09 00 90 70 97 58 62 46 52 [FD BRS]
0.0401605 1 D4x Rx d 8 39 04 06 04 5C 45 CC 84 [FD BRS]
0.0403199 1 DBx Rx d 13 39 0F 00 15 6C 5C BA 20 FF FF 7F CF FF [FD BRS]
0.0445041 1 E3x Rx d 11 41 00 05 08 01 BE C7 B0 05 72 0C [FD BRS]
0.0480193 1 18E19490x Rx d 15 00 00 00 01 00 00 00 55 05 68 06 D8 03 00 00 [FD BRS]
0.0016553 1 D4x Rx d 14 39 04 0C 05 0E 0F F4 FF FF 39 15 01 14 45 [FD BRS]
0.0067784 1 DBx Rx d 15 39 0E 01 0F 7C 35 FF FF FF FF FF FF FF 0F D3 [FD BRS]
0.0095418 1 D9x Rx d 13 39 13 00 15 3C 53 89 08 A0 58 4D DC 0F [FD BRS]
0.0099180 1 DCx Rx d 13 39 10 00 16 67 81 89 0E A2 21 00 23 54 [FD BRS]
0.0116932 1 2Dx Rx d 14 FE 86 AB 04 C4 09 00 90 70 97 58 62 46 52 [FD BRS]
0.0122143 1 DBx Rx d 13 39 0F 00 15 6F 7E 8A 20 FF FF 7F CF FF [FD BRS]
0.0126005 1 DC085B Rx d 8 40 02 08 00 00 00 00 00
0.0199068 1 18E19490x Rx d 15 03 68 06 CC 16 69 D2 0F 0E 10 0E 1E 00 EE 00 [FD BRS]
0.0267728 1 DBx Rx d 14 39 0F 01 06 4E 85 04 60 E4 18 39 0E 00 20 [FD BRS]
0.0295423 1 D9x Rx d 13 39 13 00 15 6A 8D 8A 08 A0 58 8D DC 0F [FD BRS]
0.0299185 1 DCx Rx d 13 39 10 00 16 2A 69 8A 0E A2 21 00 23 54 [FD BRS]
0.0316967 1 2Dx Rx d 14 A3 B9 AC 04 C4 09 00 90 70 97 58 62 46 52 [FD BRS]
0.0322168 1 DBx Rx d 13 39 0F 00 15 8D 6E 8B 20 FF FF 7F CF FF [FD BRS]
0.0467640 1 DBx Rx d 14 39 0E 00 20 C0 BF 8C 0C 48 80 83 1A 3F 29 [FD BRS]
0.0087353 1 DBx Rx d 14 39 0E 00 20 F2 15 5A 0D 48 80 83 1A 3F 29 [FD BRS]
0.0116075 1 DCx Rx d 13 39 10 00 16 34 26 59 0E A2 21 00 23 54 [FD BRS]
0.0124208 1 D9x Rx d 14 39 13 01 0B 58 BA 58 55 95 00 FE 03 BA FF [FD BRS]
0.0136641 1 2Dx Rx d 14 88 BF 7B 04 C4 09 00 90 70 97 58 62 46 52 [FD BRS]
0.0141862 1 DBx Rx d 13 39 0F 00 15 62 E8 5A 20 FF FF 7F CF FF [FD BRS]
0.0185334 1 E3x Rx d 9 41 00 05 08 00 80 03 43 CD [FD BRS]
0.0217416 1 18E19490x Rx d 15 01 ED 01 55 0D 5F 01 80 0C ED 00 BC 02 06 06 [FD BRS]
0.0287337 1 DBx Rx d 14 39 0E 00 20 A9 80 5B 0D 48 80 83 1A 3F 29 [FD BRS]
0.0316712 1 D9x Rx d 13 39 13 00 15 DA DA 5A 08 A0 57 CD DC 0F [FD BRS]
0.0320503 1 DCx Rx d 14 39 10 01 10 55 40 3F 00 52 10 F9 46 E9 9C [FD BRS]
0.0336785 1 2Dx Rx d 14 D5 80 7C 04 C4 09 00 90 70 97 58 62 46 52 [FD BRS]
0.0342007 1 D4x Rx d 8 39 04 06 04 6C BB B9 84 [FD BRS]
0.0343600 1 DBx Rx d 13 39 0F 00 15 80 F8 5B 20 FF FF 7F CF FF [FD BRS]
0.0385562 1 E3x Rx d 13 41 00 05 08 01 69 FB 64 4B 2E 3D D9 00 [FD BRS]
0.0487463 1 DBx Rx d 14 39 0E 00 20 23 6A 5C 0C 48 80 83 1A 3F 29 [FD BRS]
0.0025612 1 D4x Rx d 9 39 04 0C 05 0E 0F F4 FF FF [FD BRS]
0.0077222 1 DBx Rx d 15 39 0E 01 0F 70 35 FF FF FF FF FF FF FF 0F D3 [FD BRS]
0.0103516 1 D9x Rx d 13 39 13 00 15 20 CE 34 08 A0 57 4D DC 0F [FD BRS]
0.0107308 1 DCx Rx d 13 39 10 00 16 7B D5 34 0E A2 21 00 23 54 [FD BRS]
0.0111132 1 18E19490x Rx d 15 01 EB 01 55 0D 5E 01 80 0C E9 00 BC 02 06 06 [FD BRS]
0.0126124 1 2Dx Rx d 14 D2 E9 56 04 C4 09 00 90 70 97 58 62 46 52 [FD BRS]
0.0131316 1 DBx Rx d 13 39 0F 00 15 DA 59 35 20 FF FF 7F CF FF [FD BRS]
0.0225298 1 E3x Rx d 10 39 80 00 0C 00 FF A5 8F 4C 30 [FD BRS]
0.0277179 1 DBx Rx d 14 39 0E 00 20 D3 B0 36 0C 48 80 83 1A 3F 29 [FD BRS]
0.0303533 1 D9x Rx d 13 39 13 00 15 B2 31 35 08 A0 57 8D DC 0F [FD BRS]
0.0307285 1 DCx Rx d 13 39 10 00 16 5F 7D 35 0E A2 21 00 23 54 [FD BRS]
0.0326097 1 2Dx Rx d 14 CD E0 57 04 C4 09 00 90 70 97 58 62 46 52 [FD BRS]
0.0331308 1 DBx Rx d 13 39 0F 00 15 FC 68 36 20 FF FF 7F CF FF [FD BRS]
0.0377770 1 4Fx Rx d 8 20 52 01 A0 00 49 A0 83 [FD BRS]
0.0406512 1 18E19490x Rx d 15 02 84 00 64 64 64 01 00 03 27 56 02 04 00 00 [FD BRS]
0.0477083 1 DBx Rx d 14 39 0E 00 20 47 94 37 0C 48 80 83 1A 3F 29 [FD BRS]
0.0075245 1 DBx Rx d 14 39 0E 00 20 C9 75 1A 0C 48 80 83 1A 3F 29 [FD BRS]
0.0103637 1 DCx Rx d 14 39 10 01 10 55 40 3F 00 52 10 91 06 E8 9C [FD BRS]
0.0108770 1 D9x Rx d 13 39 13 00 15 63 C1 19 08 A0 57 8D DB 0F [FD BRS]
0.0112531 1 18E19490x Rx d 15 03 68 06 C7 16 50 D2 10 0E 10 0E 1E 00 FA 00 [FD BRS]
0.0124423 1 2Dx Rx d 14 0A D8 3B 04 C4 09 00 90 70 97 58 62 46 52 [FD BRS]
0.0129665 1 D4x Rx d 8 39 04 06 04 8E 1C AC 84 [FD BRS]
0.0131259 1 DBx Rx d 13 39 0F 00 15 66 90 1A 20 FF FF 7F CF FF [FD BRS]
0.0173081 1 E3x Rx d 11 41 00 05 08 01 87 AD 67 04 1D 0E [FD BRS]
0.0275361 1 DBx Rx d 14 39 0E 00 20 92 02 1B 0C 48 80 83 1A 3F 29 [FD BRS]
0.0303815 1 D9x Rx d 13 39 13 00 15 AE 4D 1A 08 A0 57 0D DC 0F [FD BRS]
0.0307597 1 DCx Rx d 13 39 10 00 16 51 42 1A 0E A2 21 00 23 54 [FD BRS]
0.0324319 1 2Dx Rx d 14 57 E7 3C 04 C4 09 00 90 70 97 58 62 46 52 [FD BRS]
0.0329530 1 DBx Rx d 13 39 0F 00 15 84 80 1B 20 FF FF 7F CF FF [FD BRS]
0.0373412 1 E3x Rx d 9 39 04 22 08 00 3C 06 7E 78 [FD BRS]
0.0403894 1 18E19490x Rx d 15 04 58 01 5B 01 0F 00 48 30 ED 0C 5B 0D 22 01 [FD BRS]
0.0423757 1 D4x Rx d 14 39 04 0C 05 0E 0F F4 FF FF 39 15 01 14 45 [FD BRS]
0.0475398 1 DBx Rx d 15 39 0E 01 0F 7C 35 FF FF FF FF FF FF FF 0F D3 [FD BRS]
0.0048364 1 DBx Rx d 14 39 0E 00 20 A6 28 F7 0C 48 80 83 1A 3F 29 [FD BRS]
0.0075376 1 DCx Rx d 14 39 10 01 10 55 40 3F 38 52 10 59 06 E9 9C [FD BRS]
0.0080529 1 D9x Rx d 13 39 13 00 15 4D 3E F6 08 A0 57 0D DD 0F [FD BRS]
0.0097441 1 2Dx Rx d 14 EA F0 18 04 C4 09 00 90 70 97 58 62 46 52 [FD BRS]
0.0102653 1 D4x Rx d 8 39 04 06 04 F9 EF A5 84 [FD BRS]
0.0104266 1 DBx Rx d 13 39 0F 00 15 12 F0 F7 20 FF FF 7F CF FF [FD BRS]
0.0146219 1 E3x Rx d 13 41 00 05 08 01 05 B8 3D 01 54 67 EF 00 [FD BRS]
0.0176601 1 18E19490x Rx d 15 00 00 00 01 00 00 00 55 05 69 06 D8 03 00 00 [FD BRS]
0.0248461 1 DBx Rx d 14 39 0E 00 20 70 93 F8 0C 48 80 83 1A 3F 29 [FD BRS]
0.0276063 1 DCx Rx d 13 39 10 00 16 6F B9 F7 0E A2 21 00 23 54 [FD BRS]
0.0279876 1 D9x Rx d 13 39 13 00 15 7A 98 F7 08 A0 57 8D DC 0F [FD BRS]
0.0297328 1 2Dx Rx d 14 F5 F9 19 04 C4 09 00 90 70 97 58 62 46 52 [FD BRS]
0.0302530 1 DBx Rx d 13 39 0F 00 15 AC 05 F8 20 FF FF 7F CF FF [FD BRS]
0.0346382 1 E3x Rx d 9 39 04 22 08 00 3C 06 7E 78 [FD BRS]
0.0396726 1 D4x Rx d 9 39 04 0C 05 0E 0F F4 FF FF [FD BRS]
0.0448517 1 DBx Rx d 15 39 0E 01 0F 7C 35 FF FF FF FF FF FF FF 0F D3 [FD BRS]
0.0475269 1 DCx Rx d 13 39 10 00 16 75 C0 F8 0E A2 21 00 23 54 [FD BRS]
0.0479112 1 D9x Rx d 13 39 13 00 15 5F 3F F8 08 A0 57 CD DB 0F [FD BRS]
0.0482923 1 18E19490x Rx d 15 01 F2 01 55 0D 5F 01 80 0C E9 00 BC 02 06 06 [FD BRS]
0.0070481 1 4Fx Rx d 8 28 0F 0D 04 19 7F CA 41 [FD BRS]
0.0072133 1 DBx Rx d 14 39 0E 00 20 59 56 D5 0C 38 80 83 1A 3F 29 [FD BRS]
0.0096157 1 D9x Rx d 13 39 13 00 15 C5 C7 D4 08 A0 57 CD DB 0F [FD BRS]
0.0099929 1 DCx Rx d 13 39 10 00 16 36 17 D4 0E A2 21 00 23 54 [FD BRS]
0.0103742 1 18E19490x Rx d 15 02 84 00 64 64 64 01 00 04 27 54 02 03 00 00 [FD BRS]
0.0120024 1 2Dx Rx d 14 17 15 F6 04 C4 09 00 90 70 97 58 62 46 52 [FD BRS]
0.0125235 1 DBx Rx d 13 39 0F 00 15 D4 ED D5 20 FF FF 7F CF FF [FD BRS]
0.0169157 1 E3x Rx d 9 39 04 22 08 00 3C 06 7E 78 [FD BRS]
0.0219461 1 D4x Rx d 14 39 04 0C 05 0E 0F F4 FF FF 39 15 01 14 45 [FD BRS]
0.0271462 1 DBx Rx d 15 39 0E 01 0F 84 35 FF FF FF FF FF FF FF 0F D3 [FD BRS]
0.0296186 1 D9x Rx d 13 39 13 00 15 52 D4 D5 08 A0 57 CD DA 0F [FD BRS]
0.0299968 1 DCx Rx d 13 39 10 00 16 12 BF D5 0E A2 21 00 23 54 [FD BRS]
0.0319520 1 D4x Rx d 15 39 0C 08 3C FE 74 03 80 00 00 08 6C 75 BA 3B [FD BRS]
0.0326102 1 2Dx Rx d 14 08 1C F7 04 C4 09 00 90 70 97 58 62 46 52 [FD BRS]
0.0331305 1 DBx Rx d 13 39 0F 00 15 F2 DC D6 20 FF FF 7F CF FF [FD BRS]
0.0397938 1 18E19490x Rx d 15 03 68 06 D4 16 78 D2 10 0E 10 0E 1E 00 FB 00 [FD BRS]
0.0471259 1 DBx Rx d 14 39 0F 01 06 4E 85 04 60 F8 1C 39 0E 00 20 [FD BRS]
0.0081876 1 DBx Rx d 14 39 0E 00 20 8F 9C B7 0C 48 80 83 1A 3F 29 [FD BRS]
0.0106270 1 D9x Rx d 13 39 13 00 15 EC 1F B6 08 A0 57 4D DC 0F [FD BRS]
0.0110051 1 DCx Rx d 13 39 10 00 16 63 9D B6 0E A2 21 00 23 54 [FD BRS]
0.0113875 1 18E19490x Rx d 15 02 84 00 64 64 64 01 00 06 27 54 02 03 00 00 [FD BRS]
0.0130557 1 2Dx Rx d 14 6C 58 D8 04 C4 09 00 90 70 97 58 62 46 52 [FD BRS]
0.0135758 1 DBx Rx d 13 39 0F 00 15 16 88 B7 20 FF FF 7F CF FF [FD BRS]
0.0179650 1 E3x Rx d 9 39 04 22 08 00 3C 06 7E 78 [FD BRS]
0.0229954 1 D4x Rx d 14 39 04 0C 05 0E 0F F4 FF FF 39 15 01 14 45 [FD BRS]
0.0281915 1 DBx Rx d 15 39 0E 01 0F 84 35 FF FF FF FF FF FF FF 0F D3 [FD BRS]
0.0306309 1 D9x Rx d 13 39 13 00 15 0E 0F B7 08 A0 57 4D DC 0F [FD BRS]
0.0310091 1 DCx Rx d 13 39 10 00 16 47 35 B7 0E A2 21 00 23 54 [FD BRS]
0.0330333 1 2Dx Rx d 14 73 51 D9 04 C4 09 00 90 70 97 58 62 46 52 [FD BRS]
0.0335515 1 DBx Rx d 13 39 0F 00 15 A8 7D B8 20 FF FF 7F CF FF [FD BRS]
0.0408497 1 18E19490x Rx d 15 03 68 06 C3 16 66 D2 12 0E 12 0E 1E 00 F3 00 [FD BRS]
0.0481838 1 DBx Rx d 14 39 0F 01 06 4E 85 04 60 F8 1C 39 0E 00 20 [FD BRS]
0.0094071 1 DBx Rx d 14 39 FE 0B 08 61 00 00 00 01 00 00 00 39 0E [FD BRS]
0.0117975 1 D9x Rx d 13 39 13 00 15 62 9C 98 08 A0 57 0D DC 0F [FD BRS]
0.0121757 1 DCx Rx d 13 39 10 00 16 49 0A 98 0E A2 21 00 23 54 [FD BRS]
0.0125570 1 18E19490x Rx d 15 02 84 00 64 64 64 01 00 05 27 56 02 03 00 00 [FD BRS]
0.0142552 1 2Dx Rx d 14 11 1E BA 04 C4 09 00 90 70 97 58 62 46 52 [FD BRS]
0.0147754 1 DBx Rx d 13 39 0F 00 15 48 51 99 20 FF FF 7F CF FF [FD BRS]
0.0191626 1 E3x Rx d 9 39 04 22 08 00 3C 46 7E 78 [FD BRS]
0.0241867 1 DBx Rx d 14 39 0E 02 2A 3E 00 49 00 65 0A C0 41 18 84 [FD BRS]
0.0246969 1 D4x Rx d 14 39 04 0C 05 0E 0F F4 FF FF 39 0C 16 08 FF [FD BRS]
0.0294020 1 DBx Rx d 13 39 0E 01 0F 84 35 FF FF FF FF FF FF FF [FD BRS]
0.0317914 1 D9x Rx d 13 39 13 00 15 20 39 99 08 A0 57 8D DC 0F [FD BRS]
0.0321676 1 DCx Rx d 13 39 10 00 16 58 0F 99 0E A2 21 00 23 50 [FD BRS]
0.0342338 1 2Dx Rx d 14 0E 17 BB 04 C4 09 00 90 70 97 58 62 46 52 [FD BRS]
0.0347549 1 DBx Rx d 15 39 0E 00 20 BA 0D 9A 0C 48 80 83 1A 3F 29 80 [FD BRS]
0.0419282 1 18E19490x Rx d 15 03 68 06 C2 16 69 D2 10 0E 10 0E 1E 00 F8 00 [FD BRS]
0.0442294 1 DBx Rx d 13 39 0E 04 10 5C E3 0B 4C 24 B4 DB FF 1F [FD BRS]
0.0446077 1 DC085D Rx d 8 40 02 00 00 00 00 00 00
0.0493860 1 DBx Rx d 14 39 0E 00 20 2E 29 9B 0C 48 80 83 1A 3F 29 [FD BRS]
0.0030387 1 E3x Rx d 11 41 00 05 08 01 B0 2B 91 CA A5 8C [FD BRS]
0.0058499 1 18E19490x Rx d 15 00 00 00 01 00 00 00 55 05 68 06 D8 03 00 00 [FD BRS]
0.0132132 1 4Fx Rx d 8 28 BA 09 04 19 81 40 96 [FD BRS]
0.0133783 1 DBx Rx d 14 39 0E 00 20 16 FB 71 0C 48 80 83 1A 3F 29 [FD BRS]
0.0156557 1 D9x Rx d 13 39 13 00 15 0C 40 70 08 A0 57 CD DC 0F [FD BRS]
0.0160339 1 DCx Rx d 13 39 10 00 16 81 D9 70 0E A2 21 00 23 54 [FD BRS]
0.0181691 1 2Dx Rx d 14 28 65 92 04 C4 09 00 90 70 97 58 62 46 52 [FD BRS]
0.0186893 1 DBx Rx d 13 39 0F 00 15 56 62 71 20 FF FF 7F CF FF [FD BRS]
0.0230775 1 E3x Rx d 9 39 04 22 08 00 3C 06 7E 78 [FD BRS]
0.0281059 1 D4x Rx d 14 39 04 0C 05 0E 0F F4 FF FF 39 15 01 14 45 [FD BRS]
0.0333300 1 DBx Rx d 15 39 0E 01 0F 84 35 FF FF FF FF FF FF FF 0F D3 [FD BRS]
0.0356604 1 D9x Rx d 13 39 13 00 15 EE 50 71 08 A0 57 CD DC 0F [FD BRS]
0.0360376 1 DCx Rx d 13 39 10 00 16 A5 71 71 0E A2 21 00 23 54 [FD BRS]
0.0364179 1 18E19490x Rx d 15 01 EA 01 55 0D 5E 01 80 0C E9 00 BC 02 06 06 [FD BRS]
0.0381142 1 D4x Rx d 15 39 0C 08 3C FE 74 03 80 00 00 08 6C 75 BA 3A [FD BRS]
0.0387723 1 2Dx Rx d 14 37 6C 93 04 C4 09 00 90 70 97 58 62 46 52 [FD BRS]
0.0392917 1 DBx Rx d 13 39 0F 00 15 70 53 72 20 FF FF 7F CF FF [FD BRS]
0.0089632 1 DBx Rx d 14 39 0E 00 20 B5 0D 51 0C 38 80 83 1A 3F 29 [FD BRS]
0.0113153 1 DCx Rx d 13 39 10 00 16 A0 32 50 0E A2 21 00 23 50 [FD BRS]
0.0117006 1 18E19490x Rx d 15 04 5A 01 5A 01 0E 00 48 30 ED 0C 5C 0D 22 01 [FD BRS]
0.0124209 1 D9x Rx d 14 39 13 01 0B 58 BA 58 55 95 00 FE 03 BA FF [FD BRS]
0.0138032 1 2Dx Rx d 14 6F FE 72 04 C4 09 00 90 70 97 58 62 46 52 [FD BRS]
0.0143253 1 DBx Rx d 13 39 0F 00 15 54 5E 51 20 FF FF 7F CF FF [FD BRS]
0.0186736 1 E3x Rx d 9 41 00 05 08 00 80 03 43 CD [FD BRS]
0.0289616 1 DBx Rx d 14 39 0E 00 20 AE 44 52 0C 48 80 83 1A 3F 29 [FD BRS]
0.0313317 1 DCx Rx d 14 39 10 01 10 55 40 3F 30 52 10 51 12 E9 9C [FD BRS]
0.0318460 1 D9x Rx d 13 39 13 00 15 4C D9 51 08 A0 57 4D DC 0F [FD BRS]
0.0338142 1 2Dx Rx d 14 70 F7 73 04 C4 09 00 90 70 97 58 62 46 52 [FD BRS]
0.0343334 1 D4x Rx d 8 39 04 06 04 03 AE 84 84 [FD BRS]
0.0344938 1 DBx Rx d 13 39 0F 00 15 72 6F 52 20 FF FF 7F CF FF [FD BRS]
0.0386780 1 E3x Rx d 11 41 00 05 08 01 9D 04 08 1F 8A CF [FD BRS]
0.0414542 1 18E19490x Rx d 15 00 00 00 01 00 00 00 55 05 69 06 D8 03 00 00 [FD BRS]
0.0489713 1 DBx Rx d 14 39 0E 00 20 3A 60 53 0C 48 80 83 1A 3F 29 [FD BRS]
0.0009893 1 2Dx Rx d 14 FB 2B 4D 04 C4 09 00 90 70 97 58 62 46 52 [FD BRS]
0.0015104 1 DBx Rx d 13 39 0F 00 15 29 D0 2C 20 FF FF 7F CF FF [FD BRS]
0.0018977 1 DC085B Rx d 8 40 02 08 00 00 00 00 00
0.0161836 1 DBx Rx d 14 39 0F 01 06 4E 85 04 60 F8 1C 39 0E 00 20 [FD BRS]
0.0184120 1 D9x Rx d 13 39 13 00 15 E1 0D 2C 08 A0 57 0D DC 0F [FD BRS]
0.0187902 1 DCx Rx d 13 39 10 00 16 F4 E7 2C 0E A2 21 00 23 54 [FD BRS]
0.0191715 1 18E19490x Rx d 15 00 00 00 01 00 00 00 55 05 69 06 D8 03 00 00 [FD BRS]
0.0209847 1 2Dx Rx d 14 DA 30 4E 04 C4 09 00 90 70 97 58 62 46 52 [FD BRS]
0.0215049 1 DBx Rx d 13 39 0F 00 15 CB C0 2D 20 FF FF 7F CF FF [FD BRS]
0.0361750 1 DBx Rx d 14 39 0E 00 20 38 78 2E 0C 38 80 83 1A 3F 29 [FD BRS]
0.0385042 1 DCx Rx d 13 39 10 00 16 D0 4F 2D 0E A2 21 00 23 54 [FD BRS]
0.0397415 1 D9x Rx d 14 39 13 01 0B 58 BA 58 55 95 00 FE 03 BA FF [FD BRS]
0.0410028 1 2Dx Rx d 14 C5 39 4F 04 C4 09 00 90 70 97 58 62 46 52 [FD BRS]
0.0415239 1 DBx Rx d 13 39 0F 00 15 ED F1 2E 20 FF FF 7F CF FF [FD BRS]
0.0458702 1 E3x Rx d 9 41 00 05 08 00 80 03 43 CD [FD BRS]
0.0485613 1 18E19490x Rx d 15 01 ED 01 55 0D 5E 01 80 0C E9 00 BC 02 06 06 [FD BRS]
0.0013367 1 DBx Rx d 14 39 0E 00 20 29 BA 07 0C 38 80 83 1A 3F 29 [FD BRS]
0.0035609 1 DCx Rx d 14 39 10 01 10 55 40 3F 00 52 10 D9 06 E9 9C [FD BRS]
0.0040792 1 D9x Rx d 13 39 13 00 15 AC C5 06 08 A0 57 4D DB 0F [FD BRS]
0.0061704 1 2Dx Rx d 14 DB 52 28 04 C4 09 00 90 70 97 58 62 46 52 [FD BRS]
0.0066915 1 D4x Rx d 8 39 04 06 04 FA 47 75 84 [FD BRS]
0.0068519 1 DBx Rx d 13 39 0F 00 15 1D 5A 07 20 FF FF 7F CF FF [FD BRS]
0.0072381 1 E3x Rx d 11 00 80 00 04 52 B4 6D 00 41 00 05 [FD BRS]
0.0136853 1 18E19490x Rx d 15 00 00 00 01 00 00 00 55 05 69 06 D8 03 00 00 [FD BRS]
0.0213464 1 DBx Rx d 14 39 0E 00 20 44 71 08 0C 38 80 83 1A 3F 29 [FD BRS]
0.0235189 1 D9x Rx d 13 39 13 00 15 D5 87 07 08 A0 57 0D DC 0F [FD BRS]
0.0238970 1 DCx Rx d 13 39 10 00 16 1D F5 07 0E A2 21 00 23 50 [FD BRS]
0.0261472 1 2Dx Rx d 14 C4 5B 29 04 C4 09 00 90 70 97 58 62 46 52 [FD BRS]
0.0266694 1 DBx Rx d 13 39 0F 00 15 A3 AF 08 20 FF FF 7F CF FF [FD BRS]
0.0310566 1 E3x Rx d 9 39 04 22 08 00 3C 06 7E 78 [FD BRS]
0.0360870 1 D4x Rx d 9 39 04 0C 05 0E 0F F4 FF FF [FD BRS]
0.0413521 1 DBx Rx d 15 39 0E 01 0F 78 35 FF FF FF FF FF FF FF 0F D3 [FD BRS]
0.0435123 1 DCx Rx d 13 39 10 00 16 32 21 08 0E A2 21 00 23 54 [FD BRS]
0.0438936 1 D9x Rx d 13 39 13 00 15 CB C7 08 08 A0 57 8D DC 0F [FD BRS]
0.0442708 1 18E19490x Rx d 15 01 EE 01 55 0D 5E 01 80 0C E9 00 BC 02 06 06 [FD BRS]
0.0461340 1 2Dx Rx d 14 E5 40 2A 04 C4 09 00 90 70 97 58 62 46 52 [FD BRS]
0.0466541 1 DBx Rx d 13 39 0F 00 15 41 BF 09 20 FF FF 7F CF FF [FD BRS]
0.0004820 1 DBx Rx d 14 39 0E 00 20 90 5C E5 0C 38 80 83 1A 3F 29 [FD BRS]
0.0025472 1 DCx Rx d 13 39 10 00 16 28 72 E4 0E A2 21 00 23 54 [FD BRS]
0.0029285 1 18E19490x Rx d 15 02 84 00 64 64 64 01 00 05 27 56 02 02 00 00 [FD BRS]
0.0036318 1 D9x Rx d 13 39 13 00 15 88 01 E4 08 A0 57 0D DD 0F [FD BRS]
0.0052730 1 2Dx Rx d 14 A0 1F 06 04 C4 09 00 90 70 97 58 62 46 52 [FD BRS]
0.0057972 1 DBx Rx d 13 39 0F 00 15 D7 CF E5 20 FF FF 7F CF FF [FD BRS]
0.0061965 1 21Cx Rx d 15 23 00 00 00 00 00 00 00 00 00 00 00 00 00 00 [FD BRS]
0.0101847 1 E3x Rx d 9 39 04 22 08 00 3C 06 7E 78 [FD BRS]
0.0152171 1 D4x Rx d 14 39 04 0C 05 0E 0F F4 FF FF 39 15 01 14 45 [FD BRS]
0.0204871 1 DBx Rx d 15 39 0E 01 0F 84 35 FF FF FF FF FF FF FF 0F D3 [FD BRS]
0.0225433 1 DCx Rx d 13 39 10 00 16 0C DA E5 0E A2 21 00 23 54 [FD BRS]
0.0229236 1 D9x Rx d 13 39 13 00 15 6F FD E5 08 A0 57 CD DC 0F [FD BRS]
0.0252578 1 2Dx Rx d 14 BF 16 07 04 C4 09 00 90 70 97 58 62 46 52 [FD BRS]
0.0258450 1 DBx Rx d 13 39 0F 00 15 F1 FE E6 20 FF FF 7F CF FF [FD BRS]
0.0326483 1 18E19490x Rx d 15 03 68 06 C6 16 6E D2 10 0E 0F 0E 1E 00 F2 00 [FD BRS]
0.0353894 1 21Cx Rx d 8 24 00 00 00 00 00 00 00 [FD BRS]
0.0404846 1 DBx Rx d 14 39 0F 01 06 4E 85 04 60 50 1D 39 0E 00 20 [FD BRS]
0.0426878 1 DCx Rx d 13 39 10 00 16 41 32 E6 0E A2 21 00 23 54 [FD BRS]
0.0430701 1 D9x Rx d 13 39 13 00 15 02 C4 E6 08 A0 57 CD DB 0F [FD BRS]
0.0452813 1 2Dx Rx d 14 1A 61 08 04 C4 09 00 90 70 97 58 62 46 52 [FD BRS]
0.0458015 1 DBx Rx d 13 39 0F 00 15 13 EE E7 20 FF FF 7F CF FF [FD BRS]
0.0140830 1 DBx Rx d 14 39 0E 00 20 F9 A7 CA 0C 38 80 83 1A 3F 29 [FD BRS]
0.0161452 1 DCx Rx d 13 39 10 00 16 4F 0D C9 0E A2 21 00 23 54 [FD BRS]
0.0165246 1 18E19490x Rx d 15 04 5A 01 5C 01 0E 00 3E 30 ED 0C 5B 0D 22 01 [FD BRS]
0.0175249 1 D9x Rx d 14 39 13 01 0B 58 BA 58 55 95 00 FE 03 BA FF [FD BRS]
0.0188741 1 2Dx Rx d 14 7C E1 EB 04 C4 09 00 90 70 97 58 62 46 52 [FD BRS]
0.0193963 1 DBx Rx d 13 39 0F 00 15 6B 06 CA 20 FF FF 7F CF FF [FD BRS]
0.0237445 1 E3x Rx d 9 41 00 05 08 00 80 03 43 CD [FD BRS]
0.0340815 1 DBx Rx d 14 39 0E 00 20 A2 32 CB 0C 38 80 83 1A 3F 29 [FD BRS]
0.0361627 1 DCx Rx d 14 39 10 01 10 55 40 3F 32 52 10 79 06 E9 9C [FD BRS]
0.0366790 1 D9x Rx d 13 39 13 00 15 D3 34 CA 08 A0 57 CD DC 0F [FD BRS]
0.0388913 1 2Dx Rx d 14 21 DE EC 04 C4 09 00 90 70 97 58 62 46 52 [FD BRS]
0.0394104 1 D4x Rx d 8 39 04 06 04 6F 13 69 84 [FD BRS]
0.0395698 1 DBx Rx d 13 39 0F 00 15 89 16 CB 20 FF FF 7F CF FF [FD BRS]
0.0399550 1 E3x Rx d 11 00 80 00 04 60 FB 61 00 41 00 05 [FD BRS]
0.0464713 1 18E19490x Rx d 15 00 00 00 01 00 00 00 55 05 69 06 D8 03 00 00 [FD BRS]
