date 2025-01-01 00:00:00.000
base hex  timestamps absolute
no internal events logged

0.0010298 1 DBx Rx d 15 39 0E 01 0F C0 35 FF FF FF FF FF FF FF DF D3 [FD BRS]
0.0057151 1 DBx Rx d 13 39 0F 00 15 10 CC D7 20 FF FF 7F CF FF [FD BRS]
0.0065323 1 DCx Rx d 13 39 10 00 16 7B 48 BB 0E 9A 01 00 23 98 [FD BRS]
0.0069156 1 18E19490x Rx d 15 03 68 06 C7 16 61 D2 11 0E 12 0E 1D 00 02 01 [FD BRS]
0.0183776 1 D9x Rx d 13 39 13 00 15 3D 0C BB 0A A0 69 4D D1 0F [FD BRS]
0.0187518 1 2Dx Rx d 14 66 05 C4 04 C4 09 00 90 70 97 58 62 46 52 [FD BRS]
0.0210040 1 DBx Rx d 14 39 0E 00 20 05 AB D8 20 68 81 83 1A 3F 26 [FD BRS]
0.0257123 1 DBx Rx d 13 39 0F 00 15 AE 39 D8 20 FF FF 7F CF FF [FD BRS]
0.0264764 1 DCx Rx d 13 39 10 00 16 E4 20 BC 0E 9A 01 00 23 98 [FD BRS]
0.0365380 1 18E19490x Rx d 15 04 55 01 55 01 0E 00 3E 30 ED 0C 6E 0D 22 01 [FD BRS]
0.0384912 1 2Dx Rx d 14 73 2F C5 04 C4 09 00 90 70 97 58 62 46 52 [FD BRS]
0.0391325 1 D9x Rx d 13 39 13 00 15 93 7E BC 0A A0 69 4D D1 0F [FD BRS]
0.0410066 1 DBx Rx d 14 39 0E 00 20 5E 3E D9 20 68 81 83 1A 3F 26 [FD BRS]
0.0436118 1 E3x Rx d 8 00 80 00 04 31 D2 4A 00 [FD BRS]
0.0457300 1 DBx Rx d 13 39 0F 00 15 4C 29 D9 20 FF FF 7F CF FF [FD BRS]
0.0466261 1 DCx Rx d 13 39 10 00 16 C0 88 BD 0E 9A 01 00 23 98 [FD BRS]
0.0484923 1 D4x Rx d 10 39 0C 14 0C FF FF FF FF FD FF [FD BRS]
0.0074122 1 DBx Rx d 13 39 0E 04 10 5C E3 0B 4C 24 B4 DB FF 3F [FD BRS]
0.0101387 1 D9x Rx d 13 39 13 00 15 51 80 A2 0A A0 69 4D D2 0F [FD BRS]
0.0105189 1 2Dx Rx d 14 8A 05 AB 04 C4 09 00 90 70 97 58 62 46 52 [FD BRS]
0.0127911 1 DBx Rx d 14 39 0E 00 20 FD 56 BF 20 68 81 83 1A 3F 27 [FD BRS]
0.0145923 1 44 Rx d 1 04
0.0153826 1 E3x Rx d 9 41 00 00 08 03 A9 9F B7 B5 [FD BRS]
0.0175108 1 DBx Rx d 13 39 0F 00 15 06 0F BF 20 FF FF 7F CF FF [FD BRS]
0.0182020 1 DCx Rx d 13 39 10 00 16 F4 7A A3 0E 9A 01 00 23 98 [FD BRS]
0.0185833 1 18E19490x Rx d 15 02 84 00 64 64 64 01 00 05 27 55 02 03 00 00 [FD BRS]
0.0302866 1 2Dx Rx d 14 D7 3A AC 04 C4 09 00 90 70 97 58 62 46 52 [FD BRS]
0.0308069 1 D9x Rx d 13 39 13 00 15 FE 78 A3 09 A0 69 4D D2 0F [FD BRS]
0.0311841 1 E3x Rx d 8 00 80 00 04 DF 06 45 00 [FD BRS]
0.0328162 1 DBx Rx d 14 39 0E 00 20 49 47 C0 20 68 81 83 1A 3F 26 [FD BRS]
0.0375015 1 DBx Rx d 13 39 0F 00 15 BF A0 C0 20 FF FF 7F CF FF [FD BRS]
0.0382267 1 DCx Rx d 13 39 10 00 16 6B 12 A4 0E 9A 01 00 23 98 [FD BRS]
0.0401471 1 D9x Rx d 9 39 FE 28 08 29 00 00 00 00 [FD BRS]
0.0404103 1 D4x Rx d 10 39 0C 14 0C FF FF FF FF FD FF [FD BRS]
0.0454577 1 E3x Rx d 9 02 80 00 08 28 9E D2 01 83 [FD BRS]
0.0482289 1 18E19490x Rx d 15 03 68 06 C1 16 62 D2 10 0E 10 0E 1D 00 F0 00 [FD BRS]
0.0041541 1 18E19490x Rx d 15 03 68 06 BA 16 65 D2 10 0E 10 0E 1D 00 F4 00 [FD BRS]
0.0060554 1 D9x Rx d 14 39 13 01 0B 58 BA 78 55 95 00 FE 03 BA FF [FD BRS]
0.0065687 1 2Dx Rx d 14 37 12 8F 04 C4 09 00 90 70 97 58 62 46 52 [FD BRS]
0.0070890 1 D4x Rx d 8 39 04 06 04 B7 D8 85 84 [FD BRS]
0.0087612 1 DBx Rx d 14 39 0E 00 20 2E 99 A3 20 68 81 83 1A 3F 27 [FD BRS]
0.0134714 1 DBx Rx d 13 39 0F 00 15 9F D5 A3 20 FF FF 7F CF FF [FD BRS]
0.0142366 1 DCx Rx d 13 39 10 00 16 32 BC 87 0E 9A 01 00 23 98 [FD BRS]
0.0162008 1 E3x Rx d 9 39 06 0B 08 00 11 11 18 00 [FD BRS]
0.0260487 1 D9x Rx d 13 39 13 00 15 9A 56 87 09 A0 69 0D D4 0F [FD BRS]
0.0264259 1 2Dx Rx d 14 62 F4 90 04 C4 09 00 90 70 97 58 62 46 52 [FD BRS]
0.0269483 1 D4x Rx d 12 39 FE 1D 08 59 40 B2 08 40 02 00 00 [FD BRS]
0.0272566 1 E3x Rx d 15 41 00 05 08 00 80 03 43 D0 03 FE CF 39 04 22 [FD BRS]
0.0287868 1 DBx Rx d 14 39 0E 00 20 C2 66 A4 20 68 81 83 1A 3F 27 [FD BRS]
0.0334591 1 DBx Rx d 13 39 0F 00 15 31 A7 A4 20 FF FF 7F CF FF [FD BRS]
0.0341333 1 DCx Rx d 14 39 10 01 10 55 43 40 30 55 10 09 56 E9 9C [FD BRS]
0.0346506 1 18E19490x Rx d 15 04 53 01 56 01 0F 00 3E 30 EB 0C 6E 0D 22 01 [FD BRS]
0.0460466 1 D9x Rx d 13 39 13 00 15 1F 44 88 09 A0 69 CD D3 0F [FD BRS]
0.0464248 1 2Dx Rx d 14 7D FD 91 04 C4 09 00 90 70 97 58 62 46 52 [FD BRS]
0.0469482 1 E3x Rx d 9 41 00 05 08 01 04 79 76 A5 [FD BRS]
0.0487754 1 DBx Rx d 15 39 0E 01 0F CC 35 FF FF FF FF FF FF FF DF D3 [FD BRS]
0.0029402 1 DBx Rx d 13 39 0F 00 15 49 4F 89 20 FF FF 7F CF FF [FD BRS]
0.0035793 1 DCx Rx d 13 39 10 00 16 93 2F 6D 0E 9A 01 00 23 98 [FD BRS]
0.0039607 1 18E19490x Rx d 15 01 E7 01 66 0D 7D 01 80 0C F1 00 BC 02 06 06 [FD BRS]
0.0057269 1 D4x Rx d 10 39 0C 14 0C FF FF FF FF FD FF [FD BRS]
0.0154728 1 D9x Rx d 14 39 13 01 0B 58 BA 78 55 95 00 FE 03 BA FF [FD BRS]
0.0159880 1 2Dx Rx d 14 67 59 76 04 C4 09 00 90 70 97 58 62 46 52 [FD BRS]
0.0165084 1 D4x Rx d 8 39 04 06 04 F2 64 80 84 [FD BRS]
0.0182385 1 DBx Rx d 14 39 0E 00 20 3F 5B 8A 20 68 81 83 1A 3F 27 [FD BRS]
0.0208327 1 E3x Rx d 12 41 00 00 08 00 57 31 4B 41 46 35 45 [FD BRS]
0.0229908 1 DBx Rx d 13 39 0F 00 15 6F 7E 8A 20 FF FF 7F CF FF [FD BRS]
0.0235630 1 DCx Rx d 13 39 10 00 16 DE C7 6E 0E 9A 01 00 23 98 [FD BRS]
0.0335545 1 18E19490x Rx d 15 02 84 00 64 64 64 01 00 05 27 55 02 03 00 00 [FD BRS]
0.0353998 1 D9x Rx d 13 39 13 00 15 2D 7D 6E 09 A0 69 0D D3 0F [FD BRS]
0.0357771 1 2Dx Rx d 14 78 50 77 04 C4 09 00 90 70 97 58 62 46 52 [FD BRS]
0.0362974 1 E3x Rx d 14 41 00 05 08 00 80 03 43 D0 03 CC ED 39 04 [FD BRS]
0.0382666 1 DBx Rx d 14 39 FE 0B 08 61 00 00 00 01 00 00 00 39 0E [FD BRS]
0.0408318 1 D4x Rx d 14 39 04 0C 05 0E 0F F4 FF FF 39 15 01 14 44 [FD BRS]
0.0429469 1 DBx Rx d 13 39 0F 00 15 8D 6E 8B 20 FF FF 7F CF FF [FD BRS]
0.0436101 1 DCx Rx d 14 39 10 01 10 55 43 40 00 55 10 E1 42 E9 9C [FD BRS]
0.0029088 1 18E19490x Rx d 15 04 53 01 55 01 0E 00 3E 30 ED 0C 6E 0D 22 01 [FD BRS]
0.0051300 1 2Dx Rx d 14 60 30 5C 04 C4 09 00 90 70 97 58 62 46 52 [FD BRS]
0.0056514 1 E3x Rx d 8 00 80 00 04 AA 44 35 00 [FD BRS]
0.0061337 1 D9x Rx d 13 39 13 00 15 F1 D2 53 09 A0 69 4D D2 0F [FD BRS]
0.0076649 1 DBx Rx d 14 39 0E 00 20 B8 B3 70 20 68 81 83 1A 3F 27 [FD BRS]
0.0123531 1 DBx Rx d 13 39 0F 00 15 B4 72 70 20 FF FF 7F CF FF [FD BRS]
0.0129693 1 DCx Rx d 13 39 10 00 16 2C F3 54 0E 9A 01 00 23 98 [FD BRS]
0.0151415 1 D4x Rx d 10 39 0C 14 0C FF FF FF FF FD FF [FD BRS]
0.0153808 1 E3x Rx d 8 3A 02 00 04 F4 FF FF FF [FD BRS]
0.0248667 1 D9x Rx d 14 39 13 01 0B 58 BA 88 55 95 00 FE 03 BA FF [FD BRS]
0.0253790 1 2Dx Rx d 14 75 1A 5D 04 C4 09 00 90 70 97 58 62 46 52 [FD BRS]
0.0258983 1 D4x Rx d 8 39 04 06 04 A0 E5 7B 84 [FD BRS]
0.0276525 1 DBx Rx d 14 39 0E 00 20 91 C4 71 20 68 81 83 1A 3F 27 [FD BRS]
0.0324118 1 DBx Rx d 13 39 0F 00 15 56 62 71 20 FF FF 7F CF FF [FD BRS]
0.0329029 1 DCx Rx d 13 39 10 00 16 3D F6 55 0E 9A 01 00 23 9C [FD BRS]
0.0332863 1 18E19490x Rx d 15 00 00 00 01 55 55 55 55 05 68 06 D8 03 00 00 [FD BRS]
0.0350945 1 E3x Rx d 9 39 06 0B 08 00 11 11 18 00 [FD BRS]
0.0448584 1 D9x Rx d 13 39 13 00 15 18 E9 55 09 A0 69 0D D3 0F [FD BRS]
0.0452326 1 2Dx Rx d 14 5E 22 5E 04 C4 09 00 90 70 97 58 62 46 52 [FD BRS]
0.0457530 1 D4x Rx d 12 39 FE 1D 08 59 40 B2 08 40 02 00 00 [FD BRS]
0.0460613 1 E3x Rx d 15 41 00 05 08 00 80 03 43 D0 03 9A AD 39 04 22 [FD BRS]
0.0476774 1 DBx Rx d 14 39 0E 00 20 2D A9 72 20 68 81 83 1A 3F 27 [FD BRS]
0.0076604 1 DBx Rx d 14 39 0E 02 2A 3E 00 47 00 65 0A 00 82 1C C8 [FD BRS]
0.0101608 1 D9x Rx d 13 39 13 00 15 DB 9C 3D 09 A0 69 8D D2 0F [FD BRS]
0.0105370 1 2Dx Rx d 14 5C D8 46 04 C4 09 00 90 70 97 58 62 46 52 [FD BRS]
0.0110564 1 E3x Rx d 12 41 00 05 08 01 3D 37 F0 EF BE 2F D9 [FD BRS]
0.0130075 1 DBx Rx d 13 39 0E 01 0F C4 35 FF FF FF FF FF FF FF [FD BRS]
0.0177608 1 DBx Rx d 15 39 0E 00 20 91 2B 5A 20 68 81 83 1A 3F 26 80 [FD BRS]
0.0184169 1 DCx Rx d 13 39 10 00 16 FC 68 3E 0E 9A 01 00 23 98 [FD BRS]
0.0275939 1 DBx Rx d 13 39 0E 04 10 5C E3 0B 4C 24 B4 DB FF 3F [FD BRS]
0.0283531 1 18E19490x Rx d 15 00 00 00 01 55 55 55 55 05 68 06 D8 03 00 00 [FD BRS]
0.0303435 1 D9x Rx d 13 39 13 00 15 8D 42 3E 09 A0 69 4D D2 0F [FD BRS]
0.0307237 1 2Dx Rx d 14 43 D1 47 04 C4 09 00 90 70 97 58 62 46 52 [FD BRS]
0.0329739 1 DBx Rx d 14 39 0E 00 20 4E 89 5B 20 68 81 83 1A 3F 27 [FD BRS]
0.0347590 1 44 Rx d 1 04
0.0356614 1 E3x Rx d 9 41 00 00 08 03 80 29 C7 BF [FD BRS]
0.0376935 1 DBx Rx d 13 39 0F 00 15 80 F8 5B 20 FF FF 7F CF FF [FD BRS]
0.0382987 1 DCx Rx d 13 39 10 00 16 D8 C0 3F 0E 9A 01 00 23 98 [FD BRS]
0.0019500 1 D4x Rx d 10 39 0C 14 0C FF FF FF FF FD FF [FD BRS]
0.0021893 1 E3x Rx d 8 3A 02 00 04 F4 FF FF FF [FD BRS]
0.0116052 1 D9x Rx d 14 39 13 01 0B 58 BA 88 55 95 00 FE 03 BA FF [FD BRS]
0.0121194 1 2Dx Rx d 14 8E CA 2B 04 C4 09 00 90 70 97 58 62 46 52 [FD BRS]
0.0126388 1 D4x Rx d 8 39 04 06 04 0B 8D 71 84 [FD BRS]
0.0144669 1 DBx Rx d 14 39 0E 00 20 41 9F 3F 20 68 81 83 1A 3F 27 [FD BRS]
0.0191762 1 DBx Rx d 13 39 0F 00 15 0E FF 3F 20 FF FF 7F CF FF [FD BRS]
0.0195624 1 DCx Rx d 13 39 10 00 16 85 72 23 0E 9A 01 00 23 98 [FD BRS]
0.0218816 1 E3x Rx d 9 39 06 0B 08 00 11 11 18 00 [FD BRS]
0.0296009 1 18E19490x Rx d 15 02 84 00 64 64 64 01 00 05 27 56 02 03 00 00 [FD BRS]
0.0316002 1 D9x Rx d 13 39 13 00 15 53 D1 23 09 A0 69 0D D3 0F [FD BRS]
0.0319745 1 2Dx Rx d 14 D3 F5 2C 04 C4 09 00 90 70 97 58 62 46 52 [FD BRS]
0.0324938 1 D4x Rx d 12 39 FE 1D 08 59 40 B2 08 40 02 00 00 [FD BRS]
0.0328022 1 E3x Rx d 15 41 00 05 08 00 80 03 43 D0 03 36 E9 39 04 22 [FD BRS]
0.0344913 1 DBx Rx d 14 39 0E 00 20 03 5B 40 20 68 81 83 1A 3F 27 [FD BRS]
0.0392156 1 DBx Rx d 13 39 0F 00 15 B7 50 40 20 FF FF 7F CF FF [FD BRS]
0.0396627 1 DCx Rx d 14 39 10 01 10 55 43 40 30 55 10 69 06 E8 9C [FD BRS]
0.0080484 1 D9x Rx d 13 39 13 00 15 A6 96 0A 09 A0 69 CD D2 0F [FD BRS]
0.0085646 1 2Dx Rx d 14 47 20 13 04 C4 09 00 90 70 97 58 62 46 52 [FD BRS]
0.0090860 1 E3x Rx d 14 41 00 05 08 00 80 03 43 D0 03 04 66 39 04 [FD BRS]
0.0110831 1 DBx Rx d 14 39 FE 0B 08 61 00 00 00 01 00 00 00 39 0E [FD BRS]
0.0136473 1 D4x Rx d 14 39 04 0C 05 0E 0F F4 FF FF 39 15 01 14 44 [FD BRS]
0.0157644 1 DBx Rx d 13 39 0F 00 15 1F 66 27 20 FF FF 7F CF FF [FD BRS]
0.0162086 1 DCx Rx d 14 39 10 01 10 55 43 40 38 55 10 41 46 E9 9C [FD BRS]
0.0257826 1 DBx Rx d 14 39 0E 02 2A 3E 00 47 00 65 0A 00 82 1C C8 [FD BRS]
0.0262938 1 18E19490x Rx d 15 01 E5 01 66 0D 7C 01 80 0C F1 00 BC 02 06 06 [FD BRS]
0.0284152 1 D9x Rx d 13 39 13 00 15 41 6A 0B 09 A0 69 0D D3 0F [FD BRS]
0.0287934 1 2Dx Rx d 14 1A 1F 14 04 C4 09 00 90 70 97 58 62 46 52 [FD BRS]
0.0293147 1 E3x Rx d 12 41 00 05 08 01 9A C5 4D 01 A3 01 2B [FD BRS]
0.0310789 1 DBx Rx d 13 39 0E 01 0F D8 35 FF FF FF FF FF FF FF [FD BRS]
0.0358311 1 DBx Rx d 15 39 0E 00 20 AF 09 28 20 68 81 83 1A 3F 27 80 [FD BRS]
0.0364883 1 DCx Rx d 13 39 10 00 16 8B 4D 0C 0E 9A 01 00 23 98 [FD BRS]
0.0456644 1 DBx Rx d 13 39 0E 04 10 5C E3 0B 4C 24 B4 DB FF 3F [FD BRS]
0.0484278 1 D9x Rx d 13 39 13 00 15 EF 18 0C 09 A0 69 0D D3 0F [FD BRS]
0.0488060 1 2Dx Rx d 14 05 16 15 04 C4 09 00 90 70 97 58 62 46 52 [FD BRS]
0.0027836 1 DBx Rx d 13 39 0F 00 15 2B EC 0C 20 FF FF 7F CF FF [FD BRS]
0.0031718 1 DCx Rx d 13 39 10 00 16 9B 3D F0 0E 9A 01 00 23 98 [FD BRS]
0.0055720 1 D4x Rx d 10 39 0C 14 0C FF FF FF FF FD FF [FD BRS]
0.0058114 1 E3x Rx d 8 3A 02 00 04 F4 FF FF FF [FD BRS]
0.0130707 1 18E19490x Rx d 15 03 69 06 BD 16 61 D2 0E 0E 0F 0E 1D 00 F4 00 [FD BRS]
0.0151160 1 D9x Rx d 14 39 13 01 0B 58 BA 88 55 95 00 FE 03 BA FF [FD BRS]
0.0156313 1 2Dx Rx d 14 C6 E1 F9 04 C4 09 00 90 70 97 58 62 46 52 [FD BRS]
0.0161546 1 D4x Rx d 8 39 04 06 04 35 B1 67 84 [FD BRS]
0.0180338 1 DBx Rx d 14 39 0E 00 20 24 EB 0D 20 68 81 83 1A 3F 26 [FD BRS]
0.0227451 1 DBx Rx d 13 39 0F 00 15 C9 FC 0D 20 FF FF 7F CF FF [FD BRS]
0.0231332 1 DCx Rx d 13 39 10 00 16 BF 95 F1 0E 9A 01 00 23 98 [FD BRS]
0.0254364 1 E3x Rx d 9 39 06 0B 08 00 11 11 18 00 [FD BRS]
0.0349943 1 D9x Rx d 13 39 13 00 15 7A 74 F1 0A A0 69 4D CE 0F [FD BRS]
0.0355095 1 2Dx Rx d 14 ED D9 FA 04 C4 09 00 90 70 97 58 62 46 52 [FD BRS]
0.0360319 1 D4x Rx d 12 39 FE 1D 08 59 40 B2 08 40 02 00 00 [FD BRS]
0.0363403 1 E3x Rx d 15 41 00 05 08 00 80 03 43 D0 02 D2 53 39 04 22 [FD BRS]
0.0380604 1 DBx Rx d 14 39 0E 00 20 57 37 0E 20 68 81 83 1A 3F 26 [FD BRS]
0.0427327 1 DBx Rx d 13 39 0F 00 15 EF CD 0E 20 FF FF 7F CF FF [FD BRS]
0.0431199 1 DCx Rx d 14 39 10 01 10 55 43 40 39 55 10 19 16 E9 9C [FD BRS]
0.0436372 1 18E19490x Rx d 15 04 5A 01 55 01 0F 00 48 30 EA 0C 6D 0D 22 01 [FD BRS]
0.0012488 1 18E19490x Rx d 15 03 68 06 B9 16 6A D2 10 0E 11 0E 1D 00 ED 00 [FD BRS]
0.0032602 1 D9x Rx d 14 39 13 01 0B 58 BA 88 55 95 00 FE 03 BA FF [FD BRS]
0.0037734 1 2Dx Rx d 14 33 E3 DB 04 C4 09 00 90 70 97 58 62 46 52 [FD BRS]
0.0042948 1 D4x Rx d 8 39 04 06 04 AC 96 61 84 [FD BRS]
0.0062259 1 DBx Rx d 14 39 0E 00 20 EF EF EF 20 68 81 83 1A 3F 26 [FD BRS]
0.0109342 1 DBx Rx d 13 39 0F 00 15 03 69 EF 20 FF FF 7F CF FF [FD BRS]
0.0113204 1 DCx Rx d 13 39 10 00 16 C2 93 D3 0E 9A 01 00 23 98 [FD BRS]
0.0117015 1 21Cx Rx d 15 22 00 00 00 00 00 00 00 00 00 00 00 00 00 00 [FD BRS]
0.0136237 1 E3x Rx d 9 39 06 0B 08 00 11 11 18 00 [FD BRS]
0.0211630 1 DC08E2 Rx d 8 40 02 00 00 00 00 00 00
0.0231375 1 D9x Rx d 13 39 13 00 15 BC 69 D3 0A A0 69 4D CE 0F [FD BRS]
0.0237047 1 E3x Rx d 15 41 00 05 08 00 80 03 43 D0 02 95 07 39 04 22 [FD BRS]
0.0243581 1 2Dx Rx d 14 64 FF DC 04 C4 09 00 90 70 97 58 62 46 52 [FD BRS]
0.0262532 1 DBx Rx d 14 39 0E 00 20 3D 1E F0 20 68 81 83 1A 3F 26 [FD BRS]
0.0288054 1 D4x Rx d 9 39 04 0C 05 0E 0F F4 FF FF [FD BRS]
0.0290048 1 E3x Rx d 10 05 00 00 0C F5 FC FF 00 00 00 [FD BRS]
0.0309319 1 DBx Rx d 13 39 0F 00 15 BC 82 F0 20 FF FF 7F CF FF [FD BRS]
0.0313191 1 DCx Rx d 14 39 10 01 10 55 43 40 00 55 10 E9 46 E9 9C [FD BRS]
0.0318355 1 18E19490x Rx d 15 04 55 01 53 01 0F 00 3E 30 EB 0C 6D 0D 22 01 [FD BRS]
0.0409035 1 21Cx Rx d 15 23 00 00 00 00 00 00 00 00 00 00 00 00 00 00 [FD BRS]
0.0431759 1 D9x Rx d 13 39 13 00 15 8D 1E D4 0A A0 69 4D CD 0F [FD BRS]
0.0437062 1 2Dx Rx d 14 71 D5 DD 04 C4 09 00 90 70 97 58 62 46 52 [FD BRS]
0.0442255 1 E3x Rx d 9 41 00 05 08 01 0D E5 C2 A9 [FD BRS]
0.0462407 1 DBx Rx d 15 39 0E 01 0F CC 35 FF FF FF FF FF FF FF DF D3 [FD BRS]
0.0081586 1 D9x Rx d 13 39 13 00 15 EB 32 BC 0A A0 69 8D CD 0F [FD BRS]
0.0085368 1 2Dx Rx d 14 73 2F C5 04 C4 09 00 90 70 97 58 62 46 52 [FD BRS]
0.0110049 1 DBx Rx d 14 39 0F 01 06 4D 85 04 60 B4 19 39 0E 00 20 [FD BRS]
0.0127551 1 44 Rx d 1 04
0.0157052 1 DBx Rx d 13 39 0F 00 15 4C 29 D9 20 FF FF 7F CF FF [FD BRS]
0.0160894 1 DCx Rx d 13 39 10 00 16 C0 88 BD 0E 9A 01 00 23 98 [FD BRS]
0.0259668 1 18E19490x Rx d 15 04 55 01 55 01 0F 00 48 30 EE 0C 6D 0D 22 01 [FD BRS]
0.0284810 1 2Dx Rx d 14 52 34 C6 04 C4 09 00 90 70 97 58 62 46 52 [FD BRS]
0.0290004 1 D9x Rx d 13 39 13 00 15 5D 65 BD 0B A0 69 4D CD 0F [FD BRS]
0.0293756 1 E3x Rx d 8 00 80 00 04 8C 9E 17 00 [FD BRS]
0.0310337 1 DBx Rx d 14 39 0E 00 20 E2 53 DA 20 68 81 83 1A 3F 26 [FD BRS]
0.0357070 1 DBx Rx d 13 39 0F 00 15 6A 18 DA 20 FF FF 7F CF FF [FD BRS]
0.0360921 1 DCx Rx d 13 39 10 00 16 8D 60 BE 0E 9A 01 00 23 98 [FD BRS]
0.0384804 1 D4x Rx d 10 39 0C 14 0C FF FF FF FF FD FF [FD BRS]
0.0387197 1 E3x Rx d 8 3A 02 00 04 F4 FF FF FF [FD BRS]
0.0479896 1 D9x Rx d 14 39 13 01 0B 58 BA 88 55 95 00 FE 03 BA FF [FD BRS]
0.0485048 1 2Dx Rx d 14 4D 3D C7 04 C4 09 00 90 70 97 58 62 46 52 [FD BRS]
0.0490232 1 D4x Rx d 8 39 04 06 04 77 F5 5D 84 [FD BRS]
0.0008661 1 D9x Rx d 13 39 13 00 15 E9 0E 9C 0A A0 69 8D CD 0F [FD BRS]
0.0012424 1 2Dx Rx d 14 3A 58 A5 04 C4 09 00 90 70 97 58 62 46 52 [FD BRS]
0.0017627 1 E3x Rx d 12 41 00 05 08 00 80 03 43 D0 02 28 00 [FD BRS]
0.0036998 1 DBx Rx d 14 39 0E 00 20 01 BA B9 20 68 81 83 1A 3F 26 [FD BRS]
0.0062721 1 D4x Rx d 14 39 04 0C 05 0E 0F F4 FF FF 39 15 01 14 44 [FD BRS]
0.0084032 1 DBx Rx d 13 39 0F 00 15 4A 6D B9 20 FF FF 7F CF FF [FD BRS]
0.0087873 1 DCx Rx d 14 39 10 01 10 55 43 40 00 55 10 91 06 E8 9C [FD BRS]
0.0206133 1 D9x Rx d 13 39 13 00 15 7B F1 9D 0A A0 69 4D CD 0F [FD BRS]
0.0211466 1 2Dx Rx d 14 1B 43 A6 04 C4 09 00 90 70 97 58 62 46 52 [FD BRS]
0.0216659 1 E3x Rx d 9 41 00 05 08 01 0E 5C 45 D0 [FD BRS]
0.0237081 1 DBx Rx d 15 39 0E 01 0F C0 35 FF FF FF FF FF FF FF DF D3 [FD BRS]
0.0283923 1 DBx Rx d 13 39 0F 00 15 6C 5C BA 20 FF FF 7F CF FF [FD BRS]
0.0287785 1 DCx Rx d 13 39 10 00 16 99 26 9E 0E 9A 01 00 23 98 [FD BRS]
0.0291628 1 18E19490x Rx d 15 03 68 06 C2 16 5B D2 10 0E 10 0E 1D 00 F5 00 [FD BRS]
0.0406158 1 D9x Rx d 13 39 13 00 15 C2 C5 9E 0A A0 69 4D CE 0F [FD BRS]
0.0411121 1 2Dx Rx d 14 04 4A A7 04 C4 09 00 90 70 97 58 62 46 52 [FD BRS]
0.0436922 1 DBx Rx d 14 39 0F 01 06 4D 85 04 60 98 19 39 0E 00 20 [FD BRS]
0.0454414 1 44 Rx d 1 04
0.0484336 1 DCx Rx d 13 39 10 00 16 BD 8E 9F 0E 9A 01 00 23 98 [FD BRS]
0.0488178 1 DBx Rx d 13 39 0F 00 15 8E 4C BB 20 FF FF 7F CF FF [FD BRS]
0.0026456 1 D9x Rx d 13 39 13 00 15 AB D8 7A 0A A0 69 8D CD 0F [FD BRS]
0.0032459 1 2Dx Rx d 14 B9 5D 83 04 C4 09 00 90 70 97 58 62 46 52 [FD BRS]
0.0037672 1 E3x Rx d 9 41 00 05 08 01 99 40 1D AA [FD BRS]
0.0057933 1 DBx Rx d 15 39 0E 01 0F C0 35 FF FF FF FF FF FF FF DF D3 [FD BRS]
0.0104756 1 DBx Rx d 13 39 0F 00 15 14 B4 97 20 FF FF 7F CF FF [FD BRS]
0.0108608 1 DCx Rx d 13 39 10 00 16 22 CC 7B 0E 9A 01 00 23 98 [FD BRS]
0.0207003 1 18E19490x Rx d 15 00 00 00 01 55 55 55 55 05 67 06 D7 03 00 00 [FD BRS]
0.0226456 1 D9x Rx d 13 39 13 00 15 99 92 7B 0A A0 69 CD CD 0F [FD BRS]
0.0231899 1 2Dx Rx d 14 E4 62 84 04 C4 09 00 90 70 97 58 62 46 52 [FD BRS]
0.0257670 1 DBx Rx d 14 39 0E 00 20 5E FD 98 20 68 81 83 1A 3F 26 [FD BRS]
0.0305263 1 DBx Rx d 13 39 0F 00 15 AA 41 98 20 FF FF 7F CF FF [FD BRS]
0.0309145 1 DCx Rx d 13 39 10 00 16 BD A4 7C 0E 9A 01 00 23 98 [FD BRS]
0.0432357 1 2Dx Rx d 14 FB 6B 85 04 C4 09 00 90 70 97 58 62 46 52 [FD BRS]
0.0437560 1 D9x Rx d 13 39 13 00 15 08 50 7C 0A A0 69 4D CE 0F [FD BRS]
0.0441363 1 E3x Rx d 8 00 80 00 04 AD BC 0A 00 [FD BRS]
0.0457894 1 DBx Rx d 14 39 0E 00 20 05 68 99 20 68 81 83 1A 3F 26 [FD BRS]
0.0078193 1 D9x Rx d 14 39 13 01 0B 58 BA 88 55 95 00 FE 03 BA FF [FD BRS]
0.0083325 1 2Dx Rx d 14 44 B8 6D 04 C4 09 00 90 70 97 58 62 46 52 [FD BRS]
0.0088519 1 D4x Rx d 8 39 04 06 04 49 C9 4B 84 [FD BRS]
0.0108550 1 DBx Rx d 14 39 0E 00 20 3D 45 81 20 68 81 83 1A 3F 26 [FD BRS]
0.0154473 1 DCx Rx d 13 39 10 00 16 16 3E 65 0E 9A 01 00 23 98 [FD BRS]
0.0158314 1 DBx Rx d 13 39 0F 00 15 59 C8 81 20 FF FF 7F CF FF [FD BRS]
0.0162186 1 18E19490x Rx d 15 00 00 00 01 55 55 55 55 05 68 06 D8 03 00 00 [FD BRS]
0.0182718 1 E3x Rx d 9 39 06 0B 08 00 11 11 18 00 [FD BRS]
0.0276917 1 D9x Rx d 13 39 13 00 15 2B 83 65 0A A0 69 0D CE 0F [FD BRS]
0.0283260 1 2Dx Rx d 14 65 A3 6E 04 C4 09 00 90 70 97 58 62 46 52 [FD BRS]
0.0288483 1 4Fx Rx d 8 20 BF 01 A0 00 49 A6 D9 [FD BRS]
0.0290137 1 E3x Rx d 15 41 00 05 08 00 80 03 43 D0 01 BA 6E 39 04 22 [FD BRS]
0.0308758 1 DBx Rx d 14 39 0E 00 20 F5 E9 82 20 68 81 83 1A 3F 26 [FD BRS]
0.0334361 1 D4x Rx d 9 39 04 0C 05 0E 0F F4 FF FF [FD BRS]
0.0354572 1 DCx Rx d 14 39 10 01 10 55 43 40 39 55 10 39 46 E9 9C [FD BRS]
0.0359714 1 DBx Rx d 13 39 0F 00 15 7F F9 82 20 FF FF 7F CF FF [FD BRS]
0.0456617 1 18E19490x Rx d 15 01 E4 01 66 0D 7D 01 80 0C F1 00 BC 02 06 06 [FD BRS]
0.0476911 1 D9x Rx d 13 39 13 00 15 AD 07 66 0A A0 69 8D CE 0F [FD BRS]
0.0483244 1 2Dx Rx d 14 7A AA 6F 04 C4 09 00 90 70 97 58 62 46 52 [FD BRS]
0.0488447 1 E3x Rx d 9 41 00 05 08 01 7A C2 73 E3 [FD BRS]
0.0076178 1 D9x Rx d 13 39 13 00 15 E9 62 4D 0A A0 69 4D CE 0F [FD BRS]
0.0080110 1 2Dx Rx d 14 AC 49 56 04 C4 09 00 90 70 97 58 62 46 52 [FD BRS]
0.0085304 1 E3x Rx d 9 41 00 05 08 01 F6 1A 67 DE [FD BRS]
0.0105705 1 DBx Rx d 15 39 0E 01 0F D8 35 FF FF FF FF FF FF FF DF D3 [FD BRS]
0.0151567 1 DCx Rx d 13 39 10 00 16 CA 81 4E 0E 9A 01 00 23 98 [FD BRS]
0.0155409 1 DBx Rx d 13 39 0F 00 15 61 CA 6A 20 FF FF 7F CF FF [FD BRS]
0.0253802 1 18E19490x Rx d 15 00 00 00 01 55 55 55 55 05 68 06 D8 03 00 00 [FD BRS]
0.0276185 1 D9x Rx d 13 39 13 00 15 BF BC 4E 0A A0 69 8D CE 0F [FD BRS]
0.0279988 1 2Dx Rx d 14 B9 63 57 04 C4 09 00 90 70 97 58 62 46 52 [FD BRS]
0.0285171 1 4Fx Rx d 8 28 94 00 00 33 5C B3 70 [FD BRS]
0.0305533 1 DBx Rx d 14 39 0F 01 06 4D 85 04 60 78 19 39 0E 00 20 [FD BRS]
0.0323274 1 44 Rx d 1 04
0.0352377 1 DCx Rx d 13 39 10 00 16 EE 29 4F 0E 9A 01 00 23 98 [FD BRS]
0.0356188 1 DBx Rx d 13 39 0F 00 15 83 DA 6B 20 FF FF 7F CF FF [FD BRS]
0.0480181 1 2Dx Rx d 14 16 37 58 04 C4 09 00 90 70 97 58 62 46 52 [FD BRS]
0.0485385 1 E3x Rx d 8 00 80 00 04 B2 A2 01 00 [FD BRS]
0.0488338 1 D9x Rx d 13 39 13 00 15 8D F6 4F 0A A0 69 CD CE 0F [FD BRS]
0.0061390 1 18E19490x Rx d 15 04 56 01 54 01 0F 00 48 30 EE 0C 6D 0D 22 01 [FD BRS]
0.0081353 1 D9x Rx d 13 39 13 00 15 E7 3E 36 0A A0 69 CD CD 0F [FD BRS]
0.0089776 1 2Dx Rx d 14 08 5C 3F 04 C4 09 00 90 70 97 58 62 46 52 [FD BRS]
0.0094999 1 E3x Rx d 8 00 80 00 04 79 04 FC 00 [FD BRS]
0.0115060 1 DBx Rx d 14 39 0E 00 20 39 68 53 20 68 81 83 1A 3F 26 [FD BRS]
0.0160743 1 DCx Rx d 13 39 10 00 16 5D D1 37 0E 9A 01 00 23 98 [FD BRS]
0.0164564 1 DBx Rx d 13 39 0F 00 15 90 7F 53 20 FF FF 7F CF FF [FD BRS]
0.0189446 1 D4x Rx d 10 39 0C 14 0C FF FF FF FF FD FF [FD BRS]
0.0282345 1 D9x Rx d 14 39 13 01 0B 58 BA 88 55 95 00 FE 03 BA FF [FD BRS]
0.0289987 1 2Dx Rx d 14 1E EE 40 04 C4 09 00 90 70 97 58 62 46 52 [FD BRS]
0.0295201 1 D4x Rx d 8 39 04 06 04 3E 3A 42 84 [FD BRS]
0.0314763 1 DBx Rx d 14 39 0E 00 20 D5 97 54 20 68 81 83 1A 3F 26 [FD BRS]
0.0359705 1 DCx Rx d 13 39 10 00 16 47 A8 38 0E 9A 01 00 23 98 [FD BRS]
0.0363536 1 DBx Rx d 13 39 0F 00 15 3E 0D 54 20 FF FF 7F CF FF [FD BRS]
0.0367398 1 18E19490x Rx d 15 00 00 00 01 55 55 55 55 05 68 06 D8 03 00 00 [FD BRS]
0.0388870 1 E3x Rx d 9 39 06 0B 08 00 11 11 18 00 [FD BRS]
0.0481469 1 D9x Rx d 13 39 13 00 15 84 6B 38 0A A0 69 4D CE 0F [FD BRS]
0.0489551 1 2Dx Rx d 14 01 E7 41 04 C4 09 00 90 70 97 58 62 46 52 [FD BRS]
0.0494765 1 E3x Rx d 12 41 00 05 08 00 80 03 43 D0 01 60 5D [FD BRS]
0.0001303 1 2Dx Rx d 14 63 A8 22 04 C4 09 00 90 70 97 58 62 46 52 [FD BRS]
0.0006516 1 D4x Rx d 8 39 04 06 04 11 DA 3C 84 [FD BRS]
0.0026618 1 DBx Rx d 14 39 0E 00 20 1F 09 36 20 68 81 83 1A 3F 26 [FD BRS]
0.0071170 1 DCx Rx d 13 39 10 00 16 3A AE 1A 0E 9A 01 00 23 98 [FD BRS]
0.0075001 1 DBx Rx d 13 39 0F 00 15 FC 68 36 20 FF FF 7F CF FF [FD BRS]
0.0078873 1 18E19490x Rx d 15 00 00 00 01 55 55 55 55 05 67 06 D7 03 00 00 [FD BRS]
0.0100646 1 E3x Rx d 9 39 06 0B 08 00 11 11 18 00 [FD BRS]
0.0103639 1 4Fx Rx d 8 20 E2 0E A0 00 49 A6 D7 [FD BRS]
0.0193788 1 D9x Rx d 13 39 13 00 15 E7 2F 1A 0A A0 69 0D CF 0F [FD BRS]
0.0201440 1 2Dx Rx d 14 7C A1 23 04 C4 09 00 90 70 97 58 62 46 52 [FD BRS]
0.0206644 1 E3x Rx d 12 41 00 05 08 00 80 03 43 D0 01 24 26 [FD BRS]
0.0226675 1 DBx Rx d 14 39 0E 00 20 8B 2D 37 20 68 81 83 1A 3F 26 [FD BRS]
0.0252397 1 D4x Rx d 14 39 04 0C 05 0E 0F F4 FF FF 39 15 01 14 44 [FD BRS]
0.0271449 1 DCx Rx d 14 39 10 01 10 55 43 40 00 55 10 C1 12 E9 9C [FD BRS]
0.0276611 1 DBx Rx d 13 39 0F 00 15 1E 78 37 20 FF FF 7F CF FF [FD BRS]
0.0373534 1 18E19490x Rx d 15 01 E5 01 66 0D 7C 01 80 0C F1 00 BC 02 06 06 [FD BRS]
0.0393838 1 D9x Rx d 13 39 13 00 15 D0 89 1B 0A A0 69 8D CE 0F [FD BRS]
0.0401210 1 2Dx Rx d 14 21 9E 24 04 C4 09 00 90 70 97 58 62 46 52 [FD BRS]
0.0406413 1 E3x Rx d 9 41 00 05 08 01 F8 82 65 1D [FD BRS]
0.0426755 1 DBx Rx d 15 39 0E 01 0F B8 35 FF FF FF FF FF FF FF DF D3 [FD BRS]
0.0472647 1 DCx Rx d 13 39 10 00 16 81 6E 1C 0E 9A 01 00 23 98 [FD BRS]
0.0476479 1 DBx Rx d 13 39 0F 00 15 A0 8D 38 20 FF FF 7F CF FF [FD BRS]
0.0002158 1 2Dx Rx d 14 E0 AD 04 04 C4 09 00 90 70 97 58 62 46 52 [FD BRS]
0.0007382 1 D4x Rx d 8 39 04 06 04 BA B2 36 84 [FD BRS]
0.0027573 1 DBx Rx d 14 39 0E 00 20 59 44 18 20 68 81 83 1A 3F 26 [FD BRS]
0.0071195 1 DCx Rx d 13 39 10 00 16 CC AC FC 0E 9A 01 00 23 98 [FD BRS]
0.0075027 1 DBx Rx d 13 39 0F 00 15 A2 B1 18 20 FF FF 7F CF FF [FD BRS]
0.0078888 1 18E19490x Rx d 15 00 00 00 01 55 55 55 55 05 68 06 D8 03 00 00 [FD BRS]
0.0085800 1 DC085D Rx d 8 40 02 00 00 00 00 00 00
0.0101662 1 E3x Rx d 9 39 06 0B 08 00 11 11 18 00 [FD BRS]
0.0196841 1 D9x Rx d 13 39 13 00 15 A5 F9 FC 0A A0 69 0D CF 0F [FD BRS]
0.0202383 1 2Dx Rx d 14 FF A4 05 04 C4 09 00 90 70 97 58 62 46 52 [FD BRS]
0.0207597 1 E3x Rx d 12 41 00 05 08 00 80 03 43 D0 00 E8 B6 [FD BRS]
0.0227628 1 DBx Rx d 14 39 0E 00 20 78 AA 19 1F 68 81 83 1A 3F 26 [FD BRS]
0.0253350 1 D4x Rx d 14 39 04 0C 05 0E 0F F4 FF FF 39 15 01 14 44 [FD BRS]
0.0271282 1 DCx Rx d 14 39 10 01 10 55 43 40 00 55 10 91 06 E8 9C [FD BRS]
0.0276454 1 DBx Rx d 13 39 0F 00 15 40 A1 19 20 FF FF 7F CF FF [FD BRS]
0.0372977 1 18E19490x Rx d 15 01 E6 01 66 0D 7C 01 80 0C F1 00 BC 02 06 06 [FD BRS]
0.0394311 1 D9x Rx d 13 39 13 00 15 92 5F FD 0A A0 69 8D CE 0F [FD BRS]
0.0402143 1 2Dx Rx d 14 DE BF 06 04 C4 09 00 90 70 97 58 62 46 52 [FD BRS]
0.0407366 1 E3x Rx d 9 41 00 05 08 01 A5 CA 2D 3C [FD BRS]
0.0427717 1 DBx Rx d 15 39 0E 01 0F C0 35 FF FF FF FF FF FF FF DF D3 [FD BRS]
0.0472030 1 DCx Rx d 13 39 10 00 16 A5 EC FE 0E 9A 01 00 23 98 [FD BRS]
0.0475861 1 DBx Rx d 13 39 0F 00 15 66 90 1A 20 FF FF 7F CF FF [FD BRS]
