date 2025-01-01 00:00:00.000
base hex  timestamps absolute
no internal events logged

2.0663999 1 D9x Rx d 14 39 13 01 0B 59 BA 38 55 95 00 FE 03 BA FF FD BRS
3.6205998 1 DCx Rx d 13 39 10 00 16 E7 DD 41 0E A2 01 00 23 D4 FD BRS
4.0049998 1 18E19490x Rx d 15 02 84 00 64 64 64 01 00 04 27 55 02 03 00 00 FD BRS
4.7041997 1 E3x Rx d 12 00 80 00 04 48 43 D7 02 05 00 00 0C FD BRS
9.2315995 1 2Dx Rx d 14 DF 23 4F 04 C4 09 00 90 70 97 58 62 46 52 FD BRS
9.7528994 1 4Fx Rx d 8 28 6D 09 00 07 95 DA D3 FD BRS
14.0569992 1 DBx Rx d 14 39 0E 00 20 36 C2 98 2E 78 82 83 1A 3F 26 FD BRS
19.1062989 1 DBx Rx d 13 39 0F 00 15 48 51 99 20 FF FF 7F CF FF FD BRS
21.9696987 1 D9x Rx d 13 39 13 00 15 B3 B3 43 0B A0 78 4D C9 0F FD BRS
23.6218986 1 DCx Rx d 13 39 10 00 16 AA 35 42 0E A2 01 00 23 D4 FD BRS
29.2761983 1 2Dx Rx d 14 8A C5 50 04 C4 09 00 90 70 97 58 62 46 52 FD BRS
29.7964982 1 D4x Rx d 8 39 04 06 04 05 4F 12 84 FD BRS
33.6327980 1 18E19490x Rx d 15 03 68 06 CB 16 5D D2 10 0E 10 0E 1E 00 F5 00 FD BRS
34.3278980 1 DBx Rx d 14 39 0E 00 20 D0 04 99 2E 78 82 83 1A 3F 26 FD BRS
39.1051977 1 DBx Rx d 13 39 0F 00 15 6E 60 9A 20 FF FF 7F CF FF FD BRS
39.4923977 1 E3x Rx d 9 41 00 05 08 00 80 03 43 D1 FD BRS
42.0818975 1 D9x Rx d 13 39 13 00 15 18 2D 44 0B A0 78 8D C8 0F FD BRS
43.7600974 1 DCx Rx d 13 39 10 00 16 8E 9D 43 0E A2 01 00 23 D4 FD BRS
49.2572971 1 2Dx Rx d 14 D2 2D 51 04 C4 09 00 90 70 97 58 62 46 52 FD BRS
1.2141999 1 D9x Rx d 13 39 13 00 15 4D 5B 27 0B A0 78 8D C9 0F FD BRS
2.7983998 1 DCx Rx d 14 39 10 01 10 55 44 3F 39 58 10 39 46 E9 9C FD BRS
3.3157998 1 18E19490x Rx d 15 04 53 01 57 01 0F 00 3E 30 EE 0C 7C 0D 22 01 FD BRS
8.5419995 1 2Dx Rx d 14 B5 B5 34 04 C4 09 00 90 70 97 58 62 46 52 FD BRS
13.3820992 1 DBx Rx d 14 39 0E 00 20 11 39 7D 2E 78 82 83 1A 3F 26 FD BRS
13.9012992 1 E3x Rx d 9 41 00 00 08 02 34 39 37 45 FD BRS
18.3173989 1 DBx Rx d 13 39 0F 00 15 E8 97 7E 20 FF FF 7F CF FF FD BRS
22.1949987 1 D9x Rx d 13 39 13 00 15 83 41 28 0B A0 78 4D C9 0F FD BRS
22.8480986 1 DCx Rx d 13 39 10 00 16 60 D7 27 0E A2 01 00 23 D4 FD BRS
28.4733983 1 2Dx Rx d 14 ED 5D 35 04 C4 09 00 90 70 97 58 62 46 52 FD BRS
28.9907983 1 D4x Rx d 10 39 0C 14 0C FF FF FF FF FD FF FD BRS
32.7679981 1 18E19490x Rx d 15 00 00 00 01 55 55 55 55 05 68 06 D8 03 00 00 FD BRS
33.4610980 1 DBx Rx d 14 39 0E 00 20 AD 54 7E 2E 78 82 83 1A 3F 26 FD BRS
33.9802980 1 E3x Rx d 14 41 00 00 08 03 14 82 43 56 7F 26 14 41 00 FD BRS
38.3714977 1 DBx Rx d 13 39 0F 00 15 0A 87 7F 20 FF FF 7F CF FF FD BRS
41.4508975 1 D9x Rx d 14 39 13 01 0B 59 BA 38 55 95 00 FE 03 BA FF FD BRS
42.8240975 1 DCx Rx d 13 39 10 00 16 7A AE 28 0E A2 01 00 23 D4 FD BRS
43.6623974 1 E3x Rx d 8 00 80 00 04 0D FF D2 02 FD BRS
48.4416971 1 2Dx Rx d 14 CC 46 36 04 C4 09 00 90 70 97 58 62 46 52 FD BRS
48.9610971 1 4Fx Rx d 8 28 D6 08 00 25 64 D5 9E FD BRS
1.8024999 1 18E19490x Rx d 15 00 00 00 01 55 55 55 55 05 69 06 D8 03 00 00 FD BRS
2.4925999 1 DBx Rx d 14 39 0E 00 20 56 D2 60 2E 78 82 83 1A 3F 26 FD BRS
7.4108996 1 DBx Rx d 13 39 0F 00 15 57 7C 61 20 FF FF 7F CF FF FD BRS
7.7960995 1 E3x Rx d 9 39 06 0B 08 00 11 11 18 00 FD BRS
10.4555994 1 D9x Rx d 14 39 13 01 0B 59 BA 38 55 95 00 FE 03 BA FF FD BRS
11.8337993 1 DCx Rx d 13 39 10 00 16 07 A8 0A 0E A2 01 00 23 D4 FD BRS
12.4028993 1 18E06180x Rx d 11 00 11 62 02 03 00 0A AF D7 01 01 FD BRS
12.7770992 1 E3x Rx d 8 00 80 00 04 F0 46 CC 02 FD BRS
17.5044990 1 2Dx Rx d 14 B7 0B 18 04 C4 09 00 90 70 97 58 62 46 52 FD BRS
22.3485987 1 DBx Rx d 14 39 0E 00 20 C2 F6 61 2E 78 82 83 1A 3F 26 FD BRS
27.3998984 1 DBx Rx d 13 39 0F 00 15 71 4D 62 20 FF FF 7F CF FF FD BRS
30.1762982 1 D9x Rx d 13 39 13 00 15 D9 64 0C 0B A0 78 0D C9 0F FD BRS
31.7624981 1 DCx Rx d 13 39 10 00 16 23 00 0B 0E A2 01 00 23 D4 FD BRS
32.1447981 1 18E19490x Rx d 15 01 E9 01 75 0D 98 01 80 0C ED 00 BC 02 06 06 FD BRS
37.5450978 1 2Dx Rx d 14 A8 02 19 04 C4 09 00 90 70 97 58 62 46 52 FD BRS
38.0633977 1 D4x Rx d 8 39 04 06 04 E7 E8 07 84 FD BRS
42.3584975 1 DBx Rx d 14 39 0E 00 20 7E 9B 62 2E 78 82 83 1A 3F 26 FD BRS
47.4017972 1 DBx Rx d 13 39 0F 00 15 93 5D 63 20 FF FF 7F CF FF FD BRS
47.7859972 1 E3x Rx d 9 41 00 05 08 00 80 03 43 D1 FD BRS
5.8216997 1 D9x Rx d 13 39 13 00 15 27 64 F3 0B A0 78 4D CA 0F FD BRS
7.5248996 1 DCx Rx d 13 39 10 00 16 AD 75 F2 0E A2 21 00 23 D4 FD BRS
13.2461992 1 2Dx Rx d 14 BF D2 00 04 C4 09 00 90 70 97 58 62 46 52 FD BRS
13.7694992 1 D4x Rx d 8 39 04 06 04 A2 54 02 84 FD BRS
13.9298992 1 18E06188x Rx d 8 03 22 02 40 AA AA AA AA FD BRS
18.0399989 1 DBx Rx d 10 24 CD 48 5A 65 B1 90 26 5E 86 FD ESI
18.5591989 1 E3x Rx d 12 41 00 00 08 00 57 31 4B 41 46 35 45 FD BRS
23.1062986 1 DBx Rx d 13 39 0F 00 15 63 F6 4A 20 FF FF 7F CF FF FD BRS
25.9116985 1 D9x Rx d 13 39 13 00 15 C6 49 F4 0B A0 78 0D C9 0F FD BRS
27.5429984 1 DCx Rx d 13 39 10 00 16 E1 F0 F3 0E A2 01 00 23 D4 FD BRS
27.9272983 1 18E19490x Rx d 15 00 00 00 01 55 55 55 55 05 68 06 D8 03 00 00 FD BRS
28.6154983 1 18E06180x Rx d 11 00 10 62 02 40 01 00 00 00 01 3E FD BRS
33.2726980 1 2Dx Rx d 14 A0 DB 01 04 C4 09 00 90 70 97 58 62 46 52 FD BRS
38.1757977 1 DBx Rx d 15 39 0E 01 0F 14 36 FF FF FF FF FF FF FF BF D4 FD BRS
38.8339977 1 D4x Rx d 14 39 04 0C 05 0E 0F F4 FF FF 39 15 01 14 45 FD BRS
39.3632977 1 E3x Rx d 14 39 04 22 08 00 3D 87 7E 78 0F FA FF 41 00 FD BRS
43.1184974 1 DBx Rx d 13 39 0F 00 15 81 E6 4B 20 FF FF 7F CF FF FD BRS
43.5046974 1 4Fx Rx d 8 20 58 06 A0 00 49 AA EB FD BRS
45.9130973 1 D9x Rx d 13 39 13 00 15 F4 03 F5 0B A0 78 4D C9 0F FD BRS
47.4962972 1 DCx Rx d 14 39 10 01 10 55 44 3F 00 58 10 E9 46 E9 9C FD BRS
2.1157999 1 DBx Rx d 14 39 0E 00 20 3B DA 2E 2E 78 82 83 1A 3F 26 FD BRS
7.1770996 1 DBx Rx d 13 39 0F 00 15 0F E1 2F 20 FF FF 7F CF FF FD BRS
7.5642996 1 E3x Rx d 9 39 06 0B 08 00 11 11 18 00 FD BRS
9.9616994 1 D9x Rx d 14 39 13 01 0B 59 BA 38 55 95 00 FE 03 BA FF FD BRS
11.4359993 1 DCx Rx d 13 39 10 00 16 3D 4F D8 0E A2 01 00 23 D4 FD BRS
11.8202993 1 18E19490x Rx d 15 02 84 00 64 64 64 01 00 04 27 53 02 02 00 00 FD BRS
12.5204993 1 18E06180x Rx d 8 03 7F 22 78 FF FF FF FF FD BRS
12.7236992 1 E3x Rx d 8 00 80 00 04 AA E4 C2 02 FD BRS
17.2780990 1 2Dx Rx d 14 FD 9E E6 04 C4 09 00 90 70 97 58 62 46 52 FD BRS
22.1731987 1 DBx Rx d 14 39 0E 00 20 AF FE 2F 2E 78 82 83 1A 3F 26 FD BRS
27.1893984 1 DBx Rx d 13 39 0F 00 15 B0 0A 30 20 FF FF 7F CF FF FD BRS
29.8627982 1 D9x Rx d 13 39 13 00 15 85 E4 DA 0B A0 77 CD C9 0F FD BRS
31.4399981 1 DCx Rx d 13 39 10 00 16 19 E7 D9 0E A2 01 00 23 D4 FD BRS
37.3091978 1 2Dx Rx d 14 E2 97 E7 04 C4 09 00 90 70 97 6C 31 23 29 FD BRS
37.8295978 1 D4x Rx d 8 39 04 06 04 01 1F FD 84 FD BRS
41.4357975 1 18E19490x Rx d 15 03 68 06 C9 16 5D D2 10 0E 11 0E 1E 00 F1 00 FD BRS
42.1289975 1 DBx Rx d 14 39 0E 00 20 9A 3B 30 2E 68 82 83 1A 3F 26 FD BRS
47.1642972 1 DBx Rx d 13 39 0F 00 15 52 1A 31 20 FF FF 7F CF FF FD BRS
47.5494972 1 E3x Rx d 9 41 00 05 08 00 80 03 43 D1 FD BRS
2.4043999 1 DBx Rx d 14 39 0E 00 20 95 22 17 2E 78 82 83 1A 3F 26 FD BRS
2.9215998 1 E3x Rx d 12 41 00 00 08 00 57 31 4B 41 46 35 45 FD BRS
7.4705996 1 DBx Rx d 13 39 0F 00 15 A2 B1 18 20 FF FF 7F CF FF FD BRS
10.2100994 1 D9x Rx d 13 39 13 00 15 59 53 C2 0B A0 78 4D C9 0F FD BRS
11.7782993 1 DCx Rx d 13 39 10 00 16 FE F8 C1 0E A2 21 00 23 D4 FD BRS
17.6024990 1 2Dx Rx d 14 9C 0D CF 04 C4 09 00 90 70 97 58 62 46 52 FD BRS
21.7067987 1 18E19490x Rx d 15 02 84 00 64 64 64 01 00 05 27 54 02 02 00 00 FD BRS
22.5398987 1 DBx Rx d 15 39 0E 01 0F FC 35 FF FF FF FF FF FF FF BF D4 FD BRS
23.2020986 1 D4x Rx d 14 39 04 0C 05 0E 0F F4 FF FF 39 15 01 14 45 FD BRS
23.7314986 1 E3x Rx d 14 39 04 22 08 00 3D 87 7E 78 0F FA FF 41 00 FD BRS
27.4835984 1 DBx Rx d 13 39 0F 00 15 40 A1 19 20 FF FF 7F CF FF FD BRS
27.8697983 1 4Fx Rx d 8 20 FE 04 A0 00 49 AA ED FD BRS
30.2092982 1 D9x Rx d 13 39 13 00 15 CB AC C3 0B A0 78 8D C9 0F FD BRS
31.7964981 1 DCx Rx d 14 39 10 01 10 55 44 3F 00 58 10 99 16 E8 9C FD BRS
37.6666978 1 2Dx Rx d 14 C9 EB D0 04 C4 09 00 90 70 97 58 62 46 52 FD BRS
42.4117975 1 DBx Rx d 14 39 0E 00 20 6C CD 19 2E 78 82 83 1A 3F 26 FD BRS
42.9309975 1 E3x Rx d 9 41 00 00 08 02 34 39 37 7D FD BRS
47.4590972 1 DBx Rx d 13 39 0F 00 15 66 90 1A 20 FF FF 7F CF FF FD BRS
0.4210000 1 DBx Rx d 13 39 0F 00 15 3B 6B 04 20 FF FF 7F CF FF FD BRS
0.8072000 1 E3x Rx d 9 41 00 05 08 00 80 03 43 D1 FD BRS
3.1555998 1 D9x Rx d 13 39 13 00 15 B7 3C AE 0B A0 78 8D C9 0F FD BRS
4.7527997 1 DCx Rx d 13 39 10 00 16 61 52 AD 0E A2 21 00 25 D4 FD BRS
10.5500994 1 2Dx Rx d 14 53 EC BB 04 C4 09 00 90 70 97 58 62 46 52 FD BRS
15.4400991 1 DBx Rx d 15 39 0E 01 0F FC 35 FF FF FF FF FF FF FF BF D4 FD BRS
16.1022990 1 D4x Rx d 14 39 04 0C 05 0F 07 FA 7F FF 9C 8A 80 8A 22 FD BRS
16.6316990 1 E3x Rx d 12 39 04 22 08 00 3D 87 7E 78 0F FA FF FD BRS
20.4497988 1 DBx Rx d 13 39 0F 00 15 D9 7B 05 20 FF FF 7F CF FF FD BRS
23.1422986 1 D9x Rx d 13 39 13 00 15 85 76 AF 0B A0 78 CD C9 0F FD BRS
24.6304985 1 DCx Rx d 14 39 10 01 10 55 44 3F 32 58 10 79 06 E9 9C FD BRS
25.1457985 1 18E19490x Rx d 15 04 55 01 57 01 0F 00 34 30 ED 0C 7C 0D 22 01 FD BRS
30.6619982 1 2Dx Rx d 14 0E D3 BC 04 C4 09 00 90 70 97 58 62 46 52 FD BRS
35.3881979 1 DBx Rx d 14 39 0E 00 20 BF 02 05 2E 78 82 83 1A 3F 26 FD BRS
40.4203976 1 DBx Rx d 13 39 0F 00 15 FF 4A 06 20 FF FF 7F CF FF FD BRS
43.0937974 1 D9x Rx d 13 39 13 00 15 EA C7 B0 0B A0 78 8D C9 0F FD BRS
44.6540973 1 DCx Rx d 13 39 10 00 16 FC E3 AF 0E A2 21 00 23 D4 FD BRS
0.7776000 1 D9x Rx d 13 39 13 00 15 D3 B7 9A 0B A0 78 4D CA 0F FD BRS
2.3387999 1 DCx Rx d 13 39 10 00 16 59 46 99 0E A2 21 00 23 D4 FD BRS
2.7181998 1 18E19490x Rx d 15 00 00 00 01 55 55 55 55 05 68 06 D8 03 00 00 FD BRS
8.1913995 1 2Dx Rx d 14 27 11 A7 04 C4 09 00 90 70 97 58 62 46 52 FD BRS
12.2125993 1 DCx Rx d 9 39 FE 6F 08 94 01 00 80 03 FD BRS
13.0987992 1 DBx Rx d 15 39 0E 01 0F 00 36 FF FF FF FF FF FF FF BF D4 FD BRS
13.7599992 1 D4x Rx d 14 39 04 0C 05 0E 0F F4 FF FF 39 15 01 14 45 FD BRS
14.2893992 1 E3x Rx d 12 39 04 22 08 00 3D 87 7E 78 0F FA FF FD BRS
18.1264989 1 DBx Rx d 13 39 0F 00 15 5E 92 F1 20 FF FF 7F CF FF FD BRS
20.7168988 1 D9x Rx d 13 39 13 00 15 31 A7 9B 0B A0 78 4D CA 0F FD BRS
22.3041987 1 DCx Rx d 14 39 10 01 10 55 44 3F 38 58 10 59 06 E9 9C FD BRS
28.2703983 1 2Dx Rx d 14 82 66 A8 04 C4 09 00 90 70 97 58 62 46 52 FD BRS
32.3055981 1 18E19490x Rx d 15 01 EC 01 75 0D 99 01 80 0C ED 00 BC 02 06 06 FD BRS
33.1387980 1 DBx Rx d 14 39 0E 00 20 B3 E7 F1 2E 78 82 83 1A 3F 26 FD BRS
38.0660977 1 DBx Rx d 13 39 0F 00 15 78 A3 F2 20 FF FF 7F CF FF FD BRS
41.7285975 1 D9x Rx d 13 39 13 00 15 4F 8F 9C 0B A0 78 0D CA 0F FD BRS
42.4207975 1 DCx Rx d 13 39 10 00 16 30 06 9B 0E A2 21 00 23 D4 FD BRS
48.1669971 1 2Dx Rx d 14 9D 6F A9 04 C4 09 00 90 70 97 58 62 46 52 FD BRS
48.6863971 1 D4x Rx d 10 39 0C 14 0C FF FF FF FF FD FF FD BRS
2.0911999 1 2Dx Rx d 14 75 9E 92 04 C4 09 00 90 70 97 58 62 46 52 FD BRS
2.6095998 1 D4x Rx d 8 39 04 06 04 12 72 EC 84 FD BRS
6.9836996 1 DBx Rx d 14 39 0E 00 20 D1 F9 DB 2E 78 82 83 1A 3F 26 FD BRS
12.0118993 1 E3x Rx d 9 41 00 05 08 00 80 03 43 D1 FD BRS
12.2069993 1 DBx Rx d 13 39 0F 00 15 26 7A DC 20 FF FF 7F CF FF FD BRS
14.8264991 1 D9x Rx d 13 39 13 00 15 00 DE 86 0B A0 78 CD C8 0F FD BRS
16.1416990 1 DCx Rx d 13 39 10 00 16 04 F4 85 0E A2 21 00 23 D4 FD BRS
22.0858987 1 2Dx Rx d 14 6A 97 93 04 C4 09 00 90 70 97 58 62 46 52 FD BRS
26.0261985 1 18E19490x Rx d 15 02 84 00 64 64 64 01 00 05 27 57 02 02 00 00 FD BRS
26.9792984 1 DBx Rx d 15 39 0E 01 0F FC 35 FF FF FF FF FF FF FF BF D4 FD BRS
27.6424984 1 D4x Rx d 14 39 04 0C 05 0E 0F F4 FF FF 39 15 01 14 45 FD BRS
31.9889981 1 DBx Rx d 13 39 0F 00 15 C4 6A DD 20 FF FF 7F CF FF FD BRS
34.6194979 1 D9x Rx d 13 39 13 00 15 37 78 87 0B A0 78 4D C9 0F FD BRS
36.1505979 1 DCx Rx d 14 39 10 01 10 55 44 3F 39 58 10 39 46 E9 9C FD BRS
42.1568975 1 2Dx Rx d 14 37 A8 94 04 C4 09 00 90 70 97 58 62 46 52 FD BRS
46.9269972 1 DBx Rx d 14 39 0E 00 20 A9 22 DD 2E 78 82 83 1A 3F 26 FD BRS
0.0036000 1 F9x Rx d 0  FD
5.1249997 1 2Dx Rx d 14 BB 1D 80 04 C4 09 00 90 70 97 58 62 46 52 FD BRS
9.9430994 1 DBx Rx d 14 39 0E 00 20 89 3B C9 2E 78 82 83 1A 3F 26 FD BRS
10.4943994 1 18E06180x Rx d 8 05 62 01 2F 01 59 FF FF FD BRS
14.9915991 1 DBx Rx d 13 39 0F 00 15 6B 06 CA 20 FF FF 7F CF FF FD BRS
18.8770989 1 D9x Rx d 13 39 13 00 15 CE B9 74 0B A0 78 0D C9 0F FD BRS
19.2542989 1 DCx Rx d 13 39 10 00 16 F8 D5 73 0E A2 21 00 23 D4 FD BRS
25.0304985 1 2Dx Rx d 14 E3 F5 81 04 C4 09 00 90 70 97 58 62 46 52 FD BRS
25.5528985 1 D4x Rx d 10 39 0C 14 0C FF FF FF FF FD FF FD BRS
28.9700983 1 18E19490x Rx d 15 00 00 00 01 55 55 55 55 05 68 06 D8 03 00 00 FD BRS
29.8712982 1 DBx Rx d 14 39 0E 00 20 35 56 CA 2E 78 82 83 1A 3F 26 FD BRS
34.9614979 1 E3x Rx d 9 39 06 0B 08 00 11 11 18 00 FD BRS
35.1566979 1 DBx Rx d 13 39 0F 00 15 89 16 CB 20 FF FF 7F CF FF FD BRS
35.5418979 1 18E06188x Rx d 8 03 22 02 03 AA AA AA AA FD BRS
37.5662978 1 D9x Rx d 14 39 13 01 0B 59 BA 38 55 95 00 FE 03 BA FF FD BRS
39.1534977 1 DCx Rx d 13 39 10 00 16 67 BD 74 0E A2 21 00 23 D4 FD BRS
40.2596976 1 E3x Rx d 8 00 80 00 04 4A F2 AE 02 FD BRS
45.0220973 1 2Dx Rx d 14 C2 EE 82 04 C4 09 00 90 70 97 58 62 46 52 FD BRS
1.5574999 1 2Dx Rx d 14 78 EA 6C 04 C4 09 00 90 70 97 58 62 46 52 FD BRS
2.0808999 1 4Fx Rx d 8 20 AB 00 A0 00 49 AA E8 FD BRS
5.4250997 1 18E19490x Rx d 15 01 EB 01 75 0D 99 01 80 0C ED 00 BC 02 06 06 FD BRS
6.3182996 1 DBx Rx d 14 39 0E 00 20 CA C1 B5 2E 78 82 83 1A 3F 26 FD BRS
6.8604996 1 E3x Rx d 9 41 00 00 08 02 34 39 37 B5 FD BRS
11.4305993 1 DBx Rx d 13 39 0F 00 15 F4 98 B6 20 FF FF 7F CF FF FD BRS
14.9300991 1 D9x Rx d 13 39 13 00 15 97 BE 60 0B A0 78 4D C9 0F FD BRS
15.5042991 1 DCx Rx d 13 39 10 00 16 BB 02 5F 0E A2 21 00 23 D4 FD BRS
21.4725987 1 2Dx Rx d 14 67 E3 6D 04 C4 09 00 90 70 97 58 62 46 52 FD BRS
21.9928987 1 D4x Rx d 10 39 0C 14 0C FF FF FF FF FD FF FD BRS
26.2979984 1 DBx Rx d 14 39 0E 00 20 CB FF B6 2E 78 82 83 1A 3F 26 FD BRS
26.8181984 1 E3x Rx d 14 41 00 00 08 03 CB 22 31 24 CF 26 14 41 00 FD BRS
31.4435981 1 18E06188x Rx d 8 03 22 02 40 AA AA AA AA FD BRS
31.6397981 1 DBx Rx d 13 39 0F 00 15 16 88 B7 20 FF FF 7F CF FF FD BRS
34.0231980 1 D9x Rx d 14 39 13 01 0B 59 BA 38 55 95 00 FE 03 BA FF FD BRS
35.4093979 1 DCx Rx d 13 39 10 00 16 BF 1E 60 0E A2 21 00 23 D4 FD BRS
35.7926979 1 18E19490x Rx d 15 02 84 00 64 64 64 01 00 04 27 4F 02 03 00 00 FD BRS
36.7339978 1 E3x Rx d 8 00 80 00 04 BB 38 AA 02 FD BRS
41.4562975 1 2Dx Rx d 14 01 19 6E 04 C4 09 00 90 70 97 58 62 46 52 FD BRS
46.2983973 1 DBx Rx d 14 39 0E 00 20 D9 E6 B7 2E 78 82 83 1A 3F 25 FD BRS
46.8165972 1 E3x Rx d 9 41 00 01 08 01 1B 96 52 8D FD BRS
47.0096972 1 18E06180x Rx d 11 00 10 62 02 40 01 00 00 00 01 3E FD BRS
0.4771000 1 DCx Rx d 13 39 10 00 16 2E 49 48 0E A2 21 00 23 D4 FD BRS
0.8573999 1 18E19490x Rx d 15 01 EC 01 75 0D 98 01 80 0C ED 00 BC 02 06 06 FD BRS
6.6876996 1 2Dx Rx d 14 C8 F3 56 04 C4 09 00 90 70 97 58 62 46 52 FD BRS
7.2069996 1 D4x Rx d 8 39 04 06 04 20 3D E0 84 FD BRS
11.5760993 1 DBx Rx d 14 39 0E 00 20 DA 3D 9F 2E 78 82 83 1A 3F 26 FD BRS
16.5672990 1 DBx Rx d 13 39 0F 00 15 B9 E4 A0 20 FF FF 7F CF FF FD BRS
16.9544990 1 E3x Rx d 9 41 00 05 08 00 80 03 43 D1 FD BRS
19.1519989 1 D9x Rx d 13 39 13 00 15 F0 05 4A 0B A0 79 0D C9 0F FD BRS
20.5771988 1 DCx Rx d 13 39 10 00 16 0A E1 49 0E A2 21 00 23 D4 FD BRS
26.6863984 1 2Dx Rx d 14 D7 FA 57 04 C4 09 00 90 70 97 58 62 46 52 FD BRS
30.5596982 1 18E19490x Rx d 15 02 84 00 64 64 64 01 00 07 27 57 02 03 00 00 FD BRS
31.5847981 1 DBx Rx d 15 39 0E 01 0F FC 35 FF FF FF FF FF FF FF BF D4 FD BRS
32.2459981 1 D4x Rx d 14 39 04 0C 05 0E 0F F4 FF FF 39 15 01 14 45 FD BRS
32.7753981 1 E3x Rx d 12 39 04 22 08 00 3D 87 7E 78 0F FA FF FD BRS
36.6654978 1 DBx Rx d 13 39 0F 00 15 5B F4 A1 20 FF FF 7F CF FF FD BRS
39.1399977 1 D9x Rx d 13 39 13 00 15 D3 DB 4B 0B A0 78 8D C9 0F FD BRS
40.5841976 1 DCx Rx d 14 39 10 01 10 55 44 3F 00 58 10 D9 06 E9 9C FD BRS
46.7543972 1 2Dx Rx d 14 72 8D 58 04 C4 09 00 90 70 97 58 62 46 52 FD BRS
5.1802997 1 2Dx Rx d 14 03 A7 42 04 C4 09 00 90 70 97 58 62 46 52 FD BRS
5.6985997 1 D4x Rx d 8 39 04 06 04 FB 5E DC 84 FD BRS
9.1248995 1 18E19490x Rx d 15 03 68 06 C6 16 6A D2 10 0E 10 0E 1E 00 F7 00 FD BRS
10.0199994 1 DBx Rx d 14 39 0E 00 20 88 C6 8B 2E 78 82 83 1A 3F 26 FD BRS
15.1061991 1 E3x Rx d 9 41 00 05 08 00 80 03 43 D1 FD BRS
15.3003991 1 DBx Rx d 13 39 0F 00 15 23 1C 8C 20 FF FF 7F CF FF FD BRS
17.6057990 1 D9x Rx d 13 39 13 00 15 AE 55 36 0B A0 78 8D C9 0F FD BRS
19.1299989 1 DCx Rx d 13 39 10 00 16 6B 99 35 0E A2 21 00 23 D4 FD BRS
25.1691985 1 2Dx Rx d 14 5B 4F 43 04 C4 09 00 90 70 97 58 62 46 52 FD BRS
29.0134983 1 DCx Rx d 9 39 FE 6F 08 94 01 00 80 03 FD BRS
30.1875982 1 DBx Rx d 15 39 0E 01 0F 00 36 FF FF FF FF FF FF FF BF D4 FD BRS
30.8457982 1 D4x Rx d 14 39 04 0C 05 0E 0F F4 FF FF 39 15 01 14 45 FD BRS
31.3750981 1 E3x Rx d 12 39 04 22 08 00 3D 87 7E 78 0F FA FF FD BRS
35.1612979 1 DBx Rx d 13 39 0F 00 15 C1 0C 8D 20 FF FF 7F CF FF FD BRS
37.6546978 1 D9x Rx d 13 39 13 00 15 39 46 37 0B A0 78 8D C8 0F FD BRS
39.0348977 1 DCx Rx d 14 39 10 01 10 55 44 3F 00 58 10 B9 12 E9 9C FD BRS
39.5481977 1 18E19490x Rx d 15 04 56 01 56 01 0F 00 2A 30 EB 0C 7C 0D 22 01 FD BRS
45.2424973 1 2Dx Rx d 14 06 70 44 04 C4 09 00 90 70 97 58 62 46 52 FD BRS
3.3337998 1 18E19490x Rx d 15 04 55 01 57 01 0F 00 34 30 ED 0C 7C 0D 22 01 FD BRS
4.3659997 1 DBx Rx d 14 39 0E 00 20 91 33 76 2E 78 82 83 1A 3F 26 FD BRS
9.4901994 1 DBx Rx d 13 39 0F 00 15 1A 00 77 20 FF FF 7F CF FF FD BRS
11.8365993 1 D9x Rx d 13 39 13 00 15 01 39 21 0B A0 78 8D C9 0F FD BRS
13.3237992 1 DCx Rx d 13 39 10 00 16 97 92 20 0E A2 21 00 23 D4 FD BRS
19.5280988 1 2Dx Rx d 14 83 7E 2E 04 C4 09 00 90 70 97 58 62 46 52 FD BRS
20.0473988 1 D4x Rx d 8 39 04 06 04 0A 94 D8 84 FD BRS
24.3774986 1 DBx Rx d 14 39 0E 00 20 2D 92 77 2E 68 82 83 1A 3F 26 FD BRS
24.9086985 1 18E06188x Rx d 8 03 22 02 04 AA AA AA AA FD BRS
29.4167983 1 DBx Rx d 13 39 0F 00 15 A4 F5 78 20 FF FF 7F CF FF FD BRS
29.8029982 1 E3x Rx d 9 41 00 05 08 00 80 03 43 D1 FD BRS
31.8933981 1 D9x Rx d 13 39 13 00 15 57 E7 22 0B A0 78 4D C9 0F FD BRS
33.3195980 1 DCx Rx d 13 39 10 00 16 B3 3A 21 0E A2 21 00 23 D4 FD BRS
33.6999980 1 18E19490x Rx d 15 00 00 00 01 55 55 55 55 05 68 06 D8 03 00 00 FD BRS
39.5231977 1 2Dx Rx d 14 DB 96 2F 04 C4 09 00 90 70 97 58 62 46 52 FD BRS
44.4372974 1 DBx Rx d 15 39 0E 01 0F FC 35 FF FF FF FF FF FF FF BF D4 FD BRS
45.0984973 1 D4x Rx d 14 39 04 0C 05 0E 0F F4 FF FF 39 15 01 14 45 FD BRS
45.6276973 1 E3x Rx d 12 39 04 22 08 00 3D 87 7E 78 0F FA FF FD BRS
45.9309973 1 18E06180x Rx d 8 03 7F 22 78 FF FF FF FF FD BRS
49.5482971 1 DBx Rx d 13 39 0F 00 15 46 E5 79 20 FF FF 7F CF FF FD BRS
3.4625998 1 2Dx Rx d 14 12 7C 17 04 C4 09 00 90 70 97 58 62 46 52 FD BRS
8.3166995 1 DBx Rx d 14 39 0F 01 06 4E 85 04 60 E0 13 39 0E 00 20 FD BRS
13.3579992 1 DBx Rx d 13 39 0F 00 15 57 7C 61 20 FF FF 7F CF FF FD BRS
16.7344990 1 D9x Rx d 13 39 13 00 15 72 FA 0B 0B A0 78 CD C8 0F FD BRS
17.2016990 1 DCx Rx d 13 39 10 00 16 07 A8 0A 0E A2 01 00 23 D4 FD BRS
18.6908989 1 E3x Rx d 8 3A 02 00 04 F9 FF FF FF FD BRS
23.3732986 1 2Dx Rx d 14 F0 EA 18 04 C4 09 00 90 70 97 58 62 46 52 FD BRS
23.8925986 1 D4x Rx d 10 39 0C 14 0C FF FF FF FF FD FF FD BRS
27.2498984 1 18E19490x Rx d 15 00 00 00 01 55 55 55 55 05 68 06 D8 03 00 00 FD BRS
28.2359983 1 DBx Rx d 14 39 0E 00 20 25 C2 61 2E 68 82 83 1A 3F 26 FD BRS
33.3261980 1 E3x Rx d 9 39 06 0B 08 00 11 11 18 00 FD BRS
33.5213980 1 DBx Rx d 13 39 0F 00 15 71 4D 62 20 FF FF 7F CF FF FD BRS
35.7627979 1 D9x Rx d 14 39 13 01 0B 59 BA 38 55 95 00 FE 03 BA FF FD BRS
37.2259978 1 DCx Rx d 13 39 10 00 16 23 00 0B 0E A2 01 00 23 D4 FD BRS
38.6571977 1 E3x Rx d 12 00 80 00 04 8E 8F 99 02 05 00 00 0C FD BRS
43.3625974 1 2Dx Rx d 14 EF E3 19 04 C4 09 00 90 70 97 58 62 46 52 FD BRS
48.2356971 1 DBx Rx d 14 39 0E 00 20 C3 C8 62 2E 78 82 83 1A 3F 26 FD BRS
4.1943998 1 DBx Rx d 14 39 0E 00 20 D3 34 48 2E 78 82 83 1A 3F 26 FD BRS
9.0746995 1 21Cx Rx d 15 11 02 01 04 00 00 01 F4 03 E8 05 DC 07 D0 09 FD BRS
9.7617994 1 E3x Rx d 9 39 06 0B 08 00 11 11 18 00 FD BRS
9.9569994 1 DBx Rx d 13 39 0F 00 15 45 C7 49 20 FF FF 7F CF FF FD BRS
10.3421994 1 21Dx Rx d 3 30 40 28 FD BRS
10.4952994 1 21Cx Rx d 15 21 00 00 00 00 00 00 00 00 00 00 00 00 00 00 FD BRS
11.8316993 1 D9x Rx d 14 39 13 01 0B 59 BA 38 55 95 00 FE 03 BA FF FD BRS
13.0088992 1 DCx Rx d 13 39 10 00 16 C5 58 F2 0E A2 01 00 23 D4 FD BRS
14.5980991 1 E3x Rx d 8 00 80 00 04 08 B6 94 02 FD BRS
19.3294989 1 2Dx Rx d 14 BF D2 00 04 C4 09 00 90 70 97 58 62 46 52 FD BRS
23.0826986 1 18E19490x Rx d 15 04 55 01 56 01 0F 00 3E 30 EB 0C 7C 0D 22 01 FD BRS
24.1938986 1 DBx Rx d 14 39 0E 00 20 47 10 49 2E 78 82 83 1A 3F 26 FD BRS
29.3141983 1 DBx Rx d 13 39 0F 00 15 63 F6 4A 20 FF FF 7F CF FF FD BRS
29.7013982 1 E3x Rx d 10 32 04 00 0C A0 5B 66 53 67 07 FD BRS
31.6047981 1 D9x Rx d 13 39 13 00 15 C3 A5 F4 0B A0 78 CD C8 0F FD BRS
33.0709980 1 DCx Rx d 13 39 10 00 16 E1 F0 F3 0E A2 01 00 23 D4 FD BRS
34.2781980 1 21Cx Rx d 15 22 00 00 00 00 00 00 00 00 00 00 00 00 00 00 FD BRS
39.3503977 1 2Dx Rx d 14 A0 DB 01 04 C4 09 00 90 70 97 58 62 46 52 FD BRS
39.8716976 1 D4x Rx d 8 39 04 06 04 80 DE CF 84 FD BRS
44.2117974 1 DBx Rx d 14 39 FE 0B 08 61 00 00 40 01 00 00 00 39 0E FD BRS
49.2710971 1 E3x Rx d 9 41 00 05 08 00 80 03 43 D1 FD BRS
49.4661971 1 DBx Rx d 13 39 0F 00 15 81 E6 4B 20 FF FF 7F CF FF FD BRS
0.6761000 1 DBx Rx d 14 39 0E 00 20 9A 3B 30 2E 68 82 83 1A 3F 26 FD BRS
5.7943997 1 DBx Rx d 13 39 0F 00 15 52 1A 31 20 FF FF 7F CF FF FD BRS
8.0297995 1 D9x Rx d 13 39 13 00 15 DA 35 DB 0B A0 78 8D C9 0F FD BRS
9.4979994 1 DCx Rx d 13 39 10 00 16 A0 FE DA 0E A2 01 00 25 D4 FD BRS
10.7110994 1 DC085D Rx d 8 40 03 00 00 00 00 00 00
15.8273991 1 2Dx Rx d 14 47 E0 E8 04 C4 09 00 90 70 97 58 62 46 52 FD BRS
16.3486990 1 D4x Rx d 8 39 04 06 04 C5 62 CA 84 FD BRS
19.5659988 1 18E19490x Rx d 15 03 68 06 BE 16 31 D2 10 0E 10 0E 1E 00 F2 00 FD BRS
20.6861988 1 DBx Rx d 14 39 0E 00 20 0E 1F 31 2E 68 82 83 1A 3F 26 FD BRS
25.7823985 1 E3x Rx d 12 41 00 05 08 00 80 03 43 D1 96 AE D8 FD BRS
26.0864985 1 DBx Rx d 13 39 0F 00 15 74 2B 32 20 FF FF 7F CF FF FD BRS
28.1358983 1 D9x Rx d 13 39 13 00 15 D4 F2 DC 0B A0 78 0D C9 0F FD BRS
29.6440982 1 DCx Rx d 13 39 10 00 16 70 A7 DB 0E A2 01 00 23 D4 FD BRS
35.7843979 1 D4x Rx d 14 39 04 0C 05 0E 0F F4 FF FF 39 0C 16 08 FF FD BRS
36.3086978 1 2Dx Rx d 14 58 E9 E9 04 C4 09 00 90 70 97 58 62 46 52 FD BRS
36.8280978 1 D4x Rx d 15 39 0C 08 3C FE 74 03 80 00 00 08 6C 96 38 28 FD BRS
40.8491976 1 DBx Rx d 15 39 0E 01 0F 0C 36 FF FF FF FF FF FF FF BF D4 FD BRS
41.5063975 1 E3x Rx d 12 39 04 22 08 00 3D 87 7E 78 1F FA FF FD BRS
45.8094973 1 DBx Rx d 13 39 0F 00 15 96 3B 33 20 FF FF 7F CF FF FD BRS
48.1288971 1 D9x Rx d 13 39 13 00 15 36 E2 DD 0B A0 78 0D C9 0F FD BRS
49.5140971 1 DCx Rx d 14 39 10 01 10 55 44 3F 32 58 10 29 52 E9 9C FD BRS
1.7165999 1 D9x Rx d 13 39 13 00 15 21 31 BF 0B A0 78 8D C8 0F FD BRS
3.0327998 1 DCx Rx d 14 39 10 01 10 55 44 3F 00 58 10 F9 46 E9 9C FD BRS
3.5501998 1 18E19490x Rx d 15 04 54 01 58 01 10 00 3E 30 EB 0C 7C 0D 22 01 FD BRS
9.5223994 1 2Dx Rx d 14 FA F7 CC 04 C4 09 00 90 70 97 58 62 46 52 FD BRS
14.3265991 1 DBx Rx d 14 39 0E 00 20 00 38 15 2E 78 82 83 1A 3F 26 FD BRS
19.4207988 1 DBx Rx d 13 39 0F 00 15 FE 54 16 20 FF FF 7F CF FF FD BRS
22.6842987 1 D9x Rx d 13 39 13 00 15 4D 28 C0 0B A0 78 0D C9 0F FD BRS
23.0624986 1 DCx Rx d 13 39 10 00 16 9E ED BF 0E A2 01 00 23 D4 FD BRS
29.4277983 1 2Dx Rx d 14 E5 FE CD 04 C4 09 00 90 70 97 58 62 46 52 FD BRS
29.9470982 1 D4x Rx d 10 39 0C 14 0C FF FF FF FF FD FF FD BRS
33.0722980 1 18E19490x Rx d 15 00 00 00 01 55 55 55 55 05 68 06 D8 03 00 00 FD BRS
34.3044980 1 DBx Rx d 14 39 0E 00 20 BC 55 16 2E 78 82 83 1A 3F 26 FD BRS
39.2507977 1 21Cx Rx d 15 11 02 01 03 75 74 79 5C 7C 7C 7F 38 83 20 87 FD BRS
39.9389976 1 E3x Rx d 9 39 06 0B 08 00 11 11 18 00 FD BRS
40.1800976 1 DBx Rx d 13 39 0F 00 15 1C 44 17 20 FF FF 7F CF FF FD BRS
41.7584975 1 D9x Rx d 14 39 13 01 0B 59 BA 38 55 95 00 FE 03 BA FF FD BRS
43.0896974 1 DCx Rx d 13 39 10 00 16 B2 7D C0 0E A2 01 00 23 D4 FD BRS
44.7048973 1 E3x Rx d 8 00 80 00 04 F5 0F 8A 02 FD BRS
49.4202971 1 2Dx Rx d 14 C4 E5 CE 04 C4 09 00 90 70 97 58 62 46 52 FD BRS
4.1667998 1 DBx Rx d 14 39 0F 01 06 4E 85 04 60 50 1D 39 0E 00 20 FD BRS
9.2550995 1 DBx Rx d 13 39 0F 00 15 C6 56 FD 20 FF FF 7F CF FF FD BRS
12.4875993 1 D9x Rx d 13 39 13 00 15 45 AB A7 0B A0 78 8D C9 0F FD BRS
12.8626992 1 0 Rx d 0 
13.2450992 1 18E19490x Rx d 15 03 68 06 C6 16 58 D2 10 0E 12 0E 1E 00 04 01 FD BRS
14.5872991 1 E3x Rx d 8 3A 02 00 04 F9 FF FF FF FD BRS
19.2556989 1 2Dx Rx d 14 B1 7A B4 04 C4 09 00 90 70 97 58 62 46 52 FD BRS
19.7729988 1 D4x Rx d 10 39 0C 14 0C FF FF FF FF FD FF FD BRS
24.1380986 1 DBx Rx d 14 39 0E 00 20 DF 12 FD 2E 78 82 83 1A 3F 26 FD BRS
29.2062983 1 E3x Rx d 9 39 06 0B 08 00 11 11 18 00 FD BRS
29.4014983 1 DBx Rx d 13 39 0F 00 15 E0 67 FE 20 FF FF 7F CF FF FD BRS
31.5108981 1 D9x Rx d 14 39 13 01 0B 59 BA 38 55 95 00 FE 03 BA FF FD BRS
32.8280981 1 DCx Rx d 13 39 08 00 0B 08 EF D3 87 51 00 80 11 EA FD BRS
34.4612980 1 E3x Rx d 12 00 80 00 04 1B DB 85 02 05 00 00 0C FD BRS
39.2485977 1 2Dx Rx d 14 AE 73 B5 04 C4 09 00 90 70 97 58 62 46 52 FD BRS
42.8678975 1 1C72CA48 Rx d 7 2E 42 49 93 25 96 59
44.1879974 1 DBx Rx d 14 39 0E 00 20 39 18 FE 2E 68 82 83 1A 3F 26 FD BRS
49.2532971 1 DBx Rx d 13 39 0F 00 15 02 77 FF 20 FF FF 7F CF FF FD BRS
0.2954000 1 D9x Rx d 13 39 13 00 15 33 84 8D 0B A0 78 0D C9 0F FD BRS
1.6335999 1 DCx Rx d 14 39 10 01 10 55 44 3F 00 58 10 A9 02 E8 9C FD BRS
8.1847995 1 2Dx Rx d 14 CA 37 9A 04 C4 09 00 90 70 97 58 62 46 52 FD BRS
11.7189993 1 18E19490x Rx d 15 01 E7 01 75 0D 98 01 80 0C ED 00 BC 02 06 06 FD BRS
12.9931992 1 DBx Rx d 14 39 0E 00 20 C3 A0 E3 2E 68 82 83 1A 3F 26 FD BRS
18.0894989 1 DBx Rx d 13 39 0F 00 15 35 DF E4 20 FF FF 7F CF FF FD BRS
21.6229987 1 D9x Rx d 13 39 13 00 15 10 59 8E 0B A0 78 CD C8 0F FD BRS
22.0001987 1 6E Rx d 11 A4 93 92 C8 94 97 9C 92
28.0813983 1 2Dx Rx d 14 92 DF 9B 04 C4 09 00 90 70 97 58 62 46 52 FD BRS
28.6027983 1 D4x Rx d 10 39 0C 14 0C FF FF FF FF FD FF FD BRS
32.9738980 1 DBx Rx d 14 39 0E 00 20 C8 6B E4 2E 78 82 83 1A 3F 26 FD BRS
37.9191977 1 21Cx Rx d 15 11 02 01 03 75 74 79 5C 7C 7C 7F 38 83 20 87 FD BRS
38.6073977 1 E3x Rx d 9 39 06 0B 08 00 11 11 18 00 FD BRS
38.8484977 1 DBx Rx d 13 39 0F 00 15 D7 CF E5 20 FF FF 7F CF FF FD BRS
40.3678976 1 D9x Rx d 14 39 13 01 0B 59 BA 38 55 95 00 FE 03 BA FF FD BRS
41.5780975 1 DCx Rx d 13 39 10 00 16 A4 20 8E 0E A2 01 00 23 D4 FD BRS
41.9603975 1 18E1CA48 Rx d 7 
43.2825974 1 E3x Rx d 8 00 80 00 04 5E 67 80 02 FD BRS
48.0819971 1 2Dx Rx d 14 88 01 9C 04 C4 09 00 90 70 97 58 62 46 52 FD BRS
2.9154998 1 DBx Rx d 13 39 0F 00 15 C5 74 CD 20 FF FF 7F CF FF FD BRS
5.0068997 1 D9x Rx d 13 39 13 00 15 ED 64 77 0B A0 78 CD C8 0F FD BRS
6.3290996 1 DCx Rx d 13 39 10 00 16 0E FD 76 0E A2 21 00 23 D4 FD BRS
6.7123996 1 18E19490x Rx d 15 01 EA 01 75 0D 99 01 80 0C ED 00 BC 02 06 06 FD BRS
7.8345995 1 DC085D Rx d 8 40 03 00 00 00 00 00 00
12.9307992 1 2Dx Rx d 14 C7 39 84 04 C4 09 00 90 70 97 58 62 46 52 FD BRS
13.4491992 1 D4x Rx d 8 39 04 06 04 82 6F B6 84 FD BRS
17.8602989 1 DBx Rx d 14 39 0E 00 20 AB 4B CD 2E 78 82 83 1A 3F 26 FD BRS
22.8774986 1 E3x Rx d 9 41 00 05 08 00 80 03 43 D1 FD BRS
23.0725986 1 DBx Rx d 13 39 0F 00 15 E3 45 CE 20 FF FF 7F CF FF FD BRS
25.1020985 1 D9x Rx d 13 39 13 00 15 86 27 78 0B A0 78 4D C9 0F FD BRS
26.4152984 1 DCx Rx d 13 39 10 00 16 2A 55 77 0E A2 21 00 23 D4 FD BRS
32.9024980 1 D4x Rx d 14 39 04 0C 05 0E 0F F4 FF FF 39 0C 16 08 FF FD BRS
33.4268980 1 2Dx Rx d 14 D8 30 85 04 C4 09 00 90 70 97 58 62 46 52 FD BRS
33.9481980 1 D4x Rx d 15 39 0C 08 3C FE 74 03 80 00 00 08 6C 96 38 27 FD BRS
36.3653978 1 18E19490x Rx d 15 02 84 00 64 64 64 01 00 06 27 56 02 02 00 00 FD BRS
37.9714977 1 DBx Rx d 15 39 0E 01 0F 14 36 FF FF FF FF FF FF FF BF D4 FD BRS
38.6296977 1 E3x Rx d 12 39 04 22 08 00 3D 87 7E 78 1F FA FF FD BRS
42.9327975 1 DBx Rx d 13 39 0F 00 15 01 55 CF 20 FF FF 7F CF FF FD BRS
45.0882973 1 D9x Rx d 13 39 13 00 15 64 37 79 0B A0 78 4D C9 0F FD BRS
46.4484972 1 DCx Rx d 14 39 10 01 10 55 44 3F 2D 58 10 89 46 E9 9C FD BRS
0.0366000 1 DCx Rx d 13 39 10 00 16 D2 42 5D 0E A2 21 00 23 D4 FD BRS
6.5317996 1 2Dx Rx d 14 62 34 6B 04 C4 09 00 90 70 97 58 62 46 52 FD BRS
7.0501996 1 D4x Rx d 8 39 04 06 04 AF 3E B1 84 FD BRS
11.4242993 1 DBx Rx d 14 39 FE 0B 08 61 00 00 40 01 00 00 00 39 0E FD BRS
16.4714990 1 E3x Rx d 9 41 00 05 08 00 80 03 43 D1 FD BRS
16.6656990 1 DBx Rx d 13 39 0F 00 15 D2 A9 B5 20 FF FF 7F CF FF FD BRS
18.6700989 1 D9x Rx d 13 39 13 00 15 32 F1 5F 0B A0 77 4D C8 0F FD BRS
20.0302988 1 DCx Rx d 13 39 10 00 16 9F AA 5E 0E A2 21 00 23 D4 FD BRS
20.4115988 1 18E19490x Rx d 15 00 00 00 01 55 55 55 55 05 69 06 D8 03 00 00 FD BRS
26.1536984 1 DBx Rx d 14 39 0E 02 2A 3E 00 44 00 65 0A 54 C2 20 0C FD BRS
26.6638984 1 2Dx Rx d 14 78 EA 6C 04 C4 09 00 90 70 97 58 62 46 52 FD BRS
27.1812984 1 E3x Rx d 13 39 80 00 0C 00 7F B0 8F 10 30 B0 FE B9 FD BRS
31.6793981 1 DBx Rx d 13 39 0E 01 0F 18 36 FF FF FF FF FF FF FF FD BRS
32.0585981 1 D4x Rx d 9 39 04 0C 05 0E 0F F4 FF FF FD BRS
36.4796978 1 DBx Rx d 15 39 0E 00 20 2D F5 B5 2E 68 82 83 1A 3F 26 80 FD BRS
37.1348978 1 E3x Rx d 9 41 00 05 08 01 6E 28 CD A2 FD BRS
38.7162977 1 D9x Rx d 13 39 13 00 15 42 08 60 0B A0 78 CD C8 0F FD BRS
39.9724976 1 DCx Rx d 14 39 10 01 10 55 44 3F 30 58 10 61 06 E9 9C FD BRS
40.9176976 1 44 Rx d 0 
41.9480975 1 21Dx Rx d 3 30 01 28 FD BRS
42.1052975 1 21Cx Rx d 15 23 00 9F 00 62 00 44 00 39 00 33 00 2F 04 FE FD BRS
42.7954975 1 21Dx Rx d 3 30 01 28 FD BRS
42.9445975 1 21Cx Rx d 8 24 00 00 00 00 00 00 00 FD BRS
46.2258973 1 DBx Rx d 13 39 0E 04 10 5C E3 0B 4C 24 B4 DB FF 5F FD BRS
46.6320972 1 2Dx Rx d 14 67 E3 6D 04 C4 09 00 90 70 97 58 62 46 52 FD BRS
0.1999000 1 D4x Rx d 14 39 04 0C 05 0E 0F F4 FF FF 39 0C 16 08 FF FD BRS
0.7243000 1 2Dx Rx d 14 EC 3F 53 04 C4 09 00 90 70 97 58 62 46 52 FD BRS
1.2425999 1 D4x Rx d 15 39 0C 08 3C FE 74 03 80 00 00 08 6C 96 B8 26 FD BRS
5.3276997 1 DBx Rx d 15 39 0E 01 0F 0C 36 FF FF FF FF FF FF FF BF D4 FD BRS
5.9868996 1 E3x Rx d 12 39 04 22 08 00 3D 87 7E 78 1F FA FF FD BRS
10.2349994 1 DBx Rx d 13 39 0F 00 15 C0 12 9D 20 FF FF 7F CF FF FD BRS
12.3223993 1 D9x Rx d 13 39 13 00 15 26 84 47 0B A0 77 8D C9 0F FD BRS
13.5435992 1 DCx Rx d 14 39 10 01 10 55 44 3F 39 58 10 39 46 E9 9C FD BRS
14.0589992 1 18E19490x Rx d 15 04 56 01 56 01 0F 00 34 30 E8 0C 7C 0D 22 01 FD BRS
20.3021988 1 2Dx Rx d 14 F6 E1 54 04 C4 09 00 90 70 97 58 62 46 52 FD BRS
25.1222985 1 DBx Rx d 14 39 0E 00 20 4F 27 9D 2E 78 82 83 1A 3F 26 FD BRS
30.2194982 1 DBx Rx d 13 39 0F 00 15 E6 23 9E 20 FF FF 7F CF FF FD BRS
33.3009980 1 D9x Rx d 13 39 13 00 15 38 C4 48 0B A0 77 0D C9 0F FD BRS
33.6771980 1 DCx Rx d 13 39 10 00 16 34 30 47 0E A2 21 00 23 D4 FD BRS
40.2093976 1 2Dx Rx d 14 AE 09 55 04 C4 09 00 90 70 97 58 62 46 52 FD BRS
40.7277976 1 D4x Rx d 10 39 0C 14 0C FF FF FF FF FD FF FD BRS
43.6049974 1 18E19490x Rx d 15 00 00 00 01 55 55 55 55 05 68 06 D8 03 00 00 FD BRS
45.1021973 1 DBx Rx d 14 39 0E 00 20 4E 19 9E 2E 78 82 83 1A 3F 26 FD BRS
0.0079000 1 DBx Rx d 13 39 0E 01 0F 14 36 FF FF FF FF FF FF FF FD BRS
0.3850000 1 D4x Rx d 9 39 04 0C 05 0E 0F F4 FF FF FD BRS
0.5842000 1 21Cx Rx d 15 23 00 9F 00 62 00 44 00 39 00 33 00 2F 04 FE FD BRS
4.8063997 1 DBx Rx d 11 CE 43 80 08 02 7C A0 CB 9E 20 A0 FD BRS ESI
5.4617997 1 E3x Rx d 9 41 00 05 08 01 76 5F 31 53 FD BRS
6.9871996 1 D9x Rx d 13 39 13 00 15 CA CF 2E 0B A0 78 8D C8 0F FD BRS
8.2853995 1 DCx Rx d 14 39 10 01 10 55 44 3F 30 58 10 11 16 E9 9C FD BRS
9.2445995 1 44 Rx d 1 04
14.6566991 1 DBx Rx d 13 39 0E 04 10 5C E3 0B 4C 24 B4 DB FF 6F FD BRS
15.0288991 1 2Dx Rx d 14 57 23 3B 04 C4 09 00 90 70 97 58 62 46 52 FD BRS
19.7549988 1 DBx Rx d 14 39 0E 00 20 6C 2F 42 17 3C 41 41 8D 1F 93 FD BRS
24.8502985 1 DBx Rx d 13 39 0F 00 15 D1 8B 85 20 FF FF 7F CF FF FD BRS
27.8757983 1 D9x Rx d 13 39 13 00 15 FD 69 2F 0B A0 78 0D C9 0F FD BRS
28.2518983 1 DCx Rx d 13 39 10 00 16 A9 43 2E 0E A2 21 00 23 D4 FD BRS
28.6342983 1 18E19490x Rx d 15 03 68 06 C6 16 3F D2 10 0E 12 0E 1E 00 F6 00 FD BRS
29.7893982 1 21Cx Rx d 2 09 00 FD BRS ESI
35.3569979 1 D4x Rx d 10 39 0C 14 0C FF FF FF FF FD FF FD BRS
39.7361976 1 DBx Rx d 14 39 0E 00 20 CC 7A 85 2E 78 82 83 1A 3F 26 FD BRS
44.7883973 1 E3x Rx d 9 39 06 0B 08 00 11 11 18 00 FD BRS
44.9834973 1 DBx Rx d 13 39 0F 00 15 F7 BA 86 20 FF FF 7F CF FF FD BRS
47.0998972 1 D9x Rx d 14 39 13 01 0B 59 BA 38 55 95 00 FE 03 BA FF FD BRS
48.1590971 1 DCx Rx d 13 39 10 00 16 8D EB 2F 0E A2 21 00 23 D4 FD BRS
1.2306999 1 2Dx Rx d 14 FA 8D 2C 04 C4 09 00 90 70 97 58 62 46 52 FD BRS
6.0647996 1 DBx Rx d 14 39 0E 00 20 90 0D 75 2E 78 82 83 1A 3F 26 FD BRS
1.4929999 1 2Dx Rx d 14 EF E3 19 04 C4 09 00 90 70 97 58 62 46 52 FD BRS
2.0143999 1 D4x Rx d 10 39 0C 14 0C FF FF FF FF FD FF FD BRS
4.5995997 1 DC08E2 Rx d 8 40 02 00 00 00 00 00 00
4.8899997 1 18E19490x Rx d 15 00 00 00 01 55 55 55 55 05 68 06 D8 03 00 00 FD BRS
6.3940996 1 DBx Rx d 14 39 0E 00 20 C3 C8 62 2E 78 82 83 1A 3F 26 FD BRS
11.4233993 1 E3x Rx d 9 39 06 0B 08 00 11 11 18 00 FD BRS
11.6184993 1 DBx Rx d 13 39 0F 00 15 93 5D 63 20 FF FF 7F CF FF FD BRS
13.5388992 1 D9x Rx d 14 39 13 01 0B 59 BA 38 55 95 00 FE 03 BA FF FD BRS
14.7880991 1 DCx Rx d 13 39 10 00 16 D4 45 0C 0E A2 21 00 23 D4 FD BRS
16.6702990 1 E3x Rx d 8 00 80 00 04 2D C4 66 02 FD BRS
3.3102998 1 DBx Rx d 14 39 0E 00 20 9F 14 52 2E 68 82 83 1A 3F 26 FD BRS
8.4835995 1 DBx Rx d 13 39 0F 00 15 90 7F 53 20 FF FF 7F CF FF FD BRS
11.2789993 1 D9x Rx d 13 39 13 00 15 34 DE FD 0B A0 78 0D C9 0F FD BRS
11.6871993 1 DCx Rx d 13 39 10 00 16 93 A4 FC 0E A2 21 00 23 D4 FD BRS
18.3824989 1 2Dx Rx d 14 3E 69 0A 04 C4 09 00 90 70 97 58 62 46 52 FD BRS
18.9028989 1 D4x Rx d 10 39 0C 14 0C FF FF FF FF FD FF FD BRS
21.6240987 1 18E19490x Rx d 15 00 00 00 01 55 55 55 55 05 69 06 D8 03 00 00 FD BRS
23.2921986 1 DBx Rx d 14 39 0E 00 20 0B 30 53 2E 68 82 83 1A 3F 26 FD BRS
28.3423983 1 E3x Rx d 9 39 06 0B 08 00 11 11 18 00 FD BRS
28.5375983 1 DBx Rx d 13 39 0F 00 15 3E 0D 54 20 FF FF 7F CF FF FD BRS
30.3859982 1 D9x Rx d 14 39 13 01 0B 59 BA 38 55 95 00 FE 03 BA FF FD BRS
31.7501981 1 DCx Rx d 13 39 10 00 16 B7 0C FD 0E A2 21 00 23 D4 FD BRS
33.5653980 1 E3x Rx d 12 00 80 00 04 68 78 63 02 05 00 00 0C FD BRS
38.3777977 1 2Dx Rx d 14 21 60 0B 04 C4 09 00 90 70 97 58 62 46 52 FD BRS
43.2908974 1 DBx Rx d 14 39 0E 00 20 5A 9C 54 2E 68 82 83 1A 3F 26 FD BRS
48.4840971 1 DBx Rx d 13 39 0F 00 15 DC 1D 55 20 FF FF 7F CF FF FD BRS
4.7052997 1 2Dx Rx d 14 B7 71 F8 04 C4 09 00 90 70 97 58 62 46 52 FD BRS
5.2255997 1 D4x Rx d 8 39 04 06 04 FE 17 9A 84 FD BRS
7.8658995 1 18E19490x Rx d 15 03 68 06 C3 16 5D D2 10 0E 12 0E 1E 00 F9 00 FD BRS
9.6519994 1 DBx Rx d 14 39 0E 00 20 7B 77 41 2E 78 82 83 1A 3F 26 FD BRS
14.6441991 1 E3x Rx d 9 41 00 05 08 00 80 03 43 D1 FD BRS
14.8403991 1 DBx Rx d 13 39 0F 00 15 73 71 42 20 FF FF 7F CF FF FD BRS
16.6787990 1 D9x Rx d 13 39 13 00 15 07 8A EC 0B A0 78 4D C9 0F FD BRS
18.0569989 1 DCx Rx d 13 39 10 00 16 06 EF EB 0E A2 21 00 23 D4 FD BRS
24.7001985 1 2Dx Rx d 14 A8 78 F9 04 C4 09 00 90 70 97 58 62 46 52 FD BRS
29.6602982 1 DBx Rx d 15 39 0E 01 0F FC 35 FF FF FF FF FF FF FF BF D4 FD BRS
30.3204982 1 D4x Rx d 14 39 04 0C 05 0E 0F F4 BB FF 9C 8A 80 8A 22 FD BRS
30.8498982 1 E3x Rx d 12 39 04 22 08 00 3D 87 7E 78 0F FA FF FD BRS
34.8119979 1 DBx Rx d 13 39 0F 00 15 91 61 43 20 FF FF 7F CF FF FD BRS
36.6653978 1 D9x Rx d 13 39 13 00 15 45 2F ED 0B A0 78 CD C9 0F FD BRS
37.9235977 1 DCx Rx d 14 39 10 01 10 55 44 3F 00 58 10 A9 02 E8 9C FD BRS
38.4398977 1 18E19490x Rx d 15 04 58 01 54 01 0F 00 2A 30 EA 0C 7C 0D 22 01 FD BRS
44.7781973 1 2Dx Rx d 14 89 63 FA 04 C4 09 00 90 70 97 58 62 46 52 FD BRS
0.4813000 1 DBx Rx d 14 39 0E 00 20 F5 99 2F 2E 68 82 83 1A 3F 26 FD BRS
5.6555997 1 DBx Rx d 13 39 0F 00 15 B0 0A 30 20 FF FF 7F CF FF FD BRS
8.4799995 1 D9x Rx d 13 39 13 00 15 4D 26 DA 0B A0 78 8D C8 0F FD BRS
8.8571995 1 DCx Rx d 13 39 10 00 16 71 CA D9 0E A2 21 00 23 D4 FD BRS
15.5493991 1 2Dx Rx d 14 E2 97 E7 04 C4 09 00 90 70 97 58 62 46 52 FD BRS
16.0697990 1 D4x Rx d 10 39 0C 14 0C FF FF FF FF FD FF FD BRS
18.5849989 1 DC08E2 Rx d 8 40 02 00 00 00 00 00 00
20.4611988 1 DBx Rx d 14 39 0E 00 20 A1 55 30 2E 68 82 83 1A 3F 25 FD BRS
25.4943985 1 E3x Rx d 9 39 06 0B 08 00 11 11 18 00 FD BRS
25.6894985 1 DBx Rx d 13 39 0F 00 15 52 1A 31 20 FF FF 7F CF FF FD BRS
27.5209984 1 D9x Rx d 14 39 13 01 0B 59 BA 38 55 95 00 FE 03 BA FF FD BRS
28.7161983 1 DCx Rx d 13 39 10 00 16 3C 22 DA 0E A2 21 00 23 D4 FD BRS
29.0974983 1 18E19490x Rx d 15 02 84 00 64 64 64 01 00 06 27 53 02 03 00 00 FD BRS
30.7786982 1 E3x Rx d 8 00 80 00 04 6F 80 5C 02 FD BRS
35.5450979 1 2Dx Rx d 14 47 E0 E8 04 C4 09 00 90 70 97 58 62 46 52 FD BRS
40.4751976 1 DBx Rx d 14 39 0E 00 20 0E 1F 31 2E 68 82 83 1A 3F 26 FD BRS
40.9933976 1 DC085B Rx d 8 40 03 08 04 00 00 00 00
45.6534973 1 DBx Rx d 13 39 0F 00 15 74 2B 32 20 FF FF 7F CF FF FD BRS
47.4098972 1 D9x Rx d 13 39 13 00 15 9B AD DC 0B A0 78 4D CA 0F FD BRS
48.7370971 1 DCx Rx d 13 39 10 00 16 EC 7B DB 0E A2 21 00 25 D4 FD BRS
5.5570997 1 2Dx Rx d 14 ED 27 D5 04 C4 09 00 90 70 97 58 62 46 52 FD BRS
6.0764996 1 D4x Rx d 8 39 04 06 04 89 E4 93 84 FD BRS
10.6215994 1 DBx Rx d 14 39 FE 0B 08 61 00 00 40 01 00 00 00 39 0E FD BRS
15.4757991 1 E3x Rx d 9 41 00 05 08 00 80 03 43 D1 FD BRS
15.6708991 1 DBx Rx d 13 39 0F 00 15 0C C3 1F 20 FF FF 7F CF FF FD BRS
16.0590990 1 21Dx Rx d 3 30 01 28 FD BRS
16.2142990 1 21Cx Rx d 15 23 00 00 00 00 00 00 00 00 00 00 00 00 00 00 FD BRS
16.9344990 1 21Dx Rx d 3 30 01 28 FD BRS
17.0775990 1 21Cx Rx d 8 24 00 00 00 00 00 00 00 FD BRS
17.5369990 1 D9x Rx d 13 39 13 00 15 F0 E0 C9 0B A0 78 4D CA 0F FD BRS
18.8040989 1 DCx Rx d 13 39 10 00 16 5F 41 C8 0E A2 21 00 23 D4 FD BRS
19.1874989 1 18E19490x Rx d 15 00 00 00 01 55 55 55 55 05 68 06 D8 03 00 00 FD BRS
25.1895985 1 DBx Rx d 14 39 0E 02 2A 3E 00 44 00 65 0A 54 82 20 08 FD BRS
25.7007985 1 2Dx Rx d 14 CC 3C D6 04 C4 09 00 90 70 97 58 62 46 52 FD BRS
26.2191984 1 E3x Rx d 13 39 80 00 0C 00 7F B2 8F 10 30 B0 FE 8D FD BRS
30.7132982 1 DBx Rx d 13 39 0E 01 0F 00 36 FF FF FF FF FF FF FF FD BRS
31.0924982 1 D4x Rx d 9 39 04 0C 05 0E 0F F4 FF FF FD BRS
35.4938979 1 E3x Rx d 9 41 00 05 08 01 EA ED 2A 84 FD BRS
35.6869979 1 DBx Rx d 15 39 0E 00 20 A9 45 1F 2E 78 82 83 1A 3F 26 80 FD BRS
37.4793978 1 D9x Rx d 13 39 13 00 15 39 3B CA 0B A0 78 8D C9 0F FD BRS
38.7535977 1 DCx Rx d 14 39 10 01 10 55 44 3F 30 58 10 71 46 E8 9C FD BRS
39.9557976 1 44 Rx d 1 04
40.7939976 1 18E06180x Rx d 13 00 17 62 02 06 00 95 00 82 00 82 19 99 FD BRS
45.3531973 1 DBx Rx d 13 39 0E 04 10 5C E3 0B 4C 24 B4 DB FF 6F FD BRS
45.7253973 1 2Dx Rx d 14 D3 35 D7 04 C4 09 00 90 70 97 58 62 46 52 FD BRS
48.7455971 1 18E19490x Rx d 15 01 E9 01 75 0D 98 01 80 0C ED 00 BC 02 06 06 FD BRS
0.3796000 1 DCx Rx d 13 39 10 00 16 56 14 B4 0E A2 01 00 23 D4 FD BRS
7.2408996 1 2Dx Rx d 14 40 89 C2 04 C4 09 00 90 70 97 58 62 46 52 FD BRS
7.7601995 1 D4x Rx d 12 39 FE 1D 08 59 40 B2 08 40 02 00 00 FD BRS
8.0685995 1 E3x Rx d 13 39 80 00 0C 00 7F B2 8F 10 30 B0 FE 65 FD BRS
10.2537994 1 18E19490x Rx d 15 02 84 00 64 64 64 01 00 07 27 56 02 02 00 00 FD BRS
12.2958993 1 DBx Rx d 15 39 0E 01 0F 00 36 FF FF FF FF FF FF FF BF D4 FD BRS
17.1921990 1 E3x Rx d 9 41 00 05 08 01 AD F1 8C 94 FD BRS
17.3852990 1 DBx Rx d 13 39 0F 00 15 2B EC 0C 20 FF FF 7F CF FF FD BRS
17.7724989 1 4Fx Rx d 8 20 13 0F A0 00 49 AA E0 FD BRS
19.1428989 1 D9x Rx d 13 39 13 00 15 D6 4A B6 0B A0 78 4D C9 0F FD BRS
20.4080988 1 DCx Rx d 14 39 10 01 10 55 44 3F 30 58 10 51 12 E9 9C FD BRS
21.6332987 1 44 Rx d 1 04
27.3196984 1 2Dx Rx d 14 5F 80 C3 04 C4 09 00 90 70 97 58 62 46 52 FD BRS
32.1687981 1 DBx Rx d 14 39 0F 01 06 4E 85 04 60 AC 1D 39 0E 00 20 FD BRS
37.3350978 1 DBx Rx d 13 39 0F 00 15 C9 FC 0D 20 FF FF 7F CF FF FD BRS
40.0945976 1 D9x Rx d 13 39 13 00 15 94 EF B7 0B A0 78 CD C9 0F FD BRS
40.4707976 1 DCx Rx d 13 39 10 00 16 CB A5 B6 0E A2 01 00 25 D4 FD BRS
40.8540976 1 18E19490x Rx d 15 03 68 06 C6 16 5F D2 10 0E 11 0E 1E 00 F1 00 FD BRS
47.2242972 1 2Dx Rx d 14 02 BF C4 04 C4 09 00 90 70 97 58 62 46 52 FD BRS
47.7436972 1 D4x Rx d 10 39 0C 14 0C FF FF FF FF FD FF FD BRS
5.7161997 1 2Dx Rx d 14 87 B1 AE 04 C4 09 00 90 70 97 58 62 46 52 FD BRS
10.3885994 1 E3x Rx d 15 39 04 22 08 00 3D C6 7E 78 2F FE FF 39 80 00 FD BRS
11.0346993 1 D4x Rx d 9 39 04 0C 05 0E 0F F4 FF FF FD BRS
11.2340993 1 DBx Rx d 15 39 0E 01 0F FC 35 FF FF FF FF FF FF FF BF D4 FD BRS
15.8203991 1 DBx Rx d 13 39 0F 00 15 AC 05 F8 20 FF FF 7F CF FF FD BRS
17.5346990 1 D9x Rx d 13 39 13 00 15 5F 17 A2 0B A0 78 4D C9 0F FD BRS
18.7999989 1 DCx Rx d 14 39 10 01 10 55 44 3F 32 58 10 31 46 E9 9C FD BRS
19.3162989 1 18E19490x Rx d 15 04 57 01 54 01 0F 00 34 30 EB 0C 7C 0D 22 01 FD BRS
20.0664988 1 44 Rx d 1 04
25.8328985 1 2Dx Rx d 14 98 B8 AF 04 C4 09 00 90 70 97 58 62 46 52 FD BRS
30.4659982 1 DBx Rx d 14 39 0F 01 06 4E 85 04 60 E8 1D 39 0E 00 20 FD BRS
30.9911982 1 E3x Rx d 9 41 00 01 08 04 C0 00 00 40 FD BRS
35.7882979 1 DBx Rx d 13 39 0F 00 15 4E 15 F9 20 FF FF 7F CF FF FD BRS
38.6056977 1 D9x Rx d 13 39 13 00 15 BD 07 A3 0B A0 78 4D C9 0F FD BRS
38.9838977 1 DCx Rx d 13 39 10 00 16 13 06 A2 0E A2 01 00 25 D4 FD BRS
45.6631973 1 2Dx Rx d 14 CD 5E B0 04 C4 09 00 90 70 97 58 62 46 52 FD BRS
46.1845973 1 D4x Rx d 10 39 0C 14 0C FF FF FF FF FD FF FD BRS
47.5098972 1 D9x Rx d 9 39 FE 28 08 29 00 00 00 00 FD BRS
48.6750971 1 18E19490x Rx d 15 00 00 00 01 55 55 55 55 05 68 06 D8 03 00 00 FD BRS
3.2273998 1 2Dx Rx d 14 CA 37 9A 04 C4 09 00 90 70 97 58 62 46 52 FD BRS
3.7457998 1 E3x Rx d 13 39 80 00 0C 00 7F 82 8F 10 30 B0 FE 15 FD BRS
8.2837995 1 DBx Rx d 15 39 0E 01 0F FC 35 FF FF FF FF FF FF FF BF D4 FD BRS
8.9459995 1 D4x Rx d 9 39 04 0C 05 0E 0F F4 FF FF FD BRS
9.1451995 1 18E06180x Rx d 8 03 7F 22 78 FF FF FF FF FD BRS
13.1783992 1 E3x Rx d 9 41 00 05 08 01 CA A1 A8 DB FD BRS
13.3725992 1 DBx Rx d 13 39 0F 00 15 35 DF E4 20 FF FF 7F CF FF FD BRS
15.1089991 1 D9x Rx d 13 39 13 00 15 23 10 8E 0B A0 78 8D C7 0F FD BRS
16.2740990 1 DCx Rx d 14 39 10 01 10 55 44 3F 30 58 10 11 16 E9 9C FD BRS
17.6363990 1 44 Rx d 1 04
23.3167986 1 2Dx Rx d 14 D5 3E 9B 04 C4 09 00 90 70 97 58 62 46 52 FD BRS
26.2389984 1 18E19490x Rx d 15 01 E9 01 75 0D 99 01 80 0C ED 00 BC 02 06 06 FD BRS
28.0460983 1 DBx Rx d 14 39 0F 01 06 4E 85 04 60 60 1E 39 0E 00 20 FD BRS
33.3703980 1 DBx Rx d 13 39 0F 00 15 D7 CF E5 20 FF FF 7F CF FF FD BRS
36.1107979 1 D9x Rx d 13 39 13 00 15 F2 49 8F 0B A0 78 CD C8 0F FD BRS
36.4879978 1 DCx Rx d 13 39 10 00 16 50 D1 8E 0E A2 01 00 25 D4 FD BRS
43.2121974 1 2Dx Rx d 14 88 01 9C 04 C4 09 00 90 70 97 58 62 46 52 FD BRS
43.7315974 1 D4x Rx d 10 39 0C 14 0C FF FF FF FF FD FF FD BRS
48.1386971 1 DBx Rx d 14 39 0E 00 20 06 28 E5 2E 68 82 83 1A 3F 26 FD BRS
1.3769999 1 DBx Rx d 14 39 0E 00 20 3F A3 CE 2E 68 82 83 1A 3F 26 FD BRS
6.5261996 1 E3x Rx d 9 41 00 05 08 00 80 03 43 D1 FD BRS
6.7213996 1 DBx Rx d 13 39 0F 00 15 01 55 CF 20 FF FF 7F CF FF FD BRS
8.4127995 1 D9x Rx d 13 39 13 00 15 C4 82 79 0B A0 78 CD C9 0F FD BRS
9.6149994 1 DCx Rx d 13 39 10 00 16 58 01 78 0E A2 01 00 23 D4 FD BRS
16.5981990 1 2Dx Rx d 14 BE CA 86 04 C4 09 00 90 70 97 58 62 46 52 FD BRS
17.1205990 1 E3x Rx d 13 39 80 00 0C 00 7F 82 8F 10 30 B0 FE ED FD BRS
19.4877988 1 18E19490x Rx d 15 02 84 00 64 64 64 01 00 04 27 50 02 02 00 00 FD BRS
21.6558987 1 DBx Rx d 15 39 0E 01 0F 08 36 FF FF FF FF FF FF FF BF D4 FD BRS
22.3160987 1 D4x Rx d 9 39 04 0C 05 0E 0F F4 FF FF FD BRS
26.5854984 1 E3x Rx d 9 41 00 05 08 01 32 C2 B9 BB FD BRS
26.7776984 1 DBx Rx d 13 39 0F 00 15 BE BE D0 20 FF FF 7F CF FF FD BRS
28.4159983 1 D9x Rx d 13 39 13 00 15 32 E9 7A 0B A0 78 8D C9 0F FD BRS
29.6371982 1 DCx Rx d 14 39 10 01 10 55 44 3F 00 58 10 F1 42 E9 9C FD BRS
30.9864982 1 44 Rx d 1 04
36.6827978 1 2Dx Rx d 14 A1 C3 87 04 C4 09 00 90 70 97 58 62 46 52 FD BRS
41.3948975 1 DBx Rx d 14 39 0F 01 06 4E 85 04 60 10 1F 39 0E 00 20 FD BRS
46.6801972 1 DBx Rx d 13 39 0F 00 15 5C AE D1 20 FF FF 7F CF FF FD BRS
49.0265971 1 D9x Rx d 13 39 13 00 15 70 4C 7B 0B A0 78 0D C9 0F FD BRS
49.5267971 1 DCx Rx d 13 39 10 00 16 31 41 7A 0E A2 01 00 23 D4 FD BRS
2.3741999 1 E3x Rx d 9 41 00 05 08 01 B8 FC D3 B1 FD BRS
2.6733998 1 DBx Rx d 15 39 0E 00 20 D4 1A BB 2E 68 82 83 1A 3F 26 80 FD BRS
4.2076998 1 D9x Rx d 13 39 13 00 15 7B 69 66 0B A0 78 CD C9 0F FD BRS
5.4088997 1 DCx Rx d 14 39 10 01 10 55 44 3F 00 58 10 D1 42 E9 9C FD BRS
5.9241996 1 18E19490x Rx d 15 04 53 01 56 01 0E 00 3E 30 ED 0C 7C 0D 22 01 FD BRS
6.8553996 1 44 Rx d 1 04
12.3834993 1 DBx Rx d 13 39 0E 04 10 5C E3 0B 4C 24 B4 DB FF 5F FD BRS
12.7566992 1 2Dx Rx d 14 6A ED 73 04 C4 09 00 90 70 97 58 62 46 52 FD BRS
17.2538990 1 DBx Rx d 14 39 0E 00 20 38 E5 BC 2E 68 82 83 1A 3F 26 FD BRS
22.4800987 1 DBx Rx d 13 39 0F 00 15 C2 2E BD 20 FF FF 7F CF FF FD BRS
24.8135985 1 D9x Rx d 13 39 13 00 15 39 CC 67 0B A0 78 4D C9 0F FD BRS
25.3907985 1 DCx Rx d 13 39 10 00 16 6C F3 66 0E A2 01 00 23 D4 FD BRS
27.3008984 1 21Cx Rx d 8 24 00 00 00 00 00 00 00 FD BRS
32.3980981 1 2Dx Rx d 14 37 D2 74 04 C4 09 00 90 70 97 58 62 46 52 FD BRS
32.9184980 1 D4x Rx d 10 39 0C 14 0C FF FF FF FF FD FF FD BRS
35.3536979 1 18E19490x Rx d 15 00 00 00 01 55 55 55 55 05 68 06 D8 03 00 00 FD BRS
37.3237978 1 DBx Rx d 14 39 0E 00 20 F6 A6 BD 2E 78 82 83 1A 3F 26 FD BRS
42.3570975 1 E3x Rx d 9 39 06 0B 08 00 11 11 18 00 FD BRS
42.5521975 1 DBx Rx d 13 39 0F 00 15 E4 1F BE 20 FF FF 7F CF FF FD BRS
4.8413997 1 DBx Rx d 13 39 0F 00 15 4B 73 A9 20 FF FF 7F CF FF FD BRS
7.2418996 1 D9x Rx d 13 39 13 00 15 67 1B 53 0B A0 78 CD C8 0F FD BRS
7.7259995 1 DCx Rx d 13 39 10 00 16 3C CA 52 0E A2 21 00 25 D4 FD BRS
14.7722991 1 2Dx Rx d 14 BB 67 60 04 C4 09 00 90 70 97 58 62 46 52 FD BRS
15.2936991 1 D4x Rx d 10 39 0C 14 0C FF FF FF FF FD FF FD BRS
19.7047988 1 DBx Rx d 14 39 0E 00 20 31 8B A9 2E 68 82 83 1A 3F 26 FD BRS
24.7329985 1 E3x Rx d 9 39 06 0B 08 00 11 11 18 00 FD BRS
24.9281985 1 DBx Rx d 13 39 0F 00 15 6D 42 AA 20 FF FF 7F CF FF FD BRS
26.5835984 1 D9x Rx d 14 39 13 01 0B 59 BA 38 55 95 00 FE 03 BA FF FD BRS
27.6437984 1 DCx Rx d 13 39 10 00 16 70 4F 53 0E A2 01 00 25 D4 FD BRS
28.0270983 1 18E19490x Rx d 15 02 84 00 64 64 64 01 00 05 27 54 02 03 00 00 FD BRS
29.9662982 1 E3x Rx d 8 00 80 00 04 4E A2 41 02 FD BRS
34.7736979 1 2Dx Rx d 14 A4 6E 61 04 C4 09 00 90 70 97 58 62 46 52 FD BRS
35.2939979 1 4Fx Rx d 8 28 31 0B 00 07 A7 3C D5 FD BRS
35.4573979 1 E3x Rx d 10 05 00 00 0C F5 FC FF 00 00 00 FD BRS
39.5664977 1 DBx Rx d 14 39 0E 00 20 42 57 AA 2E 68 82 83 1A 3F 26 FD BRS
44.8557973 1 DBx Rx d 13 39 0F 00 15 8F 52 AB 20 FF FF 7F CF FF FD BRS
46.4390972 1 D9x Rx d 13 39 13 00 15 FE CF 55 0B A0 78 4D C9 0F FD BRS
47.6592972 1 DCx Rx d 13 39 10 00 16 73 FB 54 0E A2 21 00 23 D4 FD BRS
4.0160998 1 2Dx Rx d 14 BC 0E 4A 04 C4 09 00 90 70 97 58 62 46 52 FD BRS
6.7642996 1 18E19490x Rx d 15 02 84 00 64 64 64 01 00 06 27 57 02 04 00 00 FD BRS
8.6694995 1 E3x Rx d 15 39 04 22 08 00 3D C6 7E 78 2F FE FF 39 80 00 FD BRS
9.3185994 1 D4x Rx d 9 39 04 0C 05 0E 0F F4 FF FF FD BRS
9.5179994 1 DBx Rx d 15 39 0E 01 0F FC 35 FF FF FF FF FF FF FF BF D4 FD BRS
14.0512992 1 DBx Rx d 13 39 0F 00 15 32 85 94 20 FF FF 7F CF FF FD BRS
15.6766991 1 D9x Rx d 13 39 13 00 15 1E 67 3E 0B A0 78 0D C9 0F FD BRS
16.9467990 1 DCx Rx d 14 39 10 01 10 55 44 3F 00 58 10 91 06 E8 9C FD BRS
18.3770989 1 44 Rx d 1 04
24.0633986 1 2Dx Rx d 14 A3 07 4B 04 C4 09 00 90 70 97 58 62 46 52 FD BRS
28.7654983 1 DBx Rx d 14 39 0F 01 06 4E 85 04 60 D4 19 39 0E 00 20 FD BRS
29.2736983 1 E3x Rx d 9 41 00 01 08 04 81 00 00 40 FD BRS
34.0147980 1 DBx Rx d 13 39 0F 00 15 D0 95 95 20 FF FF 7F CF FF FD BRS
36.3681978 1 D9x Rx d 13 39 13 00 15 2C 2D 3F 0B A0 78 4D C9 0F FD BRS
36.8593978 1 DCx Rx d 13 39 10 00 16 3F BC 3E 0E A2 01 00 25 D4 FD BRS
37.2426978 1 18E19490x Rx d 15 03 68 06 CA 16 4A D2 0F 0E 12 0E 1E 00 F1 00 FD BRS
43.9439974 1 2Dx Rx d 14 FE 38 4C 04 C4 09 00 90 70 97 58 62 46 52 FD BRS
44.4632974 1 D4x Rx d 10 39 0C 14 0C FF FF FF FF FD FF FD BRS
45.7246973 1 D9x Rx d 9 39 FE 28 08 29 00 00 00 00 FD BRS
48.8777971 1 DBx Rx d 14 39 0E 00 20 29 27 95 2E 68 82 83 1A 3F 26 FD BRS
0.1840000 1 DCx Rx d 13 39 10 00 16 44 7F 26 0E A2 01 00 23 D4 FD BRS
0.5683000 1 18E19490x Rx d 15 02 84 00 64 64 64 01 00 05 27 54 02 02 00 00 FD BRS
2.6334998 1 E3x Rx d 8 00 80 00 04 4C 13 38 02 FD BRS
7.4648996 1 2Dx Rx d 14 B5 B5 34 04 C4 09 00 90 70 97 58 62 46 52 FD BRS
12.2559993 1 DBx Rx d 14 39 0E 00 20 CD 63 7D 2E 68 82 83 1A 3F 25 FD BRS
17.4721990 1 DBx Rx d 13 39 0F 00 15 E8 97 7E 20 FF FF 7F CF FF FD BRS
19.3675989 1 D9x Rx d 13 39 13 00 15 83 41 28 0B A0 78 4D C9 0F FD BRS
20.2007988 1 DCx Rx d 13 39 10 00 16 60 D7 27 0E A2 01 00 23 D4 FD BRS
27.4490984 1 2Dx Rx d 14 AA BC 35 04 C4 09 00 90 70 97 58 62 46 52 FD BRS
27.9683983 1 D4x Rx d 8 39 04 06 04 63 60 73 84 FD BRS
30.1485982 1 18E19490x Rx d 15 03 68 06 C4 16 63 D2 10 0E 12 0E 1E 00 F1 00 FD BRS
32.2147981 1 DBx Rx d 14 39 0E 00 20 10 07 7E 2E 78 82 83 1A 3F 26 FD BRS
37.3499978 1 E3x Rx d 9 41 00 05 08 00 80 03 43 D1 FD BRS
37.5440978 1 DBx Rx d 13 39 0F 00 15 0A 87 7F 20 FF FF 7F CF FF FD BRS
39.1274977 1 D9x Rx d 13 39 13 00 15 B1 0B 29 0B A0 78 0D C9 0F FD BRS
40.3376976 1 DCx Rx d 13 39 10 00 16 7A AE 28 0E A2 01 00 23 D4 FD BRS
47.4198972 1 2Dx Rx d 14 8B A7 36 04 C4 09 00 90 70 97 58 62 46 52 FD BRS
47.9402972 1 E3x Rx d 13 39 80 00 0C 00 7F A0 8F 10 30 B0 FE 4D FD BRS
1.2166999 1 18E19490x Rx d 15 03 68 06 C4 16 66 D2 11 0E 14 0E 1E 00 F4 00 FD BRS
3.3917998 1 DBx Rx d 14 39 0E 00 20 DC 2D 6F 2E 68 82 83 1A 3F 26 FD BRS
8.4939995 1 E3x Rx d 9 41 00 05 08 00 80 03 43 D1 FD BRS
8.6881995 1 DBx Rx d 13 39 0F 00 15 B4 72 70 20 FF FF 7F CF FF FD BRS
10.4655994 1 D9x Rx d 13 39 13 00 15 94 18 1A 0B A0 78 0D C9 0F FD BRS
2.0293999 1 2Dx Rx d 14 47 9A 08 04 C4 09 00 90 70 97 58 62 46 52 FD BRS
2.5506998 1 D4x Rx d 8 39 04 06 04 B3 88 6A 84 FD BRS
4.6098997 1 18E19490x Rx d 15 03 67 06 C5 16 5B D2 10 0E 12 0E 1E 00 F8 00 FD BRS
6.8030996 1 DBx Rx d 14 39 0E 00 20 C4 4D 51 2E 78 82 83 1A 3F 26 FD BRS
11.9292993 1 E3x Rx d 9 41 00 05 08 00 80 03 43 D1 FD BRS
12.1284993 1 DBx Rx d 13 39 0F 00 15 72 6F 52 20 FF FF 7F CF FF FD BRS
13.6477992 1 D9x Rx d 13 39 13 00 15 D6 CE FC 0B A0 78 0D C9 0F FD BRS
14.8269991 1 DCx Rx d 13 39 10 00 16 0C CC FB 0E A2 21 00 23 D4 FD BRS
22.0102987 1 2Dx Rx d 14 58 93 09 04 C4 09 00 90 70 97 58 62 46 52 FD BRS
26.8043984 1 DBx Rx d 15 39 0E 01 0F 00 36 FF FF FF FF FF FF FF BF D4 FD BRS
27.4645984 1 D4x Rx d 14 39 04 0C 05 0E 0F F4 FF FF 39 15 01 14 45 FD BRS
27.9938983 1 E3x Rx d 12 39 04 22 08 00 3D 87 7E 78 0F FA FF FD BRS
32.0879981 1 DBx Rx d 13 39 0F 00 15 90 7F 53 20 FF FF 7F CF FF FD BRS
33.6333980 1 D9x Rx d 13 39 13 00 15 8C F3 FD 0B A0 77 8D C8 0F FD BRS
34.6935979 1 DCx Rx d 14 39 10 01 10 55 44 3F 32 58 10 29 52 E9 9C FD BRS
35.2098979 1 18E19490x Rx d 15 04 55 01 55 01 0F 00 3E 30 EE 0C 7C 0D 22 01 FD BRS
42.0881975 1 2Dx Rx d 14 3E 69 0A 04 C4 09 00 90 70 97 58 62 46 52 FD BRS
46.8642972 1 DBx Rx d 14 39 0E 00 20 0B 30 53 2E 68 82 83 1A 3F 26 FD BRS
0.0030000 1 F9x Rx d 0  FD
4.2721997 1 DBx Rx d 14 39 0E 00 20 5E 8D 35 2E 68 82 83 1A 3F 26 FD BRS
9.5204994 1 DBx Rx d 13 39 0F 00 15 FC 68 36 20 FF FF 7F CF FF FD BRS
12.1158993 1 D9x Rx d 13 39 13 00 15 9A A2 E0 0B A0 78 8D C8 0F FD BRS
12.4930993 1 DCx Rx d 13 39 10 00 16 CA 0A DF 0E A2 21 00 23 D4 FD BRS
19.4503988 1 2Dx Rx d 14 24 CD ED 04 C4 09 00 90 70 97 58 62 46 52 FD BRS
19.9706988 1 D4x Rx d 10 39 0C 14 0C FF FF FF FF FD FF FD BRS
21.9998987 1 DC08E2 Rx d 8 40 02 00 00 00 00 00 00
22.2901987 1 18E19490x Rx d 15 00 00 00 01 55 55 55 55 05 68 06 D8 03 00 00 FD BRS
24.3963986 1 DBx Rx d 14 39 0E 00 20 2D 51 36 2E 68 82 83 1A 3F 26 FD BRS
29.3875983 1 E3x Rx d 9 39 06 0B 08 00 11 11 18 00 FD BRS
29.5827982 1 DBx Rx d 13 39 0F 00 15 1E 78 37 20 FF FF 7F CF FF FD BRS
31.3451981 1 D9x Rx d 14 39 13 01 0B 59 BA 38 55 95 00 FE 03 BA FF FD BRS
32.2143981 1 DCx Rx d 13 39 10 00 16 CE 16 E0 0E A2 21 00 23 D4 FD BRS
34.6265979 1 E3x Rx d 8 00 80 00 04 83 E5 2A 02 FD BRS
39.4408977 1 2Dx Rx d 14 05 D6 EE 04 C4 09 00 90 70 97 58 62 46 52 FD BRS
44.3039974 1 DBx Rx d 14 39 0E 00 20 76 C4 37 2E 68 82 83 1A 3F 26 FD BRS
44.8401973 1 DC085B Rx d 8 40 03 08 04 00 00 00 00
49.5202971 1 DBx Rx d 13 39 0F 00 15 A0 8D 38 20 FF FF 7F CF FF FD BRS
0.8987999 1 D9x Rx d 13 39 13 00 15 66 EA CB 0B A0 77 CD C9 0F FD BRS
2.0529999 1 DCx Rx d 14 39 10 01 10 55 44 3F 00 58 10 D9 06 E9 9C FD BRS
9.5221994 1 2Dx Rx d 14 76 42 D8 04 C4 09 00 90 70 97 58 62 46 52 FD BRS
11.9993993 1 18E19490x Rx d 15 01 EC 01 75 0D 98 01 80 0C ED 00 BC 02 06 06 FD BRS
14.2555992 1 DBx Rx d 14 39 0E 00 20 0C 76 21 2E 68 82 83 1A 3F 26 FD BRS
19.5027988 1 DBx Rx d 13 39 0F 00 15 75 35 22 20 FF FF 7F CF FF FD BRS
21.7191987 1 D9x Rx d 13 39 13 00 15 C8 98 CC 0B A0 77 CD C9 0F FD BRS
22.0983987 1 DCx Rx d 13 39 10 00 16 12 A9 CB 0E A2 21 00 23 D4 FD BRS
29.4236983 1 2Dx Rx d 14 69 4B D9 04 C4 09 00 90 70 97 58 62 46 52 FD BRS
29.9439982 1 D4x Rx d 10 39 0C 14 0C FF FF FF FF FD FF FD BRS
34.4291980 1 DBx Rx d 14 39 0E 00 20 B0 1B 22 2E 68 82 83 1A 3F 26 FD BRS
39.3253977 1 21Cx Rx d 15 11 02 01 0E 00 00 01 F4 05 DC 09 38 0F A0 13 FD BRS
40.0125976 1 E3x Rx d 9 39 06 0B 08 00 11 11 18 00 FD BRS
40.2079976 1 21Dx Rx d 3 30 40 28 FD BRS
40.3270976 1 DBx Rx d 13 39 0F 00 15 97 25 23 20 FF FF 7F CF FF FD BRS
40.7223976 1 21Cx Rx d 15 21 00 00 00 00 00 00 00 00 00 00 00 00 00 00 FD BRS
41.4326975 1 D9x Rx d 14 39 13 01 0B 59 BA 38 55 95 00 FE 03 BA FF FD BRS
42.0418975 1 DCx Rx d 13 39 10 00 16 8D C1 CC 0E A2 21 00 23 D4 FD BRS
42.4241975 1 18E19490x Rx d 15 02 84 00 64 64 64 01 00 04 27 56 02 03 00 00 FD BRS
44.6513973 1 E3x Rx d 8 00 80 00 04 B1 AA 26 02 FD BRS
49.4237971 1 2Dx Rx d 14 48 50 DA 04 C4 09 00 90 70 97 58 62 46 52 FD BRS
1.5391999 1 E3x Rx d 8 00 80 00 04 9C FB 21 02 FD BRS
6.3445996 1 2Dx Rx d 14 61 92 C1 04 C4 09 00 90 70 97 58 62 46 52 FD BRS
6.8649996 1 E3x Rx d 10 05 00 00 0C F5 FC FF 00 00 00 FD BRS
11.1560993 1 DBx Rx d 14 39 0E 00 20 0E 93 0A 2E 68 82 83 1A 3F 25 FD BRS
16.4242990 1 DBx Rx d 13 39 0F 00 15 85 9E 0B 20 FF FF 7F CF FF FD BRS
18.1476989 1 D9x Rx d 13 39 13 00 15 9D E0 B5 0B A0 77 4D C9 0F FD BRS
18.9148989 1 DCx Rx d 13 39 10 00 16 3E 39 B4 0E A2 21 00 23 D4 FD BRS
19.2961989 1 18E19490x Rx d 15 01 EB 01 75 0D 98 01 80 0C ED 00 BC 02 06 06 FD BRS
21.2563987 1 DC085D Rx d 8 40 03 00 00 00 00 00 00
26.3625984 1 2Dx Rx d 14 40 89 C2 04 C4 09 00 90 70 97 58 62 46 52 FD BRS
26.8839984 1 D4x Rx d 8 39 04 06 04 C3 83 5C 84 FD BRS
31.1660981 1 DBx Rx d 14 39 0E 00 20 A1 D9 0B 2E 68 82 83 1A 3F 26 FD BRS
36.2832978 1 E3x Rx d 9 41 00 05 08 00 80 03 43 D1 FD BRS
36.4784978 1 DBx Rx d 13 39 0F 00 15 2B EC 0C 20 FF FF 7F CF FF FD BRS
37.9107977 1 D9x Rx d 13 39 13 00 15 A6 A5 B6 0B A0 78 8D C9 0F FD BRS
38.9799977 1 DCx Rx d 13 39 10 00 16 1A 91 B5 0E A2 21 00 23 D4 FD BRS
46.3382972 1 D4x Rx d 14 39 04 0C 05 0E 0F F4 FF FF 39 0C 16 08 FF FD BRS
46.8625972 1 2Dx Rx d 14 5F 80 C3 04 C4 09 00 90 70 97 58 62 46 52 FD BRS
47.3829972 1 D4x Rx d 15 39 0C 08 3C FE 74 03 80 00 00 08 6C 96 B8 22 FD BRS
48.9620971 1 18E19490x Rx d 15 02 84 00 64 64 64 01 00 04 27 56 02 02 00 00 FD BRS
3.3546998 1 2Dx Rx d 14 FE 42 AC 04 C4 09 00 90 70 97 58 62 46 52 FD BRS
3.8740998 1 D4x Rx d 10 39 0C 14 0C FF FF FF FF FD FF FD BRS
8.1751995 1 DBx Rx d 14 39 0E 00 20 5E 26 F5 2E 78 82 83 1A 3F 26 FD BRS
13.3143992 1 E3x Rx d 9 39 06 0B 08 00 11 11 18 00 FD BRS
13.5095992 1 DBx Rx d 13 39 0F 00 15 F0 E0 F6 20 FF FF 7F CF FF FD BRS
14.9538991 1 D9x Rx d 14 39 13 01 0B 59 BA 38 55 95 00 FE 03 BA FF FD BRS
15.7870991 1 DCx Rx d 13 39 10 00 16 E2 86 9F 0E A2 21 00 23 D4 FD BRS
16.1694990 1 18E19490x Rx d 15 02 84 00 64 64 64 01 00 05 27 54 02 02 00 00 FD BRS
18.6916989 1 E3x Rx d 8 00 80 00 04 47 98 1D 02 FD BRS
23.3570986 1 2Dx Rx d 14 A6 AA AD 04 C4 09 00 90 70 97 58 62 46 52 FD BRS
23.8764986 1 E3x Rx d 10 05 00 00 0C F5 FC FF 00 00 00 FD BRS
28.1735983 1 DBx Rx d 14 39 0E 00 20 B8 2C F6 2E 68 82 83 1A 3F 26 FD BRS
33.4407980 1 DBx Rx d 13 39 0F 00 15 12 F0 F7 20 FF FF 7F CF FF FD BRS
34.9551979 1 D9x Rx d 13 39 13 00 15 96 CC A1 0B A0 78 8D CA 0F FD BRS
35.7973979 1 DCx Rx d 13 39 10 00 16 E6 9A A0 0E A2 21 00 23 D4 FD BRS
43.4095974 1 2Dx Rx d 14 87 B1 AE 04 C4 09 00 90 70 97 58 62 46 52 FD BRS
43.9269974 1 D4x Rx d 8 39 04 06 04 32 49 58 84 FD BRS
45.8341973 1 18E19490x Rx d 15 03 68 06 C6 16 66 D2 0F 0E 11 0E 1E 00 F8 00 FD BRS
48.1842971 1 DBx Rx d 14 39 0E 00 20 2C 08 F7 2E 68 82 83 1A 3F 26 FD BRS
48.7044971 1 E3x Rx d 12 41 00 00 08 00 57 31 4B 41 46 35 45 FD BRS
3.6591998 1 E3x Rx d 9 41 00 05 08 01 1C CF 1C 07 FD BRS
3.8522998 1 DBx Rx d 13 39 0F 00 15 BD 9C E0 20 FF FF 7F CF FF FD BRS
4.2384997 1 4Fx Rx d 8 20 E0 03 A0 00 49 AA DA FD BRS
5.1818997 1 D9x Rx d 13 39 13 00 15 50 D8 8A 0B A0 77 8D C9 0F FD BRS
6.2630996 1 DCx Rx d 14 39 10 01 10 55 44 3F 30 58 10 71 06 E8 9C FD BRS
8.0842995 1 44 Rx d 1 04
13.7966992 1 2Dx Rx d 14 51 52 97 04 C4 09 00 90 70 97 58 62 46 52 FD BRS
18.5377989 1 DBx Rx d 14 39 0F 01 06 4E 85 04 60 D4 19 39 0E 00 20 FD BRS
19.0990989 1 18E06180x Rx d 15 10 5E 62 02 02 12 01 01 00 7F 01 01 02 00 80 FD BRS
19.8242988 1 18E06188x Rx d 8 30 01 0A AA AA AA AA AA FD BRS
20.0483988 1 18E06180x Rx d 14 21 80 01 01 0D 00 7E 01 01 0E 00 7E 01 01 FD BRS
23.7756986 1 DBx Rx d 13 39 0F 00 15 5F 8C E1 20 FF FF 7F CF FF FD BRS
25.8811985 1 D9x Rx d 13 39 13 00 15 7F E6 8B 0B A0 78 0D C9 0F FD BRS
26.2612984 1 DCx Rx d 13 39 10 00 16 1E 8D 8A 0E A2 21 00 23 D4 FD BRS
26.6416984 1 18E19490x Rx d 15 03 68 06 C8 16 47 D2 10 0E 13 0E 1E 00 F5 00 FD BRS
33.7058980 1 2Dx Rx d 14 F4 25 98 04 C4 09 00 90 70 97 58 62 46 52 FD BRS
34.2242980 1 D4x Rx d 10 39 0C 14 0C FF FF FF FF FD FF FD BRS
38.5073977 1 DBx Rx d 14 39 0E 00 20 56 BA E1 2E 68 82 83 1A 3F 26 FD BRS
43.6265974 1 E3x Rx d 9 39 06 0B 08 00 11 11 18 00 FD BRS
43.8217974 1 DBx Rx d 13 39 0F 00 15 79 BD E2 20 FF FF 7F CF FF FD BRS
45.2430973 1 D9x Rx d 14 39 13 01 0B 59 BA 38 55 95 00 FE 03 BA FF FD BRS
46.1782973 1 DCx Rx d 13 39 10 00 16 3A 25 8B 0E A2 21 00 23 D4 FD BRS
48.8674971 1 E3x Rx d 8 00 80 00 04 B6 52 19 02 FD BRS
0.6412000 1 D9x Rx d 13 39 13 00 15 5C 46 75 0B A0 78 CD C9 0F FD BRS
1.6963999 1 DCx Rx d 13 39 10 00 16 67 BD 74 0E A2 21 00 23 D4 FD BRS
9.2535995 1 2Dx Rx d 14 85 0F 82 04 C4 09 00 90 70 97 58 62 46 52 FD BRS
13.9199992 1 E3x Rx d 15 39 04 22 08 00 3D C6 7E 78 2F FE FF 39 80 00 FD BRS
14.5651991 1 D4x Rx d 9 39 04 0C 05 0E 0F F4 FF FF FD BRS
14.7644991 1 DBx Rx d 15 39 0E 01 0F 14 36 FF FF FF FF FF FF FF BF D4 FD BRS
19.3277989 1 DBx Rx d 13 39 0F 00 15 27 64 CC 20 FF FF 7F CF FF FD BRS
20.6450988 1 D9x Rx d 13 39 13 00 15 95 9D 76 0B A0 78 0D CA 0F FD BRS
21.5652987 1 DCx Rx d 14 39 10 01 10 55 44 3F 30 58 10 51 52 E9 9C FD BRS
22.0806987 1 18E19490x Rx d 15 04 55 01 56 01 0F 00 34 30 EE 0C 7C 0D 22 01 FD BRS
23.6058986 1 44 Rx d 1 04
29.3102983 1 2Dx Rx d 14 DD E7 83 04 C4 09 00 90 70 97 58 62 46 52 FD BRS
34.0443980 1 DBx Rx d 14 39 0F 01 06 4E 85 04 60 D4 19 39 0E 00 20 FD BRS
34.5525979 1 E3x Rx d 9 41 00 01 08 04 16 00 00 40 FD BRS
39.2956977 1 DBx Rx d 13 39 0F 00 15 C5 74 CD 20 FF FF 7F CF FF FD BRS
41.3660975 1 D9x Rx d 13 39 13 00 15 77 8D 77 0B A0 78 0D CA 0F FD BRS
41.7442975 1 DCx Rx d 13 39 10 00 16 0E FD 76 0E A2 21 00 23 D4 FD BRS
49.1864971 1 2Dx Rx d 14 80 D8 84 04 C4 09 00 90 70 97 58 62 46 52 FD BRS
49.7058970 1 D4x Rx d 10 39 0C 14 0C FF FF FF FF FD FF FD BRS
6.7350996 1 2Dx Rx d 14 01 19 6E 04 C4 09 00 90 70 97 58 62 46 52 FD BRS
7.2553996 1 E3x Rx d 13 39 80 00 0C 00 7F 81 8F 10 30 B0 FE BD FD BRS
11.5435993 1 DBx Rx d 15 39 0E 01 0F 08 36 FF FF FF FF FF FF FF BF D4 FD BRS
12.2037993 1 D4x Rx d 9 39 04 0C 05 0E 0F F4 FF FF FD BRS
16.6810990 1 E3x Rx d 9 41 00 05 08 01 53 F9 2C 2D FD BRS
16.8762990 1 DBx Rx d 13 39 0F 00 15 A8 7D B8 20 FF FF 7F CF FF FD BRS
18.0266989 1 D9x Rx d 13 39 13 00 15 56 73 62 0B A0 78 8D C8 0F FD BRS
19.0928989 1 DCx Rx d 14 39 10 01 10 55 44 3F 32 58 10 31 46 E9 9C FD BRS
21.1010987 1 44 Rx d 1 04
26.7954984 1 2Dx Rx d 14 1E 10 6F 04 C4 09 00 90 70 97 58 62 46 52 FD BRS
29.1236983 1 18E19490x Rx d 15 01 E9 01 75 0D 98 01 80 0C ED 00 BC 02 06 06 FD BRS
31.5448981 1 DBx Rx d 14 39 0F 01 06 4E 85 04 60 B4 19 39 0E 00 20 FD BRS
36.7820978 1 DBx Rx d 13 39 0F 00 15 4A 6D B9 20 FF FF 7F CF FF FD BRS
39.1542977 1 DCx Rx d 13 39 10 00 16 D6 5E 62 0E A2 21 00 23 D4 FD BRS
39.5355977 1 D9x Rx d 13 39 13 00 15 B1 8F 63 0B A0 78 4D C9 0F FD BRS
46.6837972 1 2Dx Rx d 14 4B F6 70 04 C4 09 00 90 70 97 58 62 46 52 FD BRS
47.2041972 1 D4x Rx d 10 39 0C 14 0C FF FF FF FF FD FF FD BRS
0.0002000 1 24Ex Rx d 0  FD
0.3277000 1 18E19490x Rx d 15 03 68 06 BC 16 5D D2 10 0E 12 0E 1E 00 F1 00 FD BRS
2.7358998 1 E3x Rx d 8 3A 02 00 04 F9 FF FF FF FD BRS
7.4462996 1 2Dx Rx d 14 0E A9 5C 04 C4 09 00 90 70 97 58 62 46 52 FD BRS
7.9666995 1 D4x Rx d 10 39 0C 14 0C FF FF FF FF FD FF FD BRS
12.2837993 1 DBx Rx d 14 39 0E 00 20 E0 2D A5 2E 68 82 83 1A 3F 26 FD BRS
17.4059990 1 E3x Rx d 9 39 06 0B 08 00 11 11 18 00 FD BRS
17.6011990 1 DBx Rx d 13 39 0F 00 15 F5 86 A6 20 FF FF 7F CF FF FD BRS
18.9564989 1 D9x Rx d 14 39 13 01 0B 59 BA 38 55 95 00 FE 03 BA FF FD BRS
19.7276988 1 DCx Rx d 13 39 10 00 16 B1 21 4F 0E A2 21 00 23 D4 FD BRS
22.6489987 1 E3x Rx d 8 00 80 00 04 E0 83 0D 02 FD BRS
27.4473984 1 2Dx Rx d 14 11 A0 5D 04 C4 09 00 90 70 97 58 62 46 52 FD BRS
27.9676983 1 E3x Rx d 10 05 00 00 0C F5 FC FF 00 00 00 FD BRS
29.7928982 1 18E19490x Rx d 15 04 56 01 54 01 0F 00 34 30 ED 0C 7C 0D 22 01 FD BRS
32.2830981 1 DBx Rx d 14 39 0E 00 20 67 2E A6 2E 68 82 83 1A 3F 25 FD BRS
37.5502978 1 DBx Rx d 13 39 0F 00 15 17 96 A7 20 FF FF 7F CF FF FD BRS
38.8546977 1 D9x Rx d 13 39 13 00 15 76 8C 51 0B A0 78 4D C9 0F FD BRS
39.7867976 1 DCx Rx d 13 39 10 00 16 C9 56 50 0E A2 01 00 23 D4 FD BRS
42.3849975 1 DC085D Rx d 8 40 03 00 00 00 00 00 00
0.4428000 1 E3x Rx d 9 41 00 05 08 00 80 03 43 D1 FD BRS
0.6370000 1 DBx Rx d 13 39 0F 00 15 05 2D 8F 20 FF FF 7F CF FF FD BRS
1.8462999 1 D9x Rx d 13 39 13 00 15 C0 FA 39 0B A0 78 CD C9 0F FD BRS
2.9064998 1 DCx Rx d 13 39 10 00 16 70 8D 38 0E A2 01 00 23 D4 FD BRS
5.8236997 1 21Dx Rx d 3 30 01 28 FD BRS
5.9808996 1 21Cx Rx d 15 23 00 00 00 00 00 00 00 00 00 00 00 00 00 00 FD BRS
6.6970996 1 21Dx Rx d 3 30 01 28 FD BRS
6.8441996 1 21Cx Rx d 8 24 00 00 00 00 00 00 00 FD BRS
10.4614994 1 2Dx Rx d 14 38 62 46 04 C4 09 00 90 70 97 58 62 46 52 FD BRS
10.9805993 1 DBx Rx d 14 39 0E 02 2A 3E 00 44 00 65 0A 54 82 20 08 FD BRS
11.4907993 1 E3x Rx d 13 39 80 00 0C 00 7F 81 8F 10 30 B0 FE 6D FD BRS
15.3729991 1 DBx Rx d 13 39 0E 01 0F FC 35 FF FF FF FF FF FF FF FD BRS
15.7541991 1 D4x Rx d 9 39 04 0C 05 0E 0F F4 FF FF FD BRS
20.4655988 1 E3x Rx d 9 41 00 05 08 01 08 F1 35 4A FD BRS
20.6576988 1 DBx Rx d 15 39 0E 00 20 F6 F2 8F 2E 68 82 83 1A 3F 26 80 FD BRS
21.8949987 1 D9x Rx d 13 39 13 00 15 43 92 3A 0B A0 78 8D C8 0F FD BRS
22.7531986 1 DCx Rx d 14 39 10 01 10 55 44 3F 00 58 10 F1 42 E9 9C FD BRS
23.2685986 1 18E19490x Rx d 15 04 57 01 55 01 0F 00 2A 30 E8 0C 7C 0D 22 01 FD BRS
24.8807985 1 44 Rx d 1 04
30.3948982 1 DBx Rx d 13 39 0E 04 10 5C E3 0B 4C 24 B4 DB FF 6F FD BRS
30.7670982 1 2Dx Rx d 14 27 6B 47 04 C4 09 00 90 70 97 58 62 46 52 FD BRS
35.3181979 1 DBx Rx d 14 39 0E 00 20 A2 3E 90 2E 68 82 83 1A 3F 25 FD BRS
40.5653976 1 DBx Rx d 13 39 0F 00 15 58 D6 91 20 FF FF 7F CF FF FD BRS
42.5548975 1 D9x Rx d 13 39 13 00 15 A1 82 3B 0B A0 78 8D C8 0F FD BRS
42.9320975 1 DCx Rx d 13 39 10 00 16 19 CD 3A 0E A2 01 00 23 D4 FD BRS
0.1014000 1 18E19490x Rx d 15 04 52 01 55 01 0F 00 34 30 EB 0C 7C 0D 22 01 FD BRS
2.6914998 1 DBx Rx d 14 39 0E 00 20 D2 5E 79 2E 68 82 83 1A 3F 26 FD BRS
7.9577995 1 DBx Rx d 13 39 0F 00 15 60 D4 7A 20 FF FF 7F CF FF FD BRS
9.1910995 1 D9x Rx d 13 39 13 00 15 CE 33 24 0B A0 78 CD C8 0F FD BRS
10.0942994 1 DCx Rx d 13 39 10 00 16 DA 7A 23 0E A2 21 00 23 D4 FD BRS
17.8755989 1 2Dx Rx d 14 D6 98 31 04 C4 09 00 90 70 97 58 62 46 52 FD BRS
18.3979989 1 D4x Rx d 8 39 04 06 04 CD 41 3F 84 FD BRS
22.7510986 1 DBx Rx d 14 39 0E 00 20 1A F2 7A 2E 68 82 83 1A 3F 26 FD BRS
27.7982983 1 E3x Rx d 9 41 00 05 08 00 80 03 43 D1 FD BRS
27.9933983 1 DBx Rx d 13 39 0F 00 15 82 C4 7B 20 FF FF 7F CF FF FD BRS
29.3917983 1 D9x Rx d 13 39 13 00 15 29 CF 25 0B A0 78 0D C9 0F FD BRS
30.0939982 1 DCx Rx d 13 39 10 00 16 2D 3F 24 0E A2 01 00 23 D4 FD BRS
30.4772982 1 18E19490x Rx d 15 00 00 00 01 55 55 55 55 05 67 06 D7 03 00 00 FD BRS
37.8715978 1 2Dx Rx d 14 F7 83 32 04 C4 09 00 90 70 97 58 62 46 52 FD BRS
38.3909977 1 D4x Rx d 12 39 FE 1D 08 59 40 B2 08 40 02 00 00 FD BRS
38.6992977 1 E3x Rx d 13 38 C0 00 06 00 3F D8 47 88 18 58 7F 22 FD BRS
42.7243975 1 DBx Rx d 15 39 0E 01 0F FC 35 FF FF FF FF FF FF FF BF D4 FD BRS
47.8186972 1 E3x Rx d 9 41 00 05 08 01 FF E3 07 E2 FD BRS
48.0147971 1 DBx Rx d 13 39 0F 00 15 2C B6 7C 20 FF FF 7F CF FF FD BRS
48.4019971 1 4Fx Rx d 8 20 F9 0F A0 00 49 AA D8 FD BRS
49.2073971 1 D9x Rx d 13 39 13 00 15 DF A4 26 0B A0 78 4D C9 0F FD BRS
0.0007000 1 0 Rx d 0 
4.5499997 1 DBx Rx d 13 39 0F 00 15 F9 0E 66 20 FF FF 7F CF FF FD BRS
5.7382997 1 D9x Rx d 13 39 13 00 15 45 52 10 0B A0 78 CD C8 0F FD BRS
6.6114996 1 DCx Rx d 13 39 10 00 16 F1 80 0F 0E A2 01 00 23 D4 FD BRS
6.9957996 1 18E19490x Rx d 15 01 E9 01 75 0D 99 01 80 0C ED 00 BC 02 06 06 FD BRS
9.4149994 1 18E06180x Rx d 8 03 7F 22 78 FF FF FF FF FD BRS
9.8121994 1 E3x Rx d 9 02 80 00 08 46 BD CA 01 83 FD BRS
14.4805991 1 2Dx Rx d 14 93 C7 1D 04 C4 09 00 90 70 97 58 62 46 52 FD BRS
14.9988991 1 D4x Rx d 8 39 04 06 04 3C 8B 3B 84 FD BRS
19.3439989 1 DBx Rx d 14 39 0E 00 20 BD FC 66 2E 68 82 83 1A 3F 26 FD BRS
19.8631988 1 E3x Rx d 12 41 00 01 08 02 AB 00 00 02 00 02 17 FD BRS
24.5882985 1 DBx Rx d 13 39 0F 00 15 1B 1E 67 20 FF FF 7F CF FF FD BRS
25.7415985 1 D9x Rx d 13 39 13 00 15 72 F4 11 0B A0 78 4D C9 0F FD BRS
26.7087984 1 DCx Rx d 13 39 10 00 16 E1 DA 10 0E A2 01 00 23 D4 FD BRS
34.4900980 1 2Dx Rx d 14 B2 DC 1E 04 C4 09 00 90 70 97 58 62 46 52 FD BRS
36.6502978 1 18E19490x Rx d 15 02 84 00 64 64 64 01 00 03 27 54 02 03 00 00 FD BRS
39.1594977 1 E3x Rx d 15 39 04 22 08 00 3D C6 7E 78 2F FE FF 39 80 00 FD BRS
39.8046976 1 D4x Rx d 9 39 04 0C 05 0E 0F F4 FF FF FD BRS
4.0828998 1 E3x Rx d 9 41 00 05 08 00 80 03 43 D1 FD BRS
4.2769997 1 DBx Rx d 13 39 0F 00 15 90 7F 53 20 FF FF 7F CF FF FD BRS
5.4323997 1 D9x Rx d 13 39 19 80 0A CA 35 FE 85 D0 3C 46 E4 87 FD BRS
6.3614996 1 DCx Rx d 13 39 10 00 16 FB 89 FC 0E A2 01 00 23 D4 FD BRS
14.1487992 1 2Dx Rx d 14 3E 69 0A 04 C4 09 00 90 70 97 58 62 46 52 FD BRS
14.6680991 1 E3x Rx d 13 39 80 00 0C 00 7F B0 8F 10 30 B0 FE F5 FD BRS
19.0051989 1 DBx Rx d 15 39 0E 01 0F 00 36 FF FF FF FF FF FF FF BF D4 FD BRS
19.6673988 1 D4x Rx d 9 39 04 0C 05 0E 0F F4 FF FF FD BRS
24.1047986 1 E3x Rx d 9 41 00 05 08 01 9A E9 E4 FF FD BRS
24.2989986 1 DBx Rx d 13 39 0F 00 15 3E 0D 54 20 FF FF 7F CF FF FD BRS
25.4322985 1 D9x Rx d 13 39 13 00 15 8D EA FE 0B A0 78 0D CA 0F FD BRS
26.2604984 1 DCx Rx d 14 39 10 01 10 55 44 3F 00 58 10 91 06 E8 9C FD BRS
26.7787984 1 18E19490x Rx d 15 04 56 01 55 01 0F 00 48 30 ED 0C 7C 0D 22 01 FD BRS
28.5520983 1 44 Rx d 1 04
34.2463980 1 2Dx Rx d 14 21 60 0B 04 C4 09 00 90 70 97 58 62 46 52 FD BRS
39.0065977 1 DBx Rx d 14 39 0F 01 06 4E 85 04 60 78 19 39 0E 00 20 FD BRS
44.2447974 1 DBx Rx d 13 39 0F 00 15 DC 1D 55 20 FF FF 7F CF FF FD BRS
46.1321973 1 D9x Rx d 13 39 13 00 15 20 A5 FF 0B A0 78 4D C9 0F FD BRS
46.5083972 1 DCx Rx d 13 39 10 00 16 92 C9 FE 0E A2 01 00 23 D4 FD BRS
0.4993000 1 18E19490x Rx d 15 04 53 01 56 01 0F 00 3E 30 EB 0C 7C 0D 22 01 FD BRS
3.1804998 1 DBx Rx d 14 39 0E 00 20 DF B9 3D 2E 68 82 83 1A 3F 26 FD BRS
3.7436998 1 DC085B Rx d 8 40 03 08 04 00 00 00 00
8.4477995 1 DBx Rx d 13 39 0F 00 15 EC EF 3E 20 FF FF 7F CF FF FD BRS
9.5030994 1 D9x Rx d 13 39 13 00 15 8F C9 E8 0B A0 78 4D C9 0F FD BRS
10.4982994 1 DCx Rx d 13 39 10 00 16 51 7E E7 0E A2 21 00 23 D4 FD BRS
18.3644989 1 2Dx Rx d 14 2C 14 F5 04 C4 09 00 90 70 97 58 62 46 52 FD BRS
18.8848989 1 D4x Rx d 8 39 04 06 04 FF 0E 33 84 FD BRS
23.1909986 1 DBx Rx d 14 39 0E 00 20 63 D4 3E 2E 68 82 83 1A 3F 26 FD BRS
28.2761983 1 E3x Rx d 9 41 00 05 08 00 80 03 43 D1 FD BRS
28.4703983 1 DBx Rx d 13 39 0F 00 15 0E FF 3F 20 FF FF 7F CF FF FD BRS
29.8677982 1 D9x Rx d 13 39 13 00 15 BD 83 E9 0B A0 78 0D C9 0F FD BRS
30.4908982 1 DCx Rx d 13 39 10 00 16 23 2A E8 0E A2 01 00 23 D4 FD BRS
30.8742982 1 18E19490x Rx d 15 00 00 00 01 55 55 55 55 05 67 06 D7 03 00 00 FD BRS
38.3825977 1 2Dx Rx d 14 0D 0F F6 04 C4 09 00 90 70 97 58 62 46 52 FD BRS
38.9038977 1 E3x Rx d 13 39 80 00 0C 00 7F B0 8F 10 30 B0 FE CD FD BRS
43.2079974 1 DBx Rx d 15 39 0E 01 0F 00 36 FF FF FF FF FF FF FF BF D4 FD BRS
43.8721974 1 D4x Rx d 9 39 04 0C 05 0E 0F F4 FF FF FD BRS
48.3055971 1 E3x Rx d 9 41 00 05 08 01 8E 83 78 35 FD BRS
48.4997971 1 DBx Rx d 13 39 0F 00 15 B7 50 40 20 FF FF 7F CF FF FD BRS
6.7614996 1 2Dx Rx d 14 81 BA E2 04 C4 09 00 90 70 97 58 62 46 52 FD BRS
7.2816996 1 DBx Rx d 14 39 0E 02 2A 3E 00 44 00 65 0A 54 82 20 08 FD BRS
7.7928995 1 E3x Rx d 13 39 80 00 0C 00 7F B0 8F 10 30 B0 FE A5 FD BRS
8.8250995 1 18E19490x Rx d 15 02 84 00 64 64 64 01 00 04 27 55 02 03 00 00 FD BRS
11.6171993 1 DBx Rx d 13 39 0E 01 0F 08 36 FF FF FF FF FF FF FF FD BRS
12.0084993 1 21Cx Rx d 15 23 00 00 00 00 00 00 00 00 00 00 00 00 00 00 FD BRS
12.7186992 1 D4x Rx d 9 39 04 0C 05 0E 0F F4 FF FF FD BRS
16.7580990 1 E3x Rx d 9 41 00 05 08 01 0F F6 A0 43 FD BRS
16.9542990 1 DBx Rx d 15 39 0E 00 20 A5 0B 2B 2E 68 82 83 1A 3F 26 80 FD BRS
18.0415989 1 D9x Rx d 13 39 13 00 15 A0 E1 D6 0B A0 78 8D C9 0F FD BRS
18.8777989 1 DCx Rx d 14 39 10 01 10 55 44 3F 30 58 10 51 12 E9 9C FD BRS
21.1829987 1 44 Rx d 1 04
26.6910984 1 DBx Rx d 13 39 0E 04 10 5C E3 0B 4C 24 B4 DB FF 5F FD BRS
27.0632984 1 2Dx Rx d 14 9E B3 E3 04 C4 09 00 90 70 97 58 62 46 52 FD BRS
31.6123981 1 DBx Rx d 14 39 0E 00 20 49 F4 2C 2E 68 82 83 1A 3F 26 FD BRS
36.8605978 1 DBx Rx d 13 39 0F 00 15 CB C0 2D 20 FF FF 7F CF FF FD BRS
38.6829977 1 D9x Rx d 13 39 13 00 15 7D 41 D7 0B A0 78 0D CA 0F FD BRS
39.0631977 1 DCx Rx d 13 39 10 00 16 6B B3 D6 0E A2 21 00 23 D4 FD BRS
39.4434977 1 18E19490x Rx d 15 03 67 06 C8 16 5F D2 10 0E 14 0E 1E 00 F1 00 FD BRS
41.7106975 1 21Cx Rx d 8 24 00 00 00 00 00 00 00 FD BRS
46.7438972 1 2Dx Rx d 14 C3 8C E4 04 C4 09 00 90 70 97 58 62 46 52 FD BRS
47.2651972 1 D4x Rx d 10 39 0C 14 0C FF FF FF FF FD FF FD BRS
1.9078999 1 2Dx Rx d 14 B8 C1 CA 04 C4 09 00 90 70 97 58 62 46 52 FD BRS
3.8900998 1 18E19490x Rx d 15 01 EA 01 75 0D 97 01 80 0C ED 00 BC 02 06 06 FD BRS
6.6702996 1 DBx Rx d 14 39 0E 00 20 99 F4 13 2E 68 82 83 1A 3F 26 FD BRS
11.8504993 1 18E06188x Rx d 8 03 22 02 02 AA AA AA AA FD BRS
12.0466993 1 DBx Rx d 13 39 0F 00 15 3A 75 14 20 FF FF 7F CF FF FD BRS
14.4911991 1 D9x Rx d 13 39 13 00 15 13 7B BE 0B A0 78 CD C8 0F FD BRS
21.8013987 1 2Dx Rx d 14 A7 C8 CB 04 C4 09 00 90 70 97 58 62 46 52 FD BRS
22.3227987 1 D4x Rx d 10 39 0C 14 0C FF FF FF FF FD FF FD BRS
26.6498984 1 DBx Rx d 14 39 0E 00 20 64 44 14 2D 68 82 83 1A 3F 26 FD BRS
27.1741984 1 18E06180x Rx d 8 03 7F 22 78 FF FF FF FF FD BRS
31.7413981 1 E3x Rx d 9 39 06 0B 08 00 11 11 18 00 FD BRS
31.9525981 1 DBx Rx d 13 39 0F 00 15 D8 65 15 20 FF FF 7F CF FF FD BRS
33.0768980 1 D9x Rx d 14 39 13 01 0B 59 BA 38 55 95 00 FE 03 BA FF FD BRS
33.7650980 1 DCx Rx d 13 39 10 00 16 D2 68 BE 0E A2 21 00 23 D4 FD BRS
34.1463980 1 18E19490x Rx d 15 02 84 00 64 64 64 01 00 04 27 55 02 03 00 00 FD BRS
36.9835978 1 E3x Rx d 8 00 80 00 04 2B 25 F0 02 FD BRS
41.8059975 1 2Dx Rx d 14 FA F7 CC 04 C4 09 00 90 70 97 58 62 46 52 FD BRS
46.6490972 1 DBx Rx d 14 39 0E 00 20 95 EE 15 2E 68 82 83 1A 3F 26 FD BRS
1.0573999 1 DBx Rx d 14 39 0E 00 20 AD 3C FF 2E 68 82 83 1A 3F 26 FD BRS
1.5765999 1 E3x Rx d 9 41 00 00 08 02 34 39 37 49 FD BRS
6.3166996 1 DBx Rx d 13 39 0F 00 15 B3 28 00 20 FF FF 7F CF FF FD BRS
8.1308995 1 DCx Rx d 13 39 10 00 16 47 23 A9 0E A2 21 00 23 D4 FD BRS
8.5111995 1 D9x Rx d 13 39 13 00 15 9F CA AA 0B A0 78 0D C9 0F FD BRS
8.8893995 1 18E19490x Rx d 15 03 68 06 CE 16 5A D2 11 0E 15 0E 1E 00 F8 00 FD BRS
16.2256990 1 2Dx Rx d 14 90 61 B7 04 C4 09 00 90 70 97 58 62 46 52 FD BRS
16.7449990 1 D4x Rx d 10 39 0C 14 0C FF FF FF FF FD FF FD BRS
21.0381988 1 DBx Rx d 14 39 0E 00 20 E8 41 00 2E 68 82 83 1A 3F 26 FD BRS
21.5602987 1 E3x Rx d 14 41 00 00 08 03 15 23 F2 A5 B4 26 14 41 00 FD BRS
26.3644984 1 DBx Rx d 13 39 0F 00 15 51 38 01 20 FF FF 7F CF FF FD BRS
27.3937984 1 D9x Rx d 14 39 13 01 0B 59 BA 38 55 95 00 FE 03 BA FF FD BRS
28.1569983 1 DCx Rx d 13 39 10 00 16 0A CB AA 0E A2 21 00 23 D4 FD BRS
31.3682981 1 E3x Rx d 8 00 80 00 04 BE 71 EC 02 FD BRS
36.1955979 1 2Dx Rx d 14 35 16 B8 04 C4 09 00 90 70 97 58 62 46 52 FD BRS
36.7149978 1 4Fx Rx d 8 28 35 0A 00 25 7A BF D6 FD BRS
38.2071977 1 18E19490x Rx d 15 04 56 01 55 01 0F 00 3E 30 EB 0C 7B 0D 22 01 FD BRS
41.0403976 1 DBx Rx d 14 39 0E 00 20 C7 15 01 2E 68 82 83 1A 3F 26 FD BRS
41.6205975 1 E3x Rx d 9 41 00 01 08 01 1B 96 52 8D FD BRS
46.3176973 1 DBx Rx d 13 39 0F 00 15 77 09 02 20 FF FF 7F CF FF FD BRS
47.4449972 1 D9x Rx d 13 39 13 00 15 D3 A8 AC 0B A0 78 0D C9 0F FD BRS
48.2071971 1 DCx Rx d 13 39 10 00 16 46 4E AB 0E A2 01 00 23 D4 FD BRS
5.4423997 1 2Dx Rx d 14 22 C6 A1 04 C4 09 00 90 70 97 58 62 46 52 FD BRS
10.2895994 1 DBx Rx d 15 39 0E 01 0F FC 35 FF FF FF FF FF FF FF BF D4 FD BRS
10.9516993 1 D4x Rx d 14 39 04 0C 05 0E 0F F4 FF FF 39 15 01 14 45 FD BRS
11.4810993 1 E3x Rx d 12 39 04 22 08 00 3D 87 7E 78 0F FA FF FD BRS
15.5721991 1 DBx Rx d 13 39 0F 00 15 8B 2A EB 20 FF FF 7F CF FF FD BRS
16.5545990 1 D9x Rx d 13 39 13 00 15 27 F1 95 0B A0 78 CD C8 0F FD BRS
17.3217990 1 DCx Rx d 14 39 10 01 10 55 44 3F 00 58 10 E9 46 E9 9C FD BRS
17.8370989 1 18E19490x Rx d 15 04 55 00 53 01 0F 00 3E 30 EB 0C 7C 0D 22 01 FD BRS
25.5143985 1 2Dx Rx d 14 03 DD A2 04 C4 09 00 90 70 97 58 62 46 52 FD BRS
30.2964982 1 DBx Rx d 14 39 0E 00 20 FF C7 EB 2E 68 82 83 1A 3F 26 FD BRS
35.5447979 1 DBx Rx d 13 39 0F 00 15 25 58 EC 20 FF FF 7F CF FF FD BRS
37.2651978 1 D9x Rx d 13 39 13 00 15 69 B7 96 0B A0 77 0D C9 0F FD BRS
37.6402978 1 DCx Rx d 13 39 10 00 16 FA 26 95 0E A2 21 00 25 D4 FD BRS
45.4255973 1 2Dx Rx d 14 1C D4 A3 04 C4 09 00 90 70 97 58 62 46 52 FD BRS
45.9438973 1 D4x Rx d 10 39 0C 14 0C FF FF FF FF FD FF FD BRS
47.3670972 1 18E19490x Rx d 15 00 00 00 01 55 55 55 55 05 68 06 D8 03 00 00 FD BRS
0.4397000 1 DBx Rx d 14 39 0E 00 20 45 11 D8 2E 68 82 83 1A 3F 26 FD BRS
5.4529997 1 E3x Rx d 9 39 06 0B 08 00 11 11 18 00 FD BRS
5.7120997 1 DBx Rx d 13 39 0F 00 15 4C 29 D9 20 FF FF 7F CF FF FD BRS
6.7084996 1 D9x Rx d 14 39 13 01 0B 59 BA 38 55 95 00 FE 03 BA FF FD BRS
7.4126996 1 DCx Rx d 13 39 10 00 16 6F 6D 82 0E A2 21 00 25 D4 FD BRS
7.7949995 1 18E19490x Rx d 15 02 84 00 64 64 64 01 00 03 27 56 02 03 00 00 FD BRS
10.8522994 1 E3x Rx d 8 00 80 00 04 7D F4 E4 02 FD BRS
15.5445991 1 2Dx Rx d 14 0C 6D 90 04 C4 09 00 90 70 97 58 62 46 52 FD BRS
20.4266988 1 DBx Rx d 14 39 0E 00 20 D1 35 D9 2E 68 82 83 1A 3F 26 FD BRS
20.9458988 1 DC085B Rx d 8 40 03 08 04 00 00 00 00
25.6439985 1 DBx Rx d 13 39 0F 00 15 6A 18 DA 20 FF FF 7F CF FF FD BRS
26.6272984 1 D9x Rx d 13 39 13 00 15 C4 FF 84 0B A0 78 CD C8 0F FD BRS
27.3954984 1 DCx Rx d 13 39 10 00 16 BF 34 83 0E A2 21 00 23 D4 FD BRS
35.5447979 1 2Dx Rx d 14 13 64 91 04 C4 09 00 90 70 97 58 62 46 52 FD BRS
36.0640979 1 D4x Rx d 8 39 04 06 04 83 76 1F 84 FD BRS
37.4332978 1 18E19490x Rx d 15 03 68 06 C3 16 60 D2 10 0E 14 0E 1E 00 EE 00 FD BRS
40.3873976 1 DBx Rx d 14 39 0E 00 20 88 C8 DA 2D 68 82 83 1A 3F 25 FD BRS
45.4595973 1 E3x Rx d 9 41 00 05 08 00 80 03 43 D1 FD BRS
45.6557973 1 DBx Rx d 13 39 0F 00 15 88 08 DB 20 FF FF 7F CF FF FD BRS
46.6410972 1 D9x Rx d 13 39 13 00 15 4E 98 85 0B A0 77 0D C9 0F FD BRS
47.5442972 1 DCx Rx d 13 39 10 00 16 20 5C 84 0E A2 21 00 23 D4 FD BRS
4.8608997 1 2Dx Rx d 14 8D AC 7A 04 C4 09 00 90 70 97 58 62 46 52 FD BRS
9.6449994 1 DBx Rx d 14 39 0E 00 20 7A 21 C3 2E 68 82 83 1A 3F 26 FD BRS
14.8921991 1 DBx Rx d 13 39 0F 00 15 37 E3 C4 20 FF FF 7F CF FF FD BRS
16.5933990 1 DCx Rx d 13 39 10 00 16 CC 27 6D 0E A2 21 00 23 D4 FD BRS
16.9726990 1 D9x Rx d 13 39 13 00 15 76 9A 6E 0B A0 77 0D C9 0F FD BRS
17.3478990 1 18E19490x Rx d 15 03 67 06 BB 16 58 D2 11 0E 16 0E 1E 00 F9 00 FD BRS
24.8020985 1 2Dx Rx d 14 92 A5 7B 04 C4 09 00 90 70 97 58 62 46 52 FD BRS
25.3204985 1 D4x Rx d 10 39 0C 14 0C FF FF FF FF FD FF FD BRS
29.6755982 1 DBx Rx d 14 39 0E 00 20 59 6F C4 2E 68 82 83 1A 3F 26 FD BRS
34.7077979 1 E3x Rx d 9 39 06 0B 08 00 11 11 18 00 FD BRS
34.9029979 1 21Cx Rx d 15 11 02 01 0B 77 04 7C 18 7E 0C 80 00 83 E8 87 FD BRS
35.6071979 1 21Dx Rx d 3 30 40 28 FD BRS
35.7523979 1 DBx Rx d 13 39 0F 00 15 D5 F3 C5 20 FF FF 7F CF FF FD BRS
36.1396979 1 D9x Rx d 14 39 13 01 0B 59 BA 38 55 95 00 FE 03 BA FF FD BRS
36.6507978 1 DCx Rx d 13 39 10 00 16 81 CF 6E 0E A2 21 00 23 D4 FD BRS
37.0339978 1 21Cx Rx d 15 21 00 00 00 00 00 00 00 00 00 00 00 00 00 00 FD BRS
39.9422976 1 E3x Rx d 8 00 80 00 04 8C 3E E0 02 FD BRS
44.7665973 1 2Dx Rx d 14 CF 9A 7C 04 C4 09 00 90 70 97 58 62 46 52 FD BRS
46.6267972 1 18E19490x Rx d 15 04 54 01 56 01 0F 00 3E 30 EB 0C 7C 0D 22 01 FD BRS
3.3740998 1 DBx Rx d 13 39 0F 00 15 7C DB B2 20 FF FF 7F CF FF FD BRS
4.2933997 1 D9x Rx d 13 39 13 00 15 AC ED 5C 0B A0 78 CD C9 0F FD BRS
5.0925997 1 DCx Rx d 13 39 10 00 16 9D 73 5B 0E A2 21 00 25 D4 FD BRS
5.4728997 1 18E19490x Rx d 15 01 ED 01 74 0D 99 01 80 0C ED 00 BC 02 06 06 FD BRS
13.2641992 1 2Dx Rx d 14 5C 26 69 04 C4 09 00 90 70 97 58 62 46 52 FD BRS
13.7834992 1 D4x Rx d 8 39 04 06 04 40 F3 17 84 FD BRS
18.1155989 1 DBx Rx d 14 39 0E 00 20 0E BB B2 2E 68 82 83 1A 3F 26 FD BRS
23.1827986 1 E3x Rx d 9 41 00 05 08 00 80 03 43 D1 FD BRS
23.3789986 1 DBx Rx d 13 39 0F 00 15 9E CB B3 20 FF FF 7F CF FF FD BRS
24.3092986 1 D9x Rx d 13 39 13 00 15 23 66 5D 0B A0 77 CD C9 0F FD BRS
25.1804985 1 DCx Rx d 13 39 10 00 16 37 B6 5C 0E A2 21 00 25 D0 FD BRS
33.2616980 1 2Dx Rx d 14 7D 3D 6A 04 C4 09 00 90 70 97 58 62 46 52 FD BRS
33.7810980 1 D4x Rx d 12 39 FE 1D 08 59 40 B2 08 40 02 00 00 FD BRS
34.0893980 1 E3x Rx d 13 39 80 00 0C 00 7F B2 8F 10 30 B0 FE B5 FD BRS
35.0425979 1 18E19490x Rx d 15 02 84 00 64 64 64 01 00 04 27 53 02 03 00 00 FD BRS
38.1396977 1 DBx Rx d 15 39 0E 01 0F 0C 36 FF FF FF FF FF FF FF BF D4 FD BRS
43.2128974 1 E3x Rx d 9 41 00 05 08 01 66 33 F8 E6 FD BRS
43.4080974 1 DBx Rx d 13 39 0F 00 15 30 B9 B4 20 FF FF 7F CF FF FD BRS
43.7932974 1 4Fx Rx d 8 20 F7 07 A0 00 49 AA D4 FD BRS
44.3975974 1 D9x Rx d 13 39 13 00 15 70 54 5E 0B A0 77 CD C8 0F FD BRS
45.2077973 1 DCx Rx d 14 39 10 01 10 55 44 3F 00 58 10 91 06 E8 9C FD BRS
47.6409972 1 44 Rx d 1 04
0.2208000 1 2Dx Rx d 14 DF 23 4F 04 C4 09 00 90 70 97 58 62 46 52 FD BRS
0.7421000 1 E3x Rx d 10 05 00 00 0C F5 FC FF 00 00 00 FD BRS
1.9332999 1 18E19490x Rx d 15 04 56 01 59 01 0E 00 2A 30 E8 0C 7C 0D 22 01 FD BRS
5.0813997 1 DBx Rx d 14 39 0E 00 20 6C A5 98 2E 68 82 83 1A 3F 26 FD BRS
10.4535994 1 DBx Rx d 13 39 0F 00 15 48 51 99 20 FF FF 7F CF FF FD BRS
11.2699993 1 D9x Rx d 13 39 13 00 15 B3 B3 43 0B A0 78 4D C9 0F FD BRS
12.0661993 1 DCx Rx d 13 39 10 00 16 C2 18 42 0E A2 21 00 23 D4 FD BRS
20.2623988 1 2Dx Rx d 14 8A C5 50 04 C4 09 00 90 70 97 58 62 46 52 FD BRS
20.7816988 1 D4x Rx d 8 39 04 06 04 05 4F 12 84 FD BRS
25.0898985 1 DBx Rx d 14 39 0E 00 20 F8 81 99 2E 68 82 83 1A 3F 26 FD BRS
25.6110985 1 E3x Rx d 12 41 00 00 08 00 57 31 4B 41 46 35 45 FD BRS
30.3711982 1 DBx Rx d 13 39 0F 00 15 6E 60 9A 20 FF FF 7F CF FF FD BRS
31.2314981 1 D9x Rx d 13 39 13 00 15 18 2D 44 0B A0 78 8D C8 0F FD BRS
32.0886981 1 DCx Rx d 13 39 10 00 16 E6 B0 43 0E A2 21 00 23 D4 FD BRS
32.4709981 1 18E19490x Rx d 15 00 00 00 01 55 55 55 55 05 67 06 D7 03 00 00 FD BRS
40.2522976 1 2Dx Rx d 14 95 CC 51 04 C4 09 00 90 70 97 58 62 46 52 FD BRS
45.1433973 1 DBx Rx d 15 39 0E 01 0F 18 36 FF FF FF FF FF FF FF BF D4 FD BRS
45.8015973 1 D4x Rx d 14 39 04 0C 05 0E 0F F4 FF FF 39 15 01 14 45 FD BRS
46.3306972 1 E3x Rx d 14 39 04 22 08 00 3D 87 7E 78 0F FA FF 41 00 FD BRS
46.8530972 1 18E06180x Rx d 15 10 5E 62 02 02 12 01 01 00 7F 01 01 02 00 80 FD BRS
47.5762972 1 18E06188x Rx d 8 30 01 0A AA AA AA AA AA FD BRS
47.8004972 1 18E06180x Rx d 14 21 80 01 01 0D 00 7E 01 01 0E 00 7E 01 01 FD BRS
5.3045997 1 2Dx Rx d 14 52 F4 3D 04 C4 09 00 90 70 97 58 62 46 52 FD BRS
6.9757996 1 18E19490x Rx d 15 02 84 00 64 64 64 01 00 05 27 53 02 02 00 00 FD BRS
10.1658994 1 DBx Rx d 15 39 0E 01 0F 00 36 FF FF FF FF FF FF FF BF D4 FD BRS
10.8260994 1 D4x Rx d 14 39 04 0C 05 0E 0F F4 FF FF 39 15 01 14 45 FD BRS
11.3554993 1 E3x Rx d 12 39 04 22 08 00 3D 87 7E 78 0F FA FF FD BRS
15.4495991 1 DBx Rx d 13 39 0F 00 15 15 AA 87 20 FF FF 7F CF FF FD BRS
16.3498990 1 D9x Rx d 13 39 13 00 15 1D 53 31 0B A0 77 4D C9 0F FD BRS
17.1030990 1 DCx Rx d 14 39 10 01 10 55 44 3F 32 58 10 49 16 E8 9C FD BRS
25.3803985 1 2Dx Rx d 14 73 EF 3E 04 C4 09 00 90 70 97 58 62 46 52 FD BRS
30.1734982 1 DBx Rx d 14 39 0E 00 20 03 07 87 2E 68 82 83 1A 3F 26 FD BRS
35.4197979 1 DBx Rx d 13 39 0F 00 15 AB 5F 88 20 FF FF 7F CF FF FD BRS
37.0159978 1 DCx Rx d 13 39 10 00 16 B9 19 31 0E A2 21 00 23 D4 FD BRS
37.3962978 1 D9x Rx d 13 39 13 00 15 4B 8D 32 0B A0 77 8D C9 0F FD BRS
37.7744978 1 18E19490x Rx d 15 03 68 06 C2 16 63 D2 11 0E 15 0E 1E 00 F8 00 FD BRS
45.3116973 1 2Dx Rx d 14 6C E6 3F 04 C4 09 00 90 70 97 58 62 46 52 FD BRS
45.8310973 1 D4x Rx d 10 39 0C 14 0C FF FF FF FF FD FF FD BRS
