date 2025-01-01 00:00:00.000
base hex  timestamps absolute
no internal events logged

0.0039409 1 18E19490x Rx d 15 01 02 00 75 0D 55 01 80 0C 10 01 BC 02 06 06 [FD BRS]
0.0046421 1 E3x Rx d 11 39 06 0B 08 48 41 51 25 5C C3 DD [FD BRS]
0.0080982 1 DBx Rx d 14 39 0E 00 20 E4 5F C9 31 C8 82 83 1A 3F 3E [FD BRS]
0.0134775 1 DBx Rx d 13 39 0F 00 15 6B 06 CA 20 FF FF 7F CF FF [FD BRS]
0.0138646 1 DCx Rx d 13 39 10 00 16 B9 86 6C AE 12 0A FA DE D4 [FD BRS]
0.0146880 1 D9x Rx d 13 39 13 00 15 BE B6 6F 12 A0 7B CD A0 0F [FD BRS]
0.0192832 1 2Dx Rx d 14 3E FF 80 05 C4 09 00 90 70 97 58 62 70 52 [FD BRS]
0.0280473 1 DBx Rx d 14 39 0E 00 20 58 32 CA 31 C8 82 83 1A 3F 3E [FD BRS]
0.0334575 1 DBx Rx d 13 39 0F 00 15 89 16 CB 20 FF FF 7F CF FF [FD BRS]
0.0338436 1 DCx Rx d 13 39 10 00 16 9D 2E 6D AE 12 0A FA DE D4 [FD BRS]
0.0342250 1 18E19490x Rx d 15 02 88 00 64 64 64 01 00 00 00 DE 12 4B 8A 00 [FD BRS]
0.0349293 1 D9x Rx d 13 39 13 00 15 67 14 70 12 A0 7B CD 9E 0F [FD BRS]
0.0393385 1 2Dx Rx d 14 21 F6 81 05 C4 09 00 90 70 97 58 62 70 52 [FD BRS]
0.0398659 1 D4x Rx d 8 39 04 06 04 84 47 55 85 [FD BRS]
0.0400252 1 E3x Rx d 9 41 00 05 08 00 80 03 43 D3 [FD BRS]
0.0480593 1 DBx Rx d 15 39 0E 01 0F 18 36 FF FF FF FF FF FF FF FF D4 [FD BRS]
0.0492675 1 E3x Rx d 10 39 80 00 0C 00 7F B0 8F 0C 30 [FD BRS]
0.0069099 1 DBx Rx d 14 39 0E 00 20 A6 A8 B6 30 B8 82 83 1A 3F 35 [FD BRS]
0.0123212 1 DBx Rx d 13 39 0F 00 15 16 88 B7 20 FF FF 7F CF FF [FD BRS]
0.0127064 1 DCx Rx d 13 39 10 00 16 64 66 59 AE 12 0A FA DE D0 [FD BRS]
0.0134707 1 D9x Rx d 13 39 13 00 15 04 C9 5C 11 A0 7A 4D 9F 0F [FD BRS]
0.0182009 1 2Dx Rx d 14 E2 01 6D 05 C4 09 00 90 70 97 58 62 70 52 [FD BRS]
0.0187263 1 D4x Rx d 8 39 04 06 04 75 8D 51 85 [FD BRS]
0.0188856 1 E3x Rx d 9 41 00 05 08 00 80 03 43 D3 [FD BRS]
0.0226499 1 18F2CA48 Rx d 7 25 24 92 49 9D 97 22
0.0269250 1 DBx Rx d 15 39 0E 01 0F 08 36 FF FF FF FF FF FF FF FF D4 [FD BRS]
0.0281262 1 E3x Rx d 13 39 80 00 0C 00 7F B0 8F 0C 30 B0 FE BD [FD BRS]
0.0323333 1 DBx Rx d 13 39 0F 00 15 A8 7D B8 20 FF FF 7F CF FF [FD BRS]
0.0327215 1 DCx Rx d 13 39 10 00 16 1C 23 5A AE 12 0A FA DE D4 [FD BRS]
0.0334648 1 D9x Rx d 13 39 13 00 15 25 C9 5D 11 A0 7A 0D A0 0F [FD BRS]
0.0381861 1 2Dx Rx d 14 C3 1A 6E 05 C4 09 00 90 70 97 58 62 70 52 [FD BRS]
0.0387124 1 E3x Rx d 12 41 00 05 08 01 F5 BE AC 9B 39 31 25 [FD BRS]
0.0433458 1 D4x Rx d 9 39 04 0C 05 0E 0F F6 FF FF [FD BRS]
0.0469469 1 DBx Rx d 14 39 0F 01 06 4F 85 04 60 F8 1C 39 0E 00 20 [FD BRS]
0.0041978 1 DBx Rx d 14 39 0E 00 20 76 47 A2 30 B8 82 83 1A 3F 34 [FD BRS]
0.0096101 1 DBx Rx d 13 39 0F 00 15 9F D5 A3 20 FF FF 7F CF FF [FD BRS]
0.0099983 1 DCx Rx d 13 39 10 00 16 39 D4 45 AE 12 0A FA DE D0 [FD BRS]
0.0107276 1 D9x Rx d 13 39 13 00 15 10 26 48 12 A0 7A 0D 9F 0F [FD BRS]
0.0154639 1 2Dx Rx d 14 AF 87 59 05 C4 09 00 90 70 97 58 62 70 52 [FD BRS]
0.0159912 1 D4x Rx d 8 39 04 06 04 E0 D9 4D 85 [FD BRS]
0.0161516 1 E3x Rx d 9 41 00 05 08 00 80 03 43 D3 [FD BRS]
0.0242116 1 DBx Rx d 15 39 0E 01 0F 18 36 FF FF FF FF FF FF FF FF D4 [FD BRS]
0.0253888 1 E3x Rx d 10 39 80 00 0C 00 7F B0 8F 0D 30 [FD BRS]
0.0296249 1 DBx Rx d 13 39 0F 00 15 31 A7 A4 20 FF FF 7F CF FF [FD BRS]
0.0300111 1 DCx Rx d 13 39 10 00 16 74 3C 46 AE 12 0A FA DE D0 [FD BRS]
0.0303915 1 18E19490x Rx d 15 01 02 00 74 0D 54 01 80 0C 0C 01 BC 02 06 06 [FD BRS]
0.0310958 1 D9x Rx d 13 39 13 00 15 0C 21 49 11 A0 7A 8D A0 0F [FD BRS]
0.0354770 1 2Dx Rx d 14 8E 9C 5A 05 C4 09 00 90 70 97 58 62 70 52 [FD BRS]
0.0360034 1 E3x Rx d 12 41 00 05 08 01 8B 49 FA 56 AD 09 5B [FD BRS]
0.0406288 1 D4x Rx d 9 39 04 0C 05 0E 0F F6 FF FF [FD BRS]
0.0442859 1 DBx Rx d 14 39 0F 01 06 4F 85 04 60 14 1D 39 0E 00 20 [FD BRS]
0.0496082 1 DBx Rx d 13 39 0F 00 15 D3 B7 A5 20 FF FF 7F CF FF [FD BRS]
0.0010594 1 DBx Rx d 13 39 0F 00 15 E7 3D 8E 20 FF FF 7F CF FF [FD BRS]
0.0014446 1 DCx Rx d 13 39 10 00 16 CC B8 30 AE 12 0A FA DE D4 [FD BRS]
0.0021779 1 D9x Rx d 13 39 13 00 15 F6 A2 33 12 A0 7B 4D A1 0F [FD BRS]
0.0068881 1 2Dx Rx d 14 C4 73 44 05 C4 09 00 90 70 97 58 62 70 52 [FD BRS]
0.0156332 1 DBx Rx d 14 39 0E 00 20 CB 82 8E 31 B8 82 83 1A 3F 3B [FD BRS]
0.0210414 1 DBx Rx d 13 39 0F 00 15 05 2D 8F 20 FF FF 7F CF FF [FD BRS]
0.0214275 1 DCx Rx d 13 39 10 00 16 DD BD 31 AE 12 0A FA DE D0 [FD BRS]
0.0218099 1 18E19490x Rx d 15 02 88 00 64 64 64 01 00 00 00 FA 12 3D D2 00 [FD BRS]
0.0225162 1 D9x Rx d 13 39 13 00 15 5A 0E 34 12 A0 7A 8D 9E 0F [FD BRS]
0.0269284 1 2Dx Rx d 14 DB 7A 45 05 C4 09 00 90 70 97 58 62 70 52 [FD BRS]
0.0274548 1 D4x Rx d 8 39 04 06 04 11 13 49 85 [FD BRS]
0.0276152 1 E3x Rx d 9 41 00 05 08 00 80 03 43 D3 [FD BRS]
0.0356972 1 DBx Rx d 15 39 0E 01 0F 18 36 FF FF FF FF FF FF FF FF D4 [FD BRS]
0.0368264 1 224BA92x Rx d 2 6C AC [FD ESI]
0.0410615 1 DBx Rx d 13 39 0F 00 15 BA C6 90 20 FF FF 7F CF FF [FD BRS]
0.0414477 1 DCx Rx d 13 39 10 00 16 A5 F8 32 AE 12 0A FA DE D4 [FD BRS]
0.0421320 1 D9x Rx d 13 39 13 00 15 52 71 35 11 A0 7B 0D A0 0F [FD BRS]
0.0469112 1 2Dx Rx d 14 60 4C 46 05 C4 09 00 90 70 97 58 A2 70 52 [FD BRS]
0.0474376 1 E3x Rx d 12 41 00 05 08 01 06 4F 3D F0 7C 6C EA [FD BRS]
0.0020578 1 DBx Rx d 13 39 0F 00 15 1A 00 77 20 FF FF 7F CF FF [FD BRS]
0.0024440 1 DCx Rx d 13 39 10 00 16 4C EA 19 AE 12 0A FA DE D0 [FD BRS]
0.0028243 1 18E19490x Rx d 15 01 02 00 75 0D 54 01 80 0C 10 01 BC 02 06 06 [FD BRS]
0.0035276 1 D9x Rx d 13 39 13 00 15 64 26 1C 11 A0 7B 8D 9E 0F [FD BRS]
0.0079149 1 2Dx Rx d 14 60 66 2D 05 C4 09 00 90 70 97 58 62 70 52 [FD BRS]
0.0084412 1 E3x Rx d 12 41 00 05 08 01 43 5F C4 87 FD 6E 98 [FD BRS]
0.0130566 1 D4x Rx d 14 39 04 0C 05 0E 0F F6 FF FF 39 15 01 14 46 [FD BRS]
0.0166727 1 DBx Rx d 14 39 0E 00 20 BB 96 77 31 B8 82 83 1A 3F 3E [FD BRS]
0.0220500 1 DBx Rx d 13 39 0F 00 15 A4 F5 78 20 FF FF 7F CF FF [FD BRS]
0.0224362 1 DCx Rx d 13 39 10 00 16 34 AF 1A AE 12 0A FA DE D4 [FD BRS]
0.0240336 1 D9x Rx d 13 39 13 00 15 90 90 1D 11 A0 7B 4D A0 0F [FD BRS]
0.0279628 1 2Dx Rx d 14 41 7D 2E 05 C4 09 00 90 70 97 58 62 70 52 [FD BRS]
0.0322420 1 18E19490x Rx d 15 02 88 00 64 64 64 01 00 00 00 83 12 34 32 00 [FD BRS]
0.0366412 1 DBx Rx d 14 39 0E 00 20 C8 03 78 31 C8 82 83 1A 3F 3C [FD BRS]
0.0418794 1 21Cx Rx d 15 11 02 01 00 75 74 79 5C 7C 7C 7F 38 83 20 87 [FD BRS]
0.0425676 1 DCx Rx d 14 39 10 01 10 15 46 43 00 50 00 C6 12 0D 9C [FD BRS]
0.0430848 1 30C Rx d 11 A3 27 F1 86 DB B6 DB 6D
0.0434690 1 D9x Rx d 14 39 13 01 0B 5A BA 48 55 95 00 FE 03 BA FF [FD BRS]
0.0439833 1 21Dx Rx d 3 30 40 28 [FD BRS]
0.0441365 1 21Cx Rx d 15 21 00 00 00 00 00 00 00 00 00 00 00 00 00 00 [FD BRS]
0.0478587 1 2Dx Rx d 14 5E 74 2F 05 C4 09 00 90 70 97 58 62 70 52 [FD BRS]
0.0483850 1 D4x Rx d 10 39 0C 14 0C FF FF FF F7 FD FF [FD BRS]
0.0030473 1 DCx Rx d 14 39 10 01 10 15 46 43 00 50 00 9E 06 0C 9C [FD BRS]
0.0035684 1 DBx Rx d 13 39 0F 00 15 B5 6C 60 20 FF FF 7F CF FF [FD BRS]
0.0041586 1 E3x Rx d 8 3A 02 00 04 F4 FF FF FF [FD BRS]
0.0043219 1 D9x Rx d 14 39 13 01 0B 5A BA 48 55 95 00 FE 03 BA FF [FD BRS]
0.0088692 1 2Dx Rx d 14 88 97 16 05 C4 09 00 90 70 97 58 62 70 52 [FD BRS]
0.0093965 1 D4x Rx d 10 39 0C 14 0C FF FF FF F7 FD FF [FD BRS]
0.0133187 1 18E19490x Rx d 15 01 02 00 74 0D 54 01 80 0C 10 01 BC 02 06 06 [FD BRS]
0.0141309 1 E3x Rx d 13 41 00 01 08 01 00 00 02 C4 A2 61 71 39 [FD BRS]
0.0177010 1 DBx Rx d 14 39 0E 00 20 C9 6A 60 30 B8 82 83 1A 3F 38 [FD BRS]
0.0188122 1 E3x Rx d 10 05 00 00 0C F5 FC FF 00 00 00 [FD BRS]
0.0230654 1 DBx Rx d 13 39 0F 00 15 57 7C 61 20 FF FF 7F CF FF [FD BRS]
0.0234515 1 DCx Rx d 13 39 10 00 16 AA 98 03 AE 12 0A FA DE D0 [FD BRS]
0.0241868 1 D9x Rx d 13 39 13 00 15 66 F6 06 11 A0 7A CD A0 0F [FD BRS]
0.0288621 1 2Dx Rx d 14 97 9E 17 05 C4 09 00 90 70 97 58 62 70 52 [FD BRS]
0.0341395 1 E3x Rx d 9 41 00 01 08 02 2F 00 00 02 [FD BRS]
0.0376516 1 DBx Rx d 14 39 0E 00 20 AB 9B 61 30 B8 82 83 1A 3F 39 [FD BRS]
0.0430478 1 DBx Rx d 13 39 0F 00 15 71 4D 62 20 FF FF 7F CF FF [FD BRS]
0.0434320 1 DCx Rx d 13 39 10 00 16 35 F0 04 AE 12 0A FA DE D0 [FD BRS]
0.0438164 1 18E19490x Rx d 15 02 88 00 64 64 64 01 00 00 00 45 12 C1 D6 00 [FD BRS]
0.0445247 1 D9x Rx d 13 39 13 00 15 B9 E1 07 12 A0 7A 0D A0 0F [FD BRS]
0.0489129 1 2Dx Rx d 14 32 E9 18 05 C4 09 00 90 70 97 58 62 70 52 [FD BRS]
0.0494383 1 D4x Rx d 8 39 04 06 04 66 E0 40 85 [FD BRS]
0.0495996 1 E3x Rx d 12 41 00 05 08 00 80 03 43 D3 7B 0E 23 [FD BRS]
0.0012850 1 DCx Rx d 13 39 10 00 16 C9 D1 F2 AE 12 0A FA DE D0 [FD BRS]
0.0016682 1 DBx Rx d 13 39 0F 00 15 B6 4E 50 20 FF FF 7F CF FF [FD BRS]
0.0020554 1 18E19490x Rx d 15 00 00 00 A5 55 55 55 55 05 00 00 00 00 00 00 [FD BRS]
0.0027606 1 E3x Rx d 9 41 00 00 08 02 34 39 37 E9 [FD BRS]
0.0033689 1 D9x Rx d 13 39 13 00 15 A7 DC F5 12 A0 7A 8D A1 0F [FD BRS]
0.0072712 1 2Dx Rx d 14 78 06 06 05 C4 09 00 90 70 97 58 62 70 52 [FD BRS]
0.0159732 1 DBx Rx d 14 39 0E 00 20 80 6D 50 30 B8 82 83 1A 3F 35 [FD BRS]
0.0212994 1 DCx Rx d 14 39 10 01 10 15 46 43 82 50 00 86 46 0D 9C [FD BRS]
0.0218166 1 DBx Rx d 13 39 0F 00 15 54 5E 51 20 FF FF 7F CF FF [FD BRS]
0.0223978 1 E3x Rx d 9 41 00 00 08 03 FE A4 2D 58 [FD BRS]
0.0225961 1 D9x Rx d 14 39 13 01 0B 5A BA 48 55 95 00 FE 03 BA FF [FD BRS]
0.0271294 1 2Dx Rx d 14 67 0F 07 05 C4 09 00 90 70 97 58 62 70 52 [FD BRS]
0.0047061 1 DBx Rx d 14 39 0E 00 20 59 BC 41 31 C8 82 83 1A 3F 3D [FD BRS]
0.0100494 1 DCx Rx d 14 39 10 01 10 15 46 43 30 50 00 6E 06 0C 9C [FD BRS]
0.0105675 1 DBx Rx d 13 39 0F 00 15 73 71 42 20 FF FF 7F CF FF [FD BRS]
0.0112219 1 D9x Rx d 14 39 13 01 0B 5A BA 48 55 95 00 FE 03 BA FF [FD BRS]
0.0159101 1 2Dx Rx d 14 75 72 F8 05 C4 09 00 90 70 97 58 62 70 52 [FD BRS]
0.0164385 1 D4x Rx d 10 39 0C 14 0C FF FF FF F7 FD FF [FD BRS]
0.0203207 1 18E19490x Rx d 15 01 02 00 75 0D 54 01 80 0C 10 01 BC 02 06 06 [FD BRS]
0.0211769 1 E3x Rx d 11 39 06 0B 08 4A 41 51 25 52 C3 DD [FD BRS]
0.0248080 1 DBx Rx d 14 39 0E 00 20 13 04 42 31 C8 82 83 1A 3F 3C [FD BRS]
0.0258652 1 E3x Rx d 10 05 00 00 0C F5 FC FF 00 00 00 [FD BRS]
0.0301245 1 DCx Rx d 13 39 10 00 16 69 37 E5 AE 12 0A FA DE D4 [FD BRS]
0.0305056 1 DBx Rx d 13 39 0F 00 15 91 61 43 20 FF FF 7F CF FF [FD BRS]
0.0312730 1 D9x Rx d 13 39 13 00 15 E1 11 E8 11 A0 7A 4D A1 0F [FD BRS]
0.0359132 1 2Dx Rx d 14 6A 7B F9 05 C4 09 00 90 70 97 58 62 70 52 [FD BRS]
0.0447073 1 DBx Rx d 14 39 0E 00 20 07 29 43 31 C8 82 83 1A 3F 3B [FD BRS]
0.0043627 1 DBx Rx d 14 39 0E 00 20 85 FA 32 31 C8 82 83 1A 3F 40 [FD BRS]
0.0096719 1 DCx Rx d 14 39 10 01 10 15 46 43 30 50 00 56 12 0D 9C [FD BRS]
0.0101881 1 DBx Rx d 13 39 0F 00 15 96 3B 33 20 FF FF 7F CF FF [FD BRS]
0.0108564 1 D9x Rx d 14 39 13 01 0B 5A BA 48 55 95 00 FE 03 BA FF [FD BRS]
0.0155757 1 2Dx Rx d 14 9A EA E9 05 C4 09 00 90 70 97 58 62 70 52 [FD BRS]
0.0161000 1 D4x Rx d 10 39 0C 14 0C FF FF FF F6 FD FF [FD BRS]
0.0199423 1 18E19490x Rx d 15 01 02 00 75 0D 54 01 80 0C 10 01 BC 02 06 06 [FD BRS]
0.0208275 1 E3x Rx d 11 39 06 0B 08 49 41 51 A5 57 C3 DD [FD BRS]
0.0244896 1 DBx Rx d 14 39 0E 00 20 11 DE 33 31 C8 82 83 1A 3F 40 [FD BRS]
0.0297478 1 DCx Rx d 13 39 10 00 16 3A BA D6 AE 12 0A FA DE D4 [FD BRS]
0.0301290 1 DBx Rx d 13 39 0F 00 15 38 49 34 20 FF FF 7F CF FF [FD BRS]
0.0310313 1 D9x Rx d 13 39 13 00 15 59 B3 D9 12 A0 7B 4D A0 0F [FD BRS]
0.0355706 1 2Dx Rx d 14 BB F1 EA 05 C4 09 00 90 70 97 58 62 70 52 [FD BRS]
0.0444147 1 DBx Rx d 14 39 0E 00 20 FD 21 34 31 C8 82 83 1A 3F 40 [FD BRS]
0.0496699 1 DCx Rx d 13 39 10 00 16 1E 12 D7 AE 12 0A FA DE D4 [FD BRS]
0.0003869 1 DCx Rx d 14 39 10 01 10 15 46 43 30 50 00 26 52 0D 9C [FD BRS]
0.0009031 1 21Cx Rx d 15 11 02 01 0F 00 01 00 1D 00 4F 00 F8 02 9A 04 [FD BRS]
0.0015754 1 D9x Rx d 14 39 13 01 0B 5A BA 48 55 95 00 FE 03 BA FF [FD BRS]
0.0020876 1 DBx Rx d 13 39 0F 00 15 D8 65 15 20 FF FF 7F CF FF [FD BRS]
0.0024718 1 21Dx Rx d 3 30 40 28 [FD BRS]
0.0026249 1 21Cx Rx d 15 21 00 F8 02 9A 04 95 05 C0 05 C0 00 00 00 01 [FD BRS]
0.0063351 1 2Dx Rx d 14 65 CB CB 05 C4 09 00 90 70 97 58 62 70 52 [FD BRS]
0.0068615 1 D4x Rx d 10 39 0C 14 0C FF FF FF F7 FD FF [FD BRS]
0.0106577 1 18E19490x Rx d 15 01 02 00 75 0D 54 01 80 0C 10 01 BC 02 06 06 [FD BRS]
0.0115879 1 E3x Rx d 11 39 06 0B 08 49 41 51 25 52 C3 DD [FD BRS]
0.0152700 1 DBx Rx d 14 39 0E 00 20 22 F3 15 31 C8 82 83 1A 3F 3D [FD BRS]
0.0204613 1 DCx Rx d 13 39 10 00 16 38 A1 B8 AE 12 0A FA DE D4 [FD BRS]
0.0208404 1 DBx Rx d 13 39 0F 00 15 FE 54 16 20 FF FF 7F CF FF [FD BRS]
0.0215777 1 D9x Rx d 13 39 13 00 15 73 67 BB 11 A0 7B 0D A1 0F [FD BRS]
0.0256529 1 21Cx Rx d 15 22 C0 00 00 00 01 00 1D 00 3B 00 B2 02 36 04 [FD BRS]
0.0263360 1 2Dx Rx d 14 38 F4 CC 05 C4 09 00 90 70 97 58 62 70 52 [FD BRS]
0.0351511 1 DBx Rx d 14 39 FE 0B 08 61 00 00 00 01 00 00 00 39 0E [FD BRS]
0.0403833 1 DCx Rx d 13 39 10 00 16 1C 09 B9 AE 12 0A FA DE D4 [FD BRS]
0.0407645 1 DBx Rx d 13 39 0F 00 15 1C 44 17 20 FF FF 7F CF FF [FD BRS]
0.0411496 1 18E19490x Rx d 15 02 88 00 64 64 64 01 00 00 00 C0 12 97 F6 00 [FD BRS]
0.0418559 1 D9x Rx d 13 39 13 00 15 35 A4 BC 12 A0 7B 4D A0 0F [FD BRS]
0.0463602 1 2Dx Rx d 14 27 FD CD 05 C4 09 00 90 70 97 58 62 70 52 [FD BRS]
0.0468865 1 D4x Rx d 8 39 04 06 04 A7 D4 31 85 [FD BRS]
0.0470469 1 E3x Rx d 9 41 00 05 08 00 80 03 43 D3 [FD BRS]
0.0009150 1 DBx Rx d 14 39 0E 00 20 11 37 02 31 B8 82 83 1A 3F 3C [FD BRS]
0.0061353 1 DCx Rx d 13 39 10 00 16 41 BB A5 AE 12 0A FA DE D4 [FD BRS]
0.0065174 1 DBx Rx d 13 39 0F 00 15 95 19 03 20 FF FF 7F CF FF [FD BRS]
0.0073187 1 D9x Rx d 13 39 13 00 15 7F E9 A8 12 A0 7B 0D 9F 0F [FD BRS]
0.0121370 1 2Dx Rx d 14 E8 1C B9 05 C4 09 00 90 70 97 58 62 70 52 [FD BRS]
0.0126654 1 D4x Rx d 8 39 04 06 04 32 80 2D 85 [FD BRS]
0.0128257 1 E3x Rx d 9 41 00 05 08 00 80 03 43 D3 [FD BRS]
0.0162640 1 18E19490x Rx d 15 04 03 00 03 00 03 00 7E 36 EB 0C 7B 0D 22 01 [FD BRS]
0.0209801 1 DBx Rx d 15 39 0E 01 0F 18 36 FF FF FF FF FF FF FF FF D4 [FD BRS]
0.0220603 1 E3x Rx d 10 39 80 00 0C 00 7F B2 8F 0C 30 [FD BRS]
0.0262455 1 DCx Rx d 13 39 10 00 16 39 FE A6 AE 12 0A FA DE D0 [FD BRS]
0.0266267 1 DBx Rx d 13 39 0F 00 15 3B 6B 04 20 FF FF 7F CF FF [FD BRS]
0.0273270 1 D9x Rx d 13 39 13 00 15 8E B3 A9 12 A0 7B 0D A0 0F [FD BRS]
0.0321342 1 2Dx Rx d 14 C9 07 BA 05 C4 09 00 90 70 97 58 62 70 52 [FD BRS]
0.0326616 1 D4x Rx d 12 39 FE 1D 08 59 40 B2 08 4A 02 00 00 [FD BRS]
0.0329690 1 E3x Rx d 12 41 00 05 08 01 9A 22 09 6E 61 56 4D [FD BRS]
0.0409440 1 DBx Rx d 14 39 0F 01 06 4F 85 04 60 98 19 39 0E 00 20 [FD BRS]
0.0423702 1 4Fx Rx d 8 20 9A 07 A0 00 49 AF BC [FD BRS]
0.0461175 1 DCx Rx d 13 39 10 00 16 28 FB A7 AE 12 0A FA DE D4 [FD BRS]
0.0464996 1 44 Rx d 1 04
0.0466158 1 DBx Rx d 13 39 0F 00 15 D9 7B 05 20 FF FF 7F CF FF [FD BRS]
0.0470030 1 18E19490x Rx d 15 00 00 00 A5 55 55 55 55 05 00 00 00 00 00 00 [FD BRS]
0.0000018 1 2E7 Rx d 8 
0.0007551 1 E3x Rx d 13 39 80 00 0C 00 7F 82 8F 0C 30 B0 FE 2D [FD BRS]
0.0048423 1 DCx Rx d 13 39 10 00 16 F5 1B 92 AE 12 0A FA DE D0 [FD BRS]
0.0052225 1 DBx Rx d 13 39 0F 00 15 BC 82 F0 20 FF FF 7F CF FF [FD BRS]
0.0056097 1 18E19490x Rx d 15 01 02 00 74 0D 54 01 80 0C 10 01 BC 02 06 06 [FD BRS]
0.0063150 1 D9x Rx d 13 39 13 00 15 15 55 95 12 A0 7B 0D A0 0F [FD BRS]
0.0108263 1 2Dx Rx d 14 BD FA A6 05 C4 09 00 90 70 97 58 62 70 52 [FD BRS]
0.0113527 1 E3x Rx d 12 41 00 05 08 01 38 C0 69 24 5E A3 C5 [FD BRS]
0.0159790 1 D4x Rx d 9 39 04 0C 05 0E 0F F6 FF FF [FD BRS]
0.0196501 1 DBx Rx d 14 39 0F 01 06 4F 85 04 60 98 19 39 0E 00 20 [FD BRS]
0.0248404 1 DCx Rx d 13 39 10 00 16 D1 B3 93 AE 12 0A FA DE D0 [FD BRS]
0.0252215 1 44 Rx d 1 04
0.0253377 1 DBx Rx d 13 39 0F 00 15 5E 92 F1 20 FF FF 7F CF FF [FD BRS]
0.0272541 1 D9x Rx d 13 39 13 00 15 DB D5 96 11 A0 7B 4D A1 0F [FD BRS]
0.0308824 1 2Dx Rx d 14 A2 F3 A7 05 C4 09 00 90 70 97 58 62 70 52 [FD BRS]
0.0348706 1 18E19490x Rx d 15 02 88 00 64 64 64 01 00 00 00 DB 12 4B 00 00 [FD BRS]
0.0396157 1 DBx Rx d 14 39 0E 00 20 7D 8E F1 31 B8 82 83 1A 3F 3C [FD BRS]
0.0449119 1 DCx Rx d 14 39 10 01 10 15 46 43 00 50 00 EE 46 0C 9C [FD BRS]
0.0454281 1 DBx Rx d 13 39 0F 00 15 78 A3 F2 20 FF FF 7F CF FF [FD BRS]
0.0462724 1 D9x Rx d 14 39 13 01 0B 5A BA 48 55 95 00 FE 03 BA FF [FD BRS]
0.0006541 1 18E19490x Rx d 15 03 00 00 7B 01 7B 01 02 00 03 00 00 00 01 00 [FD BRS]
0.0018433 1 D4x Rx d 9 39 04 0C 05 0E 0F F6 FF FF [FD BRS]
0.0054724 1 DBx Rx d 14 39 0F 01 06 4F 85 04 60 98 19 39 0E 00 20 [FD BRS]
0.0107127 1 DCx Rx d 13 39 10 00 16 CB E0 7F AE 12 0A FA DE D0 [FD BRS]
0.0110979 1 44 Rx d 1 04
0.0112141 1 DBx Rx d 13 39 0F 00 15 C4 6A DD 20 FF FF 7F CF FF [FD BRS]
0.0117464 1 D9x Rx d 13 39 13 00 15 E1 1E 82 12 A0 7A 4D A2 0F [FD BRS]
0.0166986 1 2Dx Rx d 14 EF 75 93 05 C4 09 00 90 70 97 58 62 70 52 [FD BRS]
0.0254377 1 DBx Rx d 14 39 0E 00 20 F9 2B DD 30 B8 82 83 1A 3F 38 [FD BRS]
0.0305929 1 DCx Rx d 14 39 10 01 10 15 46 43 00 50 00 CE 02 0D 9C [FD BRS]
0.0311121 1 DBx Rx d 13 39 0F 00 15 E2 5B DE 20 FF FF 7F CF FF [FD BRS]
0.0314973 1 18E19490x Rx d 15 04 03 00 03 00 03 00 7E 36 EB 0C 7A 0D 22 01 [FD BRS]
0.0322206 1 D9x Rx d 14 39 13 01 0B 5A BA 48 55 95 00 FE 03 BA FF [FD BRS]
0.0366028 1 2Dx Rx d 14 B2 4A 94 05 C4 09 00 90 70 97 58 62 70 52 [FD BRS]
0.0371302 1 D4x Rx d 10 39 0C 14 0C FF FF FF F7 FD FF [FD BRS]
0.0418526 1 E3x Rx d 11 39 06 0B 08 49 41 51 25 58 83 DD [FD BRS]
0.0454857 1 DBx Rx d 14 39 0E 00 20 45 46 DE 30 B8 82 83 1A 3F 38 [FD BRS]
0.0465579 1 E3x Rx d 10 05 00 00 0C F5 FC FF 00 00 00 [FD BRS]
0.0028496 1 2Dx Rx d 14 3E FF 80 05 C4 09 00 90 70 97 58 62 70 52 [FD BRS]
0.0033809 1 D4x Rx d 10 39 0C 14 0C FF FF FF F8 FD FF [FD BRS]
0.0069691 1 18E19490x Rx d 15 01 02 00 74 0D 54 01 80 0C 10 01 BC 02 06 06 [FD BRS]
0.0082294 1 E3x Rx d 14 41 00 01 08 01 00 00 02 C4 A2 61 71 39 06 [FD BRS]
0.0117335 1 DBx Rx d 14 39 0E 00 20 D8 08 CA 30 B8 82 83 1A 3F 32 [FD BRS]
0.0168828 1 DCx Rx d 13 39 10 00 16 A8 83 6D AE 12 0A FA DE D0 [FD BRS]
0.0173339 1 DBx Rx d 13 39 0F 00 15 89 16 CB 20 FF FF 7F CF FF [FD BRS]
0.0178933 1 D9x Rx d 13 39 13 00 15 16 1D 70 12 A0 79 4D A1 0F [FD BRS]
0.0228465 1 2Dx Rx d 14 21 F6 81 05 C4 09 00 90 70 97 58 62 70 52 [FD BRS]
0.0281189 1 E3x Rx d 9 41 00 01 08 02 2F 00 00 02 [FD BRS]
0.0317360 1 DBx Rx d 14 39 0E 00 20 3C C4 CB 30 B8 82 83 1A 3F 30 [FD BRS]
0.0367922 1 DCx Rx d 13 39 10 00 16 E5 6B 6E AE 12 0A FA DE D0 [FD BRS]
0.0371745 1 18E19490x Rx d 15 02 88 00 64 64 64 01 00 00 00 84 12 FA FA 00 [FD BRS]
0.0378807 1 DBx Rx d 13 39 0F 00 15 27 64 CC 20 FF FF 7F CF FF [FD BRS]
0.0382670 1 D9x Rx d 13 39 13 00 15 E2 AB 71 12 A0 79 8D 9F 0F [FD BRS]
0.0428713 1 2Dx Rx d 14 00 ED 82 05 C4 09 00 90 70 97 58 62 70 52 [FD BRS]
0.0433996 1 D4x Rx d 8 39 04 06 04 DC 54 22 85 [FD BRS]
0.0435590 1 E3x Rx d 12 41 00 05 08 00 80 03 43 D3 79 E2 22 [FD BRS]
0.0003400 1 18E19490x Rx d 15 03 00 00 85 01 85 01 02 00 03 00 00 00 01 00 [FD BRS]
0.0010593 1 D9x Rx d 13 39 13 00 15 5A 6B 5C 12 A0 7A 4D A0 0F [FD BRS]
0.0056326 1 2Dx Rx d 14 E2 01 6D 05 C4 09 00 90 70 97 58 62 70 52 [FD BRS]
0.0144816 1 DBx Rx d 14 39 0E 00 20 7D 30 B7 30 B8 82 83 1A 3F 38 [FD BRS]
0.0195509 1 DCx Rx d 13 39 10 00 16 29 8E 5A AE 12 0A FA DE D0 [FD BRS]
0.0200531 1 DBx Rx d 13 39 0F 00 15 A8 7D B8 20 FF FF 7F CF FF [FD BRS]
0.0209774 1 D9x Rx d 13 39 13 00 15 0B 84 5D 12 A0 7A CD 9F 0F [FD BRS]
0.0213546 1 E3x Rx d 12 41 00 00 08 00 57 31 4B 41 46 35 45 [FD BRS]
0.0256700 1 2Dx Rx d 14 C3 1A 6E 05 C4 09 00 90 70 97 58 62 70 52 [FD BRS]
0.0261943 1 D4x Rx d 8 39 04 06 04 07 37 1E 85 [FD BRS]
0.0296186 1 18E19490x Rx d 15 04 03 00 03 00 03 00 7E 36 ED 0C 7A 0D 22 01 [FD BRS]
0.0344917 1 DBx Rx d 15 39 0E 01 0F 18 36 FF FF FF FF FF FF FF FF D4 [FD BRS]
0.0356379 1 E3x Rx d 9 41 00 00 08 01 42 31 50 52 [FD BRS]
0.0396491 1 DCx Rx d 13 39 10 00 16 0D 26 5B AE 12 0A FA DE D0 [FD BRS]
0.0400333 1 DBx Rx d 13 39 0F 00 15 4A 6D B9 20 FF FF 7F CF FF [FD BRS]
0.0407986 1 D9x Rx d 13 39 13 00 15 EE A5 5E 12 A0 7A 8D A0 0F [FD BRS]
0.0456769 1 2Dx Rx d 14 DC 13 6F 05 C4 09 00 90 70 97 58 62 70 52 [FD BRS]
0.0462042 1 E3x Rx d 12 41 00 05 08 01 6E A1 23 27 58 68 FC [FD BRS]
0.0040877 1 2Dx Rx d 14 AF 87 59 05 C4 09 00 90 70 97 58 62 70 52 [FD BRS]
0.0046140 1 4Fx Rx d 8 28 B7 03 00 04 19 1B D0 [FD BRS]
0.0080322 1 18E19490x Rx d 15 00 00 00 A5 55 55 55 55 05 00 00 00 00 00 00 [FD BRS]
0.0129473 1 DBx Rx d 14 39 0E 00 20 04 6C A3 31 B8 82 83 1A 3F 3D [FD BRS]
0.0180396 1 DCx Rx d 13 39 10 00 16 74 3C 46 AE 12 0A FA DE D0 [FD BRS]
0.0185007 1 DBx Rx d 13 39 0F 00 15 31 A7 A4 20 FF FF 7F CF FF [FD BRS]
0.0192300 1 D9x Rx d 13 39 13 00 15 12 BC 49 13 A0 7B 4D 9E 0F [FD BRS]
0.0241173 1 2Dx Rx d 14 8E 9C 5A 05 C4 09 00 90 70 97 58 62 70 52 [FD BRS]
0.0246426 1 D4x Rx d 8 39 04 06 04 F6 FD 1A 85 [FD BRS]
0.0248030 1 E3x Rx d 9 41 00 05 08 00 80 03 43 D3 [FD BRS]
0.0329610 1 DBx Rx d 15 39 0E 01 0F 18 36 FF FF FF FF FF FF FF FF D4 [FD BRS]
0.0379973 1 DCx Rx d 13 39 10 00 16 65 39 47 AE 12 0A FA DE D4 [FD BRS]
0.0383774 1 DBx Rx d 13 39 0F 00 15 D3 B7 A5 20 FF FF 7F CF FF [FD BRS]
0.0387636 1 18E19490x Rx d 15 01 02 00 75 0D 54 01 80 0C 10 01 BC 02 06 06 [FD BRS]
0.0394689 1 D9x Rx d 13 39 13 00 15 06 83 4A 12 A0 7B 8D A0 0F [FD BRS]
0.0441402 1 2Dx Rx d 14 91 95 5B 05 C4 09 00 90 70 97 58 62 70 52 [FD BRS]
0.0446675 1 E3x Rx d 12 41 00 05 08 01 94 C5 33 D2 2B 12 6D [FD BRS]
0.0492839 1 D4x Rx d 14 39 04 0C 05 0E 0F F6 FF FF 39 15 01 14 46 [FD BRS]
0.0498163 1 DC085B Rx d 8 40 03 08 04 00 00
0.0019142 1 DBx Rx d 14 39 0E 00 20 EC 8F 8E 30 B8 82 83 1A 3F 39 [FD BRS]
0.0030104 1 E3x Rx d 10 05 00 00 0C F5 FC FF 00 00 00 [FD BRS]
0.0069346 1 DCx Rx d 13 39 10 00 16 DD BD 31 AE 12 0A FA DE D0 [FD BRS]
0.0075348 1 DBx Rx d 13 39 0F 00 15 05 2D 8F 20 FF FF 7F CF FF [FD BRS]
0.0079261 1 D9x Rx d 13 39 13 00 15 4C A8 34 12 A0 7A 4D A0 0F [FD BRS]
0.0129953 1 2Dx Rx d 14 DB 7A 45 05 C4 09 00 90 70 97 58 62 70 52 [FD BRS]
0.0218644 1 DBx Rx d 14 39 0E 00 20 B5 10 8F 30 B8 82 83 1A 3F 3B [FD BRS]
0.0268446 1 DCx Rx d 13 39 10 00 16 90 55 32 AE 12 0A FA DE D0 [FD BRS]
0.0272299 1 18E19490x Rx d 15 02 88 00 64 64 64 01 00 00 00 AC 12 4A F6 00 [FD BRS]
0.0279371 1 DBx Rx d 13 39 0F 00 15 BA C6 90 20 FF FF 7F CF FF [FD BRS]
0.0283244 1 D9x Rx d 13 39 13 00 15 B8 1E 35 12 A0 7A 8D 9E 0F [FD BRS]
0.0330307 1 2Dx Rx d 14 FA 61 46 05 C4 09 00 90 70 97 58 62 70 52 [FD BRS]
0.0335570 1 D4x Rx d 8 39 04 06 04 C4 B2 16 85 [FD BRS]
0.0337164 1 E3x Rx d 13 41 00 05 08 00 80 03 43 D3 79 6B 97 32 [FD BRS]
0.0418785 1 DBx Rx d 15 39 0E 01 0F 18 36 FF FF FF FF FF FF FF FF D4 [FD BRS]
0.0468777 1 DCx Rx d 13 39 10 00 16 81 50 33 AE 12 0A FA DE D4 [FD BRS]
0.0472739 1 DBx Rx d 13 39 0F 00 15 58 D6 91 20 FF FF 7F CF FF [FD BRS]
0.0479472 1 D9x Rx d 13 39 13 00 15 5A 0D 36 12 A0 7B CD 9F 0F [FD BRS]
0.0020088 1 18E19490x Rx d 15 02 88 00 64 64 64 01 00 00 00 DE 12 97 F6 00 [FD BRS]
0.0070239 1 DBx Rx d 14 39 0E 00 20 2C FC 79 30 B8 82 83 1A 3F 35 [FD BRS]
0.0120302 1 DCx Rx d 14 39 10 01 10 15 46 43 32 50 00 2E 12 0D 9C [FD BRS]
0.0125454 1 DBx Rx d 13 39 0F 00 15 60 D4 7A 20 FF FF 7F CF FF [FD BRS]
0.0132477 1 D9x Rx d 14 39 13 01 0B 5A BA 48 55 95 00 FE 03 BA FF [FD BRS]
0.0181539 1 2Dx Rx d 14 7D 89 30 05 C4 09 00 90 70 97 58 22 70 52 [FD BRS]
0.0186823 1 D4x Rx d 10 39 0C 14 0C FF FF FF F7 FD FF [FD BRS]
0.0234047 1 E3x Rx d 11 39 06 0B 08 49 41 51 25 53 83 DD [FD BRS]
0.0270738 1 DBx Rx d 14 39 0E 00 20 5D 2A 7A 30 B8 82 83 1A 3F 37 [FD BRS]
0.0281060 1 E3x Rx d 10 05 00 00 0C F5 FC FF 00 00 00 [FD BRS]
0.0319803 1 DCx Rx d 13 39 10 00 16 9E 6A 1D AE 12 0A FA DE D0 [FD BRS]
0.0323616 1 18E19490x Rx d 15 03 00 00 7A 01 7A 01 02 00 03 00 00 00 00 00 [FD BRS]
0.0330798 1 D9x Rx d 13 39 13 00 15 2D 44 20 11 A0 7A 0D A1 0F [FD BRS]
0.0334571 1 DBx Rx d 13 39 0F 00 15 82 C4 7B 20 FF FF 7F CF FF [FD BRS]
0.0381543 1 2Dx Rx d 14 14 9B 31 05 C4 09 00 90 70 97 58 62 70 52 [FD BRS]
0.0470223 1 DBx Rx d 14 39 0E 00 20 C9 1D 7B 30 B8 82 83 1A 3F 39 [FD BRS]
0.0040099 1 DCx Rx d 13 39 10 00 16 78 18 07 AE 12 0A FA DE D0 [FD BRS]
0.0045041 1 44 Rx d 1 04
0.0046203 1 DBx Rx d 13 39 0F 00 15 DF 3F 65 20 FF FF 7F CF FF [FD BRS]
0.0051106 1 D9x Rx d 13 39 13 00 15 FB DE 0A 11 A0 7A 0D A1 0F [FD BRS]
0.0102738 1 2Dx Rx d 14 65 E9 1B 05 C4 09 00 90 70 97 58 22 70 52 [FD BRS]
0.0138900 1 DC08E2 Rx d 8 40 02 00 00 00 00 00 00
0.0141803 1 DCx Rx d 9 39 FE 6F 08 94 01 00 80 01 [FD BRS]
0.0155566 1 E3x Rx d 11 41 00 01 08 00 0D 07 00 00 00 00 [FD BRS]
0.0190597 1 DBx Rx d 14 39 0E 00 20 FD 2E 65 30 B8 82 83 1A 3F 33 [FD BRS]
0.0239469 1 DCx Rx d 14 39 10 01 10 15 46 43 30 50 00 0E 16 0D 9C [FD BRS]
0.0244662 1 18E19490x Rx d 15 04 03 00 03 00 02 00 7E 36 EB 0C 7A 0D 22 01 [FD BRS]
0.0251904 1 D9x Rx d 14 39 13 01 0B 5A BA 48 55 95 00 FE 03 BA FF [FD BRS]
0.0257027 1 DBx Rx d 13 39 0F 00 15 F9 0E 66 20 FF FF 7F CF FF [FD BRS]
0.0301840 1 2Dx Rx d 14 38 D6 1C 05 C4 09 00 90 70 97 58 22 70 52 [FD BRS]
0.0307113 1 D4x Rx d 10 39 0C 14 0C FF FF FF F8 FD FF [FD BRS]
0.0354197 1 E3x Rx d 13 41 00 01 08 01 00 00 02 C4 A2 61 71 39 [FD BRS]
0.0391018 1 DBx Rx d 14 39 0E 00 20 EF EC 66 30 A8 82 83 1A 3F 34 [FD BRS]
0.0401200 1 E3x Rx d 10 05 00 00 0C F5 FC FF 00 00 00 [FD BRS]
0.0439672 1 DCx Rx d 13 39 10 00 16 46 C9 09 AE 12 0A FA DE D0 [FD BRS]
0.0446784 1 DBx Rx d 13 39 0F 00 15 1B 1E 67 20 FF FF 7F CF FF [FD BRS]
0.0450637 1 D9x Rx d 13 39 13 00 15 2F E2 0C 12 A0 7A 8D A0 0F [FD BRS]
0.0004931 1 D9x Rx d 13 39 13 00 15 C2 C2 F1 11 A0 7A 0D A1 0F [FD BRS]
0.0044003 1 2Dx Rx d 14 04 22 02 05 C4 09 00 90 70 97 58 62 70 52 [FD BRS]
0.0080695 1 18E19490x Rx d 15 02 88 00 64 64 64 01 00 00 00 DC 12 E4 C1 00 [FD BRS]
0.0131847 1 DBx Rx d 14 39 0E 00 20 6A C2 4C 30 B8 82 83 1A 3F 3E [FD BRS]
0.0180919 1 DCx Rx d 14 39 10 01 10 15 46 43 00 50 00 E6 42 0C 9C [FD BRS]
0.0186100 1 21Cx Rx d 15 11 02 01 0D 73 80 76 3C 7A 24 7E 0C 81 F4 85 [FD BRS]
0.0192954 1 D9x Rx d 14 39 13 01 0B 5A BA 48 55 95 00 FE 03 BA FF [FD BRS]
0.0198086 1 DBx Rx d 13 39 0F 00 15 CD 84 4D 20 FF FF 7F CF FF [FD BRS]
0.0201978 1 21Dx Rx d 3 30 40 28 [FD BRS]
0.0203509 1 21Cx Rx d 15 21 00 00 00 00 00 00 00 00 00 00 00 00 00 00 [FD BRS]
0.0243131 1 2Dx Rx d 14 1B 2B 03 05 C4 09 00 90 70 97 58 62 70 52 [FD BRS]
0.0248425 1 D4x Rx d 10 39 0C 14 0C FF FF FF F7 FD FF [FD BRS]
0.0295389 1 E3x Rx d 11 39 06 0B 08 49 41 51 25 56 83 DD [FD BRS]
0.0332850 1 DBx Rx d 14 39 0E 00 20 6E 26 4D 31 B8 82 83 1A 3F 3F [FD BRS]
0.0380422 1 DCx Rx d 13 39 10 00 16 A0 91 F0 AE 12 0A FA DE D0 [FD BRS]
0.0384256 1 18E19490x Rx d 15 03 00 00 7E 01 7E 01 02 00 03 00 00 00 01 00 [FD BRS]
0.0391458 1 DBx Rx d 13 39 0F 00 15 EB B5 4E 20 FF FF 7F CF FF [FD BRS]
0.0395311 1 D9x Rx d 13 39 13 00 15 62 74 F3 11 A0 7B CD A0 0F [FD BRS]
0.0434242 1 21Cx Rx d 15 22 00 00 00 00 00 00 00 00 00 00 00 00 00 00 [FD BRS]
0.0443264 1 2Dx Rx d 14 46 14 04 05 C4 09 00 90 70 97 58 62 70 52 [FD BRS]
0.0028324 1 DBx Rx d 14 39 0F 01 06 50 85 04 60 78 19 39 0E 00 20 [FD BRS]
0.0075846 1 DCx Rx d 13 39 10 00 16 42 FF D5 AE 12 0A FA DE D0 [FD BRS]
0.0079670 1 18E19490x Rx d 15 00 00 00 A5 55 55 55 55 05 00 00 00 00 00 00 [FD BRS]
0.0086721 1 44 Rx d 1 04
0.0087883 1 DBx Rx d 13 39 0F 00 15 96 3B 33 20 FF FF 7F CF FF [FD BRS]
0.0102987 1 D9x Rx d 13 39 13 00 15 92 DC D8 11 A0 7A 8D A1 0F [FD BRS]
0.0140119 1 2Dx Rx d 14 9A EA E9 05 C4 09 00 90 70 97 58 62 70 52 [FD BRS]
0.0175291 1 DC08E2 Rx d 8 40 02 00 00 00 00 00 00
0.0178194 1 DCx Rx d 9 39 FE 37 84 4A 00 80 40 00 [FD BRS]
0.0192816 1 E3x Rx d 11 41 00 01 08 00 0D 07 00 00 00 00 [FD BRS]
0.0228268 1 DBx Rx d 14 39 0E 00 20 DC CE 33 30 B8 82 83 1A 3F 39 [FD BRS]
0.0275970 1 DCx Rx d 14 39 10 01 10 15 46 43 00 50 00 BE 12 0D 9C [FD BRS]
0.0282852 1 DBx Rx d 13 39 0F 00 15 38 49 34 20 FF FF 7F CF FF [FD BRS]
0.0289105 1 D9x Rx d 14 39 13 01 0B 5A BA 48 55 95 00 FE 03 BA FF [FD BRS]
0.0339218 1 2Dx Rx d 14 BB F1 EA 05 C4 09 00 90 70 97 58 62 70 52 [FD BRS]
0.0344481 1 D4x Rx d 10 39 0C 14 0C FF FF FF F7 FD FF [FD BRS]
0.0377383 1 18E19490x Rx d 15 01 02 00 74 0D 54 01 80 0C 10 01 BC 02 06 06 [FD BRS]
0.0391835 1 E3x Rx d 13 41 00 01 08 01 00 00 02 C4 A2 61 71 39 [FD BRS]
0.0428576 1 E18B449 Rx d 10 6B 22 99 6C E4 19 97 A1
0.0438768 1 E3x Rx d 10 05 00 00 0C F5 FC FF 00 00 00 [FD BRS]
0.0476751 1 DCx Rx d 13 39 10 00 16 2B BF D7 AE 12 0A FA DE D0 [FD BRS]
0.0483792 1 DBx Rx d 13 39 0F 00 15 DA 59 35 20 FF FF 7F CF FF [FD BRS]
0.0487645 1 D9x Rx d 13 39 13 00 15 53 11 DA 11 A0 7A 4D A0 0F [FD BRS]
0.0022312 1 DCx Rx d 13 39 10 00 16 D3 96 C8 AE 12 0A FA DE CC [FD BRS]
0.0029984 1 DBx Rx d 13 39 0F 00 15 FD 76 26 20 FF FF 7F CF FF [FD BRS]
0.0033857 1 D9x Rx d 13 39 13 00 15 B3 27 CB 11 A0 79 CD A0 0F [FD BRS]
0.0085019 1 2Dx Rx d 14 C8 65 DC 05 C4 09 00 90 70 97 58 62 70 52 [FD BRS]
0.0090303 1 4Fx Rx d 8 28 61 0E 00 21 E7 46 94 [FD BRS]
0.0091926 1 E3x Rx d 9 02 80 00 08 FE 30 AA 01 83 [FD BRS]
0.0008700 1 DBx Rx d 14 39 0E 00 20 52 11 1A 2F A8 82 83 1A 3F 2C [FD BRS]
0.0055993 1 DCx Rx d 14 39 10 01 10 15 46 43 00 50 00 96 06 0C 9C [FD BRS]
0.0038025 1 DCx Rx d 14 39 10 01 10 15 46 43 30 50 00 76 06 0C 9C [FD BRS]
0.0045996 1 DBx Rx d 13 39 0F 00 15 1D 5A 07 20 FF FF 7F CF FF [FD BRS]
0.0051199 1 D9x Rx d 14 39 13 01 0B 5A BA 48 55 95 00 FE 03 BA FF [FD BRS]
0.0102062 1 2Dx Rx d 14 94 38 BD 05 C4 09 00 90 70 97 58 62 70 52 [FD BRS]
0.0107316 1 D4x Rx d 10 39 0C 14 0C FF FF FF F8 FD FF [FD BRS]
0.0139558 1 18E19490x Rx d 15 01 01 00 73 0D 54 01 80 0C 10 01 BC 02 06 06 [FD BRS]
0.0154700 1 E3x Rx d 11 39 06 0B 08 47 41 51 25 4D 83 DD [FD BRS]
0.0192131 1 DBx Rx d 14 39 0E 00 20 99 08 07 30 A8 82 83 1A 3F 30 [FD BRS]
0.0238834 1 DCx Rx d 13 39 10 00 16 86 1C AA AE 12 0A FA DE CC [FD BRS]
0.0246566 1 DA Rx d 11 A3 27 E6 13 6D DB 6D B6
0.0250468 1 D9x Rx d 13 39 13 00 15 5F 60 AD 11 A0 7A 0D A1 0F [FD BRS]
0.0302131 1 2Dx Rx d 14 B5 23 BE 05 C4 09 00 90 70 97 58 62 70 52 [FD BRS]
0.0391101 1 DBx Rx d 14 39 0E 00 20 39 5E 08 30 A8 82 83 1A 3F 2E [FD BRS]
0.0437944 1 DCx Rx d 13 39 10 00 16 A2 B4 AB AE 12 0A FA DE CC [FD BRS]
0.0441747 1 18E19490x Rx d 15 02 88 00 64 64 64 01 00 00 00 AD 12 4B 00 00 [FD BRS]
0.0448808 1 DBx Rx d 13 39 0F 00 15 41 BF 09 20 FF FF 7F CF FF [FD BRS]
0.0452681 1 D9x Rx d 13 39 13 00 15 6C CF AE 11 A0 79 4D 9F 0F [FD BRS]
0.0043728 1 DCx Rx d 14 39 10 01 10 15 46 43 38 50 00 5E 06 0D 9C [FD BRS]
0.0052030 1 DBx Rx d 13 39 0F 00 15 AC 05 F8 20 FF FF 7F CF FF [FD BRS]
0.0057023 1 D9x Rx d 14 39 13 01 0B 5A BA 48 55 95 00 FE 03 BA FF [FD BRS]
0.0107965 1 2Dx Rx d 14 45 B2 AE 05 C4 09 00 90 70 97 58 62 70 52 [FD BRS]
0.0113219 1 D4x Rx d 10 39 0C 14 0C FF FF FF F8 FD FF [FD BRS]
0.0145342 1 18E19490x Rx d 15 01 01 00 73 0D 54 01 80 0C 10 01 BC 02 06 06 [FD BRS]
0.0161834 1 E3x Rx d 14 39 06 0B 08 47 41 51 25 4E 83 DD FF 00 80 [FD BRS]
0.0197645 1 DBx Rx d 14 39 0E 00 20 93 FC F8 30 A8 82 83 1A 3F 2F [FD BRS]
0.0244547 1 DCx Rx d 13 39 10 00 16 BC D1 9B AE 12 0A FA DE CC [FD BRS]
0.0008134 1 D4x Rx d 9 39 04 0C 05 0E 0F F6 FF FF [FD BRS]
0.0045805 1 DBx Rx d 14 39 0F 01 06 50 85 04 60 5C 19 39 0E 00 20 [FD BRS]
0.0091627 1 DCx Rx d 13 39 10 00 16 88 23 85 AE 12 0A FA DE CC [FD BRS]
0.0099449 1 44 Rx d 1 04
0.0100611 1 DBx Rx d 13 39 0F 00 15 9B AD E3 20 FF FF 7F CF FF [FD BRS]
0.0113504 1 D9x Rx d 13 39 13 00 15 08 BF 88 11 A0 7A 8D A2 0F [FD BRS]
0.0157237 1 2Dx Rx d 14 29 2F 99 05 C4 09 00 90 70 97 58 62 70 52 [FD BRS]
0.0191979 1 18E19490x Rx d 15 02 88 00 64 64 64 01 00 00 00 DB 12 06 E8 00 [FD BRS]
0.0245430 1 DBx Rx d 14 39 0E 00 20 74 99 E3 30 B8 82 83 1A 3F 32 [FD BRS]
0.0292203 1 DCx Rx d 14 39 10 01 10 15 46 43 39 50 00 3E 06 0C 9C [FD BRS]
0.0300314 1 DBx Rx d 13 39 0F 00 15 35 DF E4 20 FF FF 7F CF FF [FD BRS]
0.0304177 1 D9x Rx d 14 39 13 01 0B 5A BA 48 55 95 00 FE 03 BA FF [FD BRS]
0.0356190 1 2Dx Rx d 14 08 34 9A 05 C4 09 00 90 70 97 58 62 70 52 [FD BRS]
0.0361474 1 D4x Rx d 10 39 0C 14 0C FF FF FF F8 FD FF [FD BRS]
0.0408677 1 E3x Rx d 14 39 06 0B 08 47 41 51 25 4E 83 DD FF 00 80 [FD BRS]
0.0446428 1 DBx Rx d 14 39 0E 00 20 98 66 E4 30 B8 82 83 1A 3F 32 [FD BRS]
0.0491701 1 DCx Rx d 13 39 10 00 16 E1 63 87 AE 12 0A FA DE CC [FD BRS]
0.0008200 1 2Dx Rx d 14 4F AF 7A 05 C4 09 00 90 70 97 58 62 70 52 [FD BRS]
0.0013474 1 E3x Rx d 12 41 00 05 08 01 50 7F BE 24 17 B4 26 [FD BRS]
0.0059708 1 D4x Rx d 9 39 04 0C 05 0E 0F F6 FF FF [FD BRS]
0.0097479 1 DBx Rx d 14 39 0F 01 06 50 85 04 60 20 19 39 0E 00 20 [FD BRS]
0.0142662 1 DCx Rx d 13 39 10 00 16 44 D2 67 AE 12 0A FA DE D0 [FD BRS]
0.0150984 1 44 Rx d 1 04
0.0152145 1 DBx Rx d 13 39 0F 00 15 D5 F3 C5 20 FF FF 7F CF FF [FD BRS]
0.0164609 1 D9x Rx d 13 39 13 00 15 62 9F 6A 11 A0 7A 0D A2 0F [FD BRS]
0.0208752 1 2Dx Rx d 14 50 A6 7B 05 C4 09 00 90 70 97 58 62 70 52 [FD BRS]
0.0243024 1 18E19490x Rx d 15 02 88 00 64 64 64 01 00 00 00 81 12 ED DE 00 [FD BRS]
0.0297105 1 DBx Rx d 14 39 0E 00 20 88 99 C5 30 B8 82 83 1A 3F 35 [FD BRS]
0.0343227 1 DCx Rx d 14 39 10 01 10 15 46 43 30 50 00 0E 16 0D 9C [FD BRS]
0.0351979 1 DBx Rx d 13 39 0F 00 15 F3 C2 C6 20 FF FF 7F CF FF [FD BRS]
0.0357892 1 D9x Rx d 14 39 13 01 0B 5A BA 48 55 95 00 FE 03 BA FF [FD BRS]
0.0407815 1 2Dx Rx d 14 0D 99 7C 05 C4 09 00 90 70 97 58 62 70 52 [FD BRS]
0.0413099 1 D4x Rx d 10 39 0C 14 0C FF FF FF F8 FD FF [FD BRS]
0.0011870 1 DCx Rx d 13 39 10 00 16 2D AC 50 AE 12 0A FA DE CC [FD BRS]
0.0021061 1 DBx Rx d 13 39 0F 00 15 E5 01 AE 20 FF FF 7F CF FF [FD BRS]
0.0024924 1 D9x Rx d 13 39 13 00 15 A9 76 53 11 A0 7A 4D A0 0F [FD BRS]
0.0076037 1 2Dx Rx d 14 73 5B 64 05 C4 09 00 90 70 97 58 22 70 52 [FD BRS]
0.0165637 1 DBx Rx d 14 39 0E 00 20 9A BB AE 30 B8 82 83 1A 3F 33 [FD BRS]
0.0210590 1 DCx Rx d 13 39 10 00 16 09 04 51 AE 12 0A FA DE CC [FD BRS]
0.0214423 1 18E19490x Rx d 15 02 88 00 64 64 64 01 00 00 00 93 12 06 E8 00 [FD BRS]
0.0221465 1 DBx Rx d 13 39 0F 00 15 07 11 AF 20 FF FF 7F CF FF [FD BRS]
0.0225348 1 D9x Rx d 13 39 13 00 15 67 99 54 11 A0 79 0D 9F 0F [FD BRS]
0.0276531 1 2Dx Rx d 14 6C 52 65 05 C4 09 00 90 70 97 58 22 70 52 [FD BRS]
0.0281794 1 D4x Rx d 8 39 04 06 04 67 F9 E9 85 [FD BRS]
0.0283398 1 E3x Rx d 9 41 00 05 08 00 80 03 43 D3 [FD BRS]
0.0365758 1 DBx Rx d 15 39 0E 01 0F 0C 36 FF FF FF FF FF FF FF FF D4 [FD BRS]
0.0375900 1 E3x Rx d 10 39 80 00 0C 00 7F 81 8F 0D 30 [FD BRS]
0.0410902 1 DCx Rx d 13 39 10 00 16 44 EC 52 AE 12 0A FA DE CC [FD BRS]
0.0422594 1 DBx Rx d 13 39 0F 00 15 B8 FA B0 20 FF FF 7F CF FF [FD BRS]
0.0426477 1 D9x Rx d 13 39 13 00 15 D8 13 55 12 A0 7A 8D A0 0F [FD BRS]
0.0476490 1 2Dx Rx d 14 4D 49 66 05 C4 09 00 90 70 97 58 22 70 52 [FD BRS]
0.0481743 1 E3x Rx d 12 41 00 05 08 01 DC 7B BF DC EC FD BD [FD BRS]
0.0001388 1 D9x Rx d 13 39 13 00 15 A6 C0 40 12 A0 79 CD 9E 0F [FD BRS]
0.0052660 1 2Dx Rx d 14 57 CF 51 05 C4 09 00 90 70 97 58 62 70 52 [FD BRS]
0.0057924 1 D4x Rx d 8 39 04 06 04 55 B6 E5 85 [FD BRS]
0.0087709 1 18E19490x Rx d 15 04 03 00 03 00 03 00 7E 36 ED 0C 7A 0D 22 01 [FD BRS]
0.0141841 1 DBx Rx d 15 39 0E 01 0F 0C 36 FF FF FF FF FF FF FF FF D4 [FD BRS]
0.0186653 1 DCx Rx d 13 39 10 00 16 2F B7 3E AE 12 0A FA DE CC [FD BRS]
0.0198554 1 DBx Rx d 13 39 0F 00 15 22 02 9C 20 FF FF 7F CF FF [FD BRS]
0.0202428 1 D9x Rx d 13 39 13 00 15 92 5E 41 12 A0 7A CD 9F 0F [FD BRS]
0.0206220 1 E3x Rx d 13 39 80 00 0C 00 7F 81 8F 0D 30 B0 FE 85 [FD BRS]
0.0252394 1 2Dx Rx d 14 76 D4 52 05 C4 09 00 90 70 97 58 62 70 52 [FD BRS]
0.0304128 1 D4x Rx d 9 39 04 0C 05 0E 0F F6 FF FF [FD BRS]
0.0306122 1 E3x Rx d 9 39 04 22 08 00 41 86 7E 78 [FD BRS]
0.0342103 1 DBx Rx d 14 39 0F 01 06 50 85 04 60 30 18 39 0E 00 20 [FD BRS]
0.0385915 1 DCx Rx d 13 39 10 00 16 0B 1F 3F AE 12 0A FA DE CC [FD BRS]
0.0389748 1 18E19490x Rx d 15 00 00 00 A5 55 55 55 55 05 00 00 00 00 00 00 [FD BRS]
0.0396790 1 44 Rx d 1 04
0.0397952 1 DBx Rx d 13 39 0F 00 15 C0 12 9D 20 FF FF 7F CF FF [FD BRS]
0.0413216 1 D9x Rx d 13 39 13 00 15 ED 96 42 12 A0 7A 4D A2 0F [FD BRS]
0.0453158 1 2Dx Rx d 14 69 DD 53 05 C4 09 00 90 70 97 58 62 70 52 [FD BRS]
0.0458412 1 E3x Rx d 9 41 00 01 08 00 0D 07 00 00 [FD BRS]
0.0486774 1 DC08E2 Rx d 8 40 02 00 00 00 00 00 00
0.0489678 1 DCx Rx d 9 39 FE 6F 08 94 01 00 80 01 [FD BRS]
0.0002516 1 2Dx Rx d 14 A7 5E 41 05 C4 09 00 90 70 97 58 62 70 52 [FD BRS]
0.0092047 1 DBx Rx d 14 39 0E 00 20 AE 17 8B 30 B8 82 83 1A 3F 34 [FD BRS]
0.0135739 1 DCx Rx d 13 39 10 00 16 25 94 2E AE 12 0A FA DE CC [FD BRS]
0.0147830 1 DBx Rx d 13 39 0F 00 15 23 1C 8C 20 FF FF 7F CF FF [FD BRS]
0.0151923 1 D9x Rx d 13 39 13 00 15 F6 A1 31 12 A0 7A 0D A0 0F [FD BRS]
0.0156466 1 E3x Rx d 12 41 00 00 08 00 57 31 4B 41 46 35 45 [FD BRS]
0.0202780 1 2Dx Rx d 14 86 45 42 05 C4 09 00 90 70 97 58 62 70 52 [FD BRS]
0.0208033 1 D4x Rx d 8 39 04 06 04 78 E7 E2 85 [FD BRS]
0.0237795 1 18E19490x Rx d 15 04 03 00 03 00 02 00 7E 36 ED 0C 79 0D 22 01 [FD BRS]
0.0292146 1 DBx Rx d 15 39 0E 01 0F 08 36 FF FF FF FF FF FF FF FF D4 [FD BRS]
0.0302648 1 E3x Rx d 9 41 00 00 08 01 42 31 50 52 [FD BRS]
0.0336720 1 DCx Rx d 13 39 10 00 16 01 3C 2F AE 12 0A FA DE CC [FD BRS]
0.0348832 1 DBx Rx d 13 39 0F 00 15 C1 0C 8D 20 FF FF 7F CF FF [FD BRS]
0.0352705 1 D9x Rx d 13 39 13 00 15 00 CA 32 12 A0 7A 4D A0 0F [FD BRS]
0.0402948 1 2Dx Rx d 14 99 4C 43 05 C4 09 00 90 70 97 58 62 70 52 [FD BRS]
0.0408191 1 E3x Rx d 12 41 00 05 08 01 74 90 42 4A FF 28 1C [FD BRS]
0.0454425 1 D4x Rx d 14 39 04 0C 05 0E 0F F6 FF FF 39 15 01 14 46 [FD BRS]
0.0492326 1 DBx Rx d 14 39 0E 00 20 22 04 8D 30 B8 82 83 1A 3F 33 [FD BRS]
0.0005297 1 DBx Rx d 14 39 0E 00 20 66 57 7A 30 B8 82 83 1A 3F 3A [FD BRS]
0.0049369 1 DCx Rx d 14 39 10 01 10 15 46 43 00 50 00 96 06 0C 9C [FD BRS]
0.0060170 1 DBx Rx d 13 39 0F 00 15 82 C4 7B 20 FF FF 7F CF FF [FD BRS]
0.0064043 1 D9x Rx d 14 39 13 01 0B 5A BA 48 55 95 00 FE 03 BA FF [FD BRS]
0.0115666 1 2Dx Rx d 14 14 9B 31 05 C4 09 00 90 70 97 58 62 70 52 [FD BRS]
0.0120930 1 D4x Rx d 10 39 0C 14 0C FF FF FF F7 FD FF [FD BRS]
0.0167853 1 E3x Rx d 11 39 06 0B 08 47 41 51 A5 52 43 DD [FD BRS]
0.0206294 1 DBx Rx d 14 39 0E 00 20 4F 20 7B 30 B8 82 83 1A 3F 3A [FD BRS]
0.0249527 1 DCx Rx d 13 39 10 00 16 D3 82 1E AE 12 0A FA DE D0 [FD BRS]
0.0253360 1 18E19490x Rx d 15 03 00 00 7E 01 7E 01 02 00 03 00 00 00 00 00 [FD BRS]
0.0260732 1 DBx Rx d 13 39 0F 00 15 2C B6 7C 20 FF FF 7F CF FF [FD BRS]
0.0264615 1 D9x Rx d 13 39 13 00 15 82 BC 21 12 A0 7A 0D A1 0F [FD BRS]
0.0315657 1 2Dx Rx d 14 35 80 32 05 C4 09 00 90 70 97 58 62 70 52 [FD BRS]
0.0405288 1 DBx Rx d 14 39 0E 00 20 A3 DF 7C 30 B8 82 83 1A 3F 3A [FD BRS]
0.0448720 1 DCx Rx d 13 39 10 00 16 F7 2A 1F AE 12 0A FA DE D0 [FD BRS]
0.0461111 1 DBx Rx d 13 39 0F 00 15 CE A6 7D 20 FF FF 7F CF FF [FD BRS]
0.0464964 1 D9x Rx d 13 39 13 00 15 9C 66 22 11 A0 7A 0D A0 0F [FD BRS]
0.0003387 1 18E19490x Rx d 15 01 02 00 74 0D 54 01 80 0C 10 01 BC 02 06 06 [FD BRS]
0.0012410 1 D9x Rx d 13 39 13 00 15 E7 B6 0F 11 A0 79 8D A0 0F [FD BRS]
0.0016192 1 DBx Rx d 13 39 0F 00 15 61 CA 6A 20 FF FF 7F CF FF [FD BRS]
0.0067124 1 2Dx Rx d 14 8D 18 20 05 C4 09 00 90 70 97 58 22 70 52 [FD BRS]
0.0072418 1 E3x Rx d 12 41 00 05 08 01 D9 0B E5 34 57 15 49 [FD BRS]
0.0118572 1 D4x Rx d 9 39 04 0C 05 0E 0F F6 FF FF [FD BRS]
0.0156743 1 DBx Rx d 14 39 0F 01 06 50 85 04 60 58 14 39 0E 00 20 [FD BRS]
0.0199415 1 DCx Rx d 13 39 10 00 16 94 49 0D AE 12 0A FA DE D0 [FD BRS]
0.0210167 1 44 Rx d 1 04
0.0212189 1 DBx Rx d 13 39 0F 00 15 83 DA 6B 20 FF FF 7F CF FF [FD BRS]
0.0216052 1 D9x Rx d 13 39 13 00 15 11 D6 10 11 A0 7A 8D A2 0F [FD BRS]
0.0267874 1 2Dx Rx d 14 92 11 21 05 C4 09 00 90 70 97 58 22 70 52 [FD BRS]
0.0300216 1 DC08E2 Rx d 8 40 02 00 00 00 00 00 00
0.0303120 1 DCx Rx d 9 39 FE 6F 08 94 01 00 80 01 [FD BRS]
0.0305103 1 18E19490x Rx d 15 02 88 00 64 64 64 01 00 00 00 AF 12 06 E8 00 [FD BRS]
0.0320145 1 E3x Rx d 11 41 00 01 08 00 0D 07 00 00 00 00 [FD BRS]
0.0356536 1 DBx Rx d 14 39 0E 00 20 13 14 6B 30 A8 82 83 1A 3F 36 [FD BRS]
0.0400208 1 DCx Rx d 14 39 10 01 10 15 46 43 32 50 00 7E 06 0D 9C [FD BRS]
0.0411240 1 DBx Rx d 13 39 0F 00 15 2D A8 6C 20 FF FF 7F CF FF [FD BRS]
0.0415103 1 D9x Rx d 14 39 13 01 0B 5A BA 48 55 95 00 FE 03 BA FF [FD BRS]
0.0466676 1 2Dx Rx d 14 B3 0A 22 05 C4 09 00 90 70 97 58 22 70 52 [FD BRS]
0.0471949 1 D4x Rx d 10 39 0C 14 0C FF FF FF F8 FD FF [FD BRS]
0.0474333 1 E3x Rx d 9 41 00 01 08 01 00 00 02 C4 [FD BRS]
0.0033985 1 DCx Rx d 14 39 10 01 10 15 46 43 38 50 00 5E 06 0D 9C [FD BRS]
0.0039168 1 18E19490x Rx d 15 04 03 00 03 00 03 00 7E 36 ED 0C 79 0D 22 01 [FD BRS]
0.0047229 1 DBx Rx d 13 39 0F 00 15 A6 C9 58 20 FF FF 7F CF FF [FD BRS]
0.0051102 1 D9x Rx d 14 39 13 01 0B 5A BA 48 55 95 00 FE 03 BA FF [FD BRS]
0.0101605 1 2Dx Rx d 14 80 4E 0E 05 C4 09 00 90 70 97 58 62 70 52 [FD BRS]
0.0106888 1 D4x Rx d 10 39 0C 14 0C FF FF FF F8 FD FF [FD BRS]
0.0154172 1 E3x Rx d 14 39 06 0B 08 47 41 51 A5 4E 43 DD FF 00 80 [FD BRS]
0.0192363 1 DBx Rx d 14 39 0E 00 20 2B 23 58 30 A8 82 83 1A 3F 33 [FD BRS]
0.0234565 1 DCx Rx d 13 39 10 00 16 80 1B FB AE 12 0A FA DE CC [FD BRS]
0.0248719 1 D9x Rx d 13 39 13 00 15 7C 37 FE 11 A0 7A 0D A1 0F [FD BRS]
0.0252551 1 DBx Rx d 13 39 0F 00 15 44 D9 59 20 FF FF 7F CF FF [FD BRS]
0.0301643 1 2Dx Rx d 14 9F 47 0F 05 C4 09 00 90 70 97 58 62 70 52 [FD BRS]
0.0335325 1 18E19490x Rx d 15 00 00 00 A5 55 55 55 55 05 00 00 00 00 00 00 [FD BRS]
0.0391406 1 DBx Rx d 14 39 0E 00 20 49 D2 59 30 A8 82 83 1A 3F 32 [FD BRS]
0.0401508 1 E3x Rx d 9 41 00 00 08 00 57 31 4B 41 [FD BRS]
0.0434700 1 DCx Rx d 13 39 10 00 16 1F 73 FC AE 12 0A FA DE CC [FD BRS]
0.0447322 1 DBx Rx d 13 39 0F 00 15 62 E8 5A 20 FF FF 7F CF FF [FD BRS]
0.0451195 1 D9x Rx d 13 39 13 00 15 13 E7 FF 12 A0 79 CD 9E 0F [FD BRS]
0.0014035 1 2Dx Rx d 14 09 56 FC 05 C4 09 00 90 70 97 58 62 70 52 [FD BRS]
0.0019319 1 D4x Rx d 8 39 04 06 04 08 EC D4 85 [FD BRS]
0.0020922 1 E3x Rx d 9 41 00 05 08 00 80 03 43 D3 [FD BRS]
0.0103623 1 DBx Rx d 15 39 0E 01 0F 14 36 FF FF FF FF FF FF FF FF D4 [FD BRS]
0.0145955 1 DCx Rx d 13 39 10 00 16 E3 78 E9 AE 12 0A FA DE CC [FD BRS]
0.0159356 1 DBx Rx d 13 39 0F 00 15 19 22 47 20 FF FF 7F CF FF [FD BRS]
0.0163220 1 D9x Rx d 13 39 13 00 15 42 F3 EC 12 A0 7A 4D 9F 0F [FD BRS]
0.0214272 1 2Dx Rx d 14 16 5F FD 05 C4 09 00 90 70 97 58 62 70 52 [FD BRS]
0.0219556 1 E3x Rx d 12 41 00 05 08 01 92 EC 7F 20 92 B0 06 [FD BRS]
0.0247268 1 18E19490x Rx d 15 03 00 00 83 01 83 01 02 00 03 00 00 00 01 00 [FD BRS]
0.0267290 1 D4x Rx d 14 39 04 0C 05 0E 0F F6 FF FF 39 15 01 14 46 [FD BRS]
0.0272613 1 DC085B Rx d 8 40 03 08 04 00 00 00 00
0.0303794 1 DBx Rx d 14 39 0E 00 20 30 B5 47 30 A8 82 83 1A 3F 37 [FD BRS]
0.0346437 1 DCx Rx d 13 39 10 00 16 AE 90 EA AE 12 0A FA DE CC [FD BRS]
0.0359308 1 DBx Rx d 13 39 0F 00 15 A7 D7 48 20 FF FF 7F CF FF [FD BRS]
0.0372362 1 D9x Rx d 13 39 13 00 15 16 F0 ED 12 A0 7A 0D A1 0F [FD BRS]
0.0414684 1 2Dx Rx d 14 37 44 FE 05 C4 09 00 90 70 97 58 62 70 52 [FD BRS]
0.0043976 1 D4x Rx d 14 39 04 0C 05 0E 0F F6 FF FF 39 15 01 14 46 [FD BRS]
0.0082097 1 DBx Rx d 14 39 0E 00 20 CD C9 33 30 A8 82 83 1A 3F 32 [FD BRS]
0.0123550 1 DCx Rx d 13 39 10 00 16 E7 64 D6 AE 12 0A FA DE CC [FD BRS]
0.0127363 1 18E19490x Rx d 15 00 00 00 A5 55 55 55 55 05 00 00 00 00 00 00 [FD BRS]
0.0136866 1 D9x Rx d 13 39 13 00 15 03 1B D9 11 A0 79 CD A1 0F [FD BRS]
0.0140628 1 DBx Rx d 13 39 0F 00 15 38 49 34 20 FF FF 7F CF FF [FD BRS]
0.0192920 1 2Dx Rx d 14 CD EA EA 05 C4 09 00 90 70 97 58 22 70 52 [FD BRS]
0.0236856 1 D9x Rx d 9 39 FE 28 08 29 00 00 00 00 [FD BRS]
0.0281787 1 DBx Rx d 14 39 0E 00 20 21 36 34 30 A8 82 83 1A 3F 32 [FD BRS]
0.0287021 1 DC085D Rx d 8 40 02 00 00 00 00 00 00
0.0323723 1 DCx Rx d 14 39 10 01 10 15 46 43 30 50 00 26 52 0D 9C [FD BRS]
0.0337635 1 DBx Rx d 13 39 0F 00 15 DA 59 35 20 FF FF 7F CF FF [FD BRS]
0.0341497 1 D9x Rx d 14 39 13 01 0B 5A BA 48 55 95 00 FE 03 BA FF [FD BRS]
0.0392010 1 2Dx Rx d 14 A4 F8 EB 05 C4 09 00 90 70 97 58 62 70 52 [FD BRS]
0.0397264 1 D4x Rx d 10 39 0C 14 0C FF FF FF F8 FD FF [FD BRS]
0.0426046 1 18E19490x Rx d 15 01 02 00 73 0D 55 01 80 0C 10 01 BC 02 06 06 [FD BRS]
0.0444618 1 E3x Rx d 11 39 06 0B 08 46 41 51 25 4E 43 DD [FD BRS]
0.0482780 1 DBx Rx d 14 39 0E 00 20 00 40 35 2F A8 82 83 1A 3F 33 [FD BRS]
0.0005246 1 D9x Rx d 14 39 13 01 0B 5A BA 48 55 95 00 FE 03 BA FF [FD BRS]
0.0010397 1 DBx Rx d 13 39 0F 00 15 53 04 21 20 FF FF 7F CF FF [FD BRS]
0.0014259 1 21Dx Rx d 3 30 40 28 [FD BRS]
0.0015811 1 21Cx Rx d 15 21 98 80 99 66 9A 4C 9B 46 9C 18 9D 4E 9E 5C [FD BRS]
0.0055043 1 2Dx Rx d 14 11 36 D7 05 C4 09 00 90 70 97 58 62 70 52 [FD BRS]
0.0060286 1 D4x Rx d 10 39 0C 14 0C FF FF FF F7 FD FF [FD BRS]
0.0107350 1 E3x Rx d 11 39 06 0B 08 47 41 51 A5 53 43 DD [FD BRS]
0.0145321 1 DBx Rx d 14 39 0E 00 20 70 D3 21 30 B8 82 83 1A 3F 3A [FD BRS]
0.0186663 1 DCx Rx d 13 39 10 00 16 6C 74 C4 AE 12 0A FA DE D0 [FD BRS]
0.0190467 1 18E19490x Rx d 15 03 00 00 7F 01 7F 01 02 00 03 00 00 00 01 00 [FD BRS]
0.0200030 1 D9x Rx d 13 39 13 00 15 65 33 C7 12 A0 7A 4D A0 0F [FD BRS]
0.0203782 1 DBx Rx d 13 39 0F 00 15 75 35 22 20 FF FF 7F CF FF [FD BRS]
0.0246344 1 21Cx Rx d 15 22 00 00 00 00 00 00 00 00 00 00 00 00 00 00 [FD BRS]
0.0255166 1 2Dx Rx d 14 B4 41 D8 05 C4 09 00 90 70 97 58 62 70 52 [FD BRS]
0.0344916 1 DBx Rx d 14 39 FE 0B 08 61 00 00 00 01 00 00 00 39 0E [FD BRS]
0.0386259 1 DCx Rx d 13 39 10 00 16 48 DC C5 AE 12 0A FA DE D0 [FD BRS]
0.0400250 1 DBx Rx d 13 39 0F 00 15 97 25 23 20 FF FF 7F CF FF [FD BRS]
0.0404103 1 D9x Rx d 13 39 13 00 15 CB B4 C8 12 A0 79 CD 9F 0F [FD BRS]
0.0455366 1 2Dx Rx d 14 AB 48 D9 05 C4 09 00 90 70 97 58 62 70 52 [FD BRS]
0.0460609 1 D4x Rx d 8 39 04 06 04 D8 04 CD 85 [FD BRS]
0.0462213 1 E3x Rx d 9 41 00 05 08 00 80 03 43 D3 [FD BRS]
0.0487705 1 18E19490x Rx d 15 04 03 00 02 00 02 00 7E 36 ED 0C 7A 0D 22 01 [FD BRS]
0.0044290 1 DBx Rx d 14 39 0E 00 20 FC 38 0C 30 B8 82 83 1A 3F 38 [FD BRS]
0.0085272 1 DCx Rx d 14 39 10 01 10 15 46 43 00 50 00 E6 42 0C 9C [FD BRS]
0.0090465 1 18E19490x Rx d 15 04 03 00 03 00 03 00 74 36 EB 0C 79 0D 22 01 [FD BRS]
0.0099877 1 DBx Rx d 13 39 0F 00 15 C9 FC 0D 20 FF FF 7F CF FF [FD BRS]
0.0103750 1 D9x Rx d 14 39 13 01 0B 5A BA 48 55 95 00 FE 03 BA FF [FD BRS]
0.0154373 1 2Dx Rx d 14 9D 83 C3 05 C4 09 00 90 70 97 58 62 70 52 [FD BRS]
0.0159656 1 D4x Rx d 10 39 0C 14 0C FF FF FF F7 FD FF [FD BRS]
0.0206520 1 E3x Rx d 11 39 06 0B 08 47 41 51 25 54 43 DD [FD BRS]
0.0244792 1 DBx Rx d 14 39 0E 00 20 68 1C 0D 30 B8 82 83 1A 3F 38 [FD BRS]
0.0285724 1 DCx Rx d 13 39 10 00 16 60 6E B0 AE 12 0A FA DE CC [FD BRS]
0.0298737 1 D9x Rx d 13 39 13 00 15 9D 9E B3 11 A0 7A 0D A2 0F [FD BRS]
0.0302529 1 DBx Rx d 13 39 0F 00 15 EF CD 0E 20 FF FF 7F CF FF [FD BRS]
0.0354371 1 2Dx Rx d 14 C0 BC C4 05 C4 09 00 90 70 97 58 62 70 52 [FD BRS]
0.0386613 1 18E19490x Rx d 15 00 00 00 A5 55 55 55 55 05 00 00 00 00 00 00 [FD BRS]
0.0444284 1 DBx Rx d 14 39 0E 00 20 22 A4 0E 30 B8 82 83 1A 3F 39 [FD BRS]
0.0485907 1 DCx Rx d 13 39 10 00 16 AC B5 B1 AE 12 0A FA DE D0 [FD BRS]
0.0048153 1 2Dx Rx d 14 10 54 B1 05 C4 09 00 90 70 97 58 62 70 52 [FD BRS]
0.0053407 1 D4x Rx d 8 39 04 06 04 1B 81 C5 85 [FD BRS]
0.0055020 1 E3x Rx d 9 41 00 05 08 00 80 03 43 D3 [FD BRS]
0.0137891 1 DBx Rx d 15 39 0E 01 0F 0C 36 FF FF FF FF FF FF FF EF D4 [FD BRS]
0.0147443 1 E3x Rx d 13 39 80 00 0C 00 7F B2 8F 0C 30 B0 FE 45 [FD BRS]
0.0178615 1 DCx Rx d 13 39 10 00 16 4A F9 9E AE 12 0A FA DE CC [FD BRS]
0.0193316 1 DBx Rx d 13 39 0F 00 15 24 46 FC 20 FF FF 7F CF FF [FD BRS]
0.0197179 1 D9x Rx d 13 39 13 00 15 B4 73 A1 11 A0 79 4D A1 0F [FD BRS]
0.0248191 1 2Dx Rx d 14 31 4F B2 05 C4 09 00 90 70 97 58 62 70 52 [FD BRS]
0.0253445 1 E3x Rx d 12 41 00 05 08 01 7A 47 41 68 21 D6 89 [FD BRS]
0.0279977 1 18E19490x Rx d 15 03 00 00 79 01 79 01 02 00 03 00 00 00 00 00 [FD BRS]
0.0300179 1 D4x Rx d 9 39 04 0C 05 0E 0F F6 FF FF [FD BRS]
0.0338130 1 DBx Rx d 14 39 0F 01 06 50 85 04 60 DC 1C 39 0E 00 20 [FD BRS]
0.0378992 1 DCx Rx d 13 39 10 00 16 6E 51 9F AE 12 0A FA DE CC [FD BRS]
0.0391405 1 44 Rx d 1 04
0.0393186 1 DBx Rx d 13 39 0F 00 15 C6 56 FD 20 FF FF 7F CF FF [FD BRS]
0.0406000 1 D9x Rx d 13 39 13 00 15 DD 1D A2 11 A0 79 0D A2 0F [FD BRS]
0.0448712 1 2Dx Rx d 14 2E 46 B3 05 C4 09 00 90 70 97 58 62 70 52 [FD BRS]
0.0015696 1 2Dx Rx d 14 55 0B 9D 05 C4 09 00 90 70 97 58 62 70 52 [FD BRS]
0.0020940 1 D4x Rx d 8 39 04 06 04 EA 4B C1 85 [FD BRS]
0.0022543 1 E3x Rx d 9 41 00 05 08 00 80 03 43 D3 [FD BRS]
0.0046876 1 18E19490x Rx d 15 04 03 00 03 00 03 00 7E 36 ED 0C 79 0D 22 01 [FD BRS]
0.0105437 1 DBx Rx d 15 39 0E 01 0F 08 36 FF FF FF FF FF FF FF EF D4 [FD BRS]
0.0115479 1 E3x Rx d 10 39 80 00 0C 00 7F B2 8F 0C 30 [FD BRS]
0.0146341 1 DCx Rx d 13 39 10 00 16 92 5A 8A AE 12 0A FA DE CC [FD BRS]
0.0160665 1 D9x Rx d 13 39 13 00 15 66 8F 8D 12 A0 79 8D A0 0F [FD BRS]
0.0164436 1 DBx Rx d 13 39 0F 00 15 AD 1B E8 20 FF FF 7F CF FF [FD BRS]
0.0215679 1 2Dx Rx d 14 74 10 9E 05 C4 09 00 90 70 97 58 62 70 52 [FD BRS]
0.0220942 1 E3x Rx d 12 41 00 05 08 01 A9 C6 AC 44 44 DF 88 [FD BRS]
0.0267286 1 D4x Rx d 9 39 04 0C 05 0E 0F F6 FF FF [FD BRS]
0.0306177 1 DBx Rx d 14 39 0F 01 06 50 85 04 60 DC 1C 39 0E 00 20 [FD BRS]
0.0345429 1 DCx Rx d 13 39 10 00 16 B6 F2 8B AE 12 0A FA DE CC [FD BRS]
0.0349233 1 18E19490x Rx d 15 00 00 00 A5 55 55 55 55 05 00 00 00 00 00 00 [FD BRS]
0.0358835 1 44 Rx d 1 04
0.0360736 1 DBx Rx d 13 39 0F 00 15 4F 0B E9 20 FF FF 7F CF FF [FD BRS]
0.0364599 1 D9x Rx d 13 39 13 00 15 47 E5 8E 11 A0 79 0D A2 0F [FD BRS]
0.0416202 1 2Dx Rx d 14 6B 19 9F 05 C4 09 00 90 70 97 58 62 70 52 [FD BRS]
0.0000538 1 DBx Rx d 14 39 0E 00 20 E1 1F D1 30 B8 82 83 1A 3F 38 [FD BRS]
0.0053564 1 D9x Rx d 13 39 13 00 15 C9 0F 77 11 A0 7A 4D A2 0F [FD BRS]
0.0057335 1 DBx Rx d 13 39 0F 00 15 7A 9F D2 20 FF FF 7F CF FF [FD BRS]
0.0110158 1 2Dx Rx d 14 C6 B7 88 05 C4 09 00 90 70 97 58 62 70 52 [FD BRS]
0.0141050 1 18E19490x Rx d 15 00 00 00 A5 55 55 55 55 05 00 00 00 00 00 00 [FD BRS]
0.0200050 1 DBx Rx d 14 39 0E 00 20 DF 75 D2 30 B8 82 83 1A 3F 37 [FD BRS]
0.0254876 1 D9x Rx d 13 39 13 00 15 60 D3 78 12 A0 79 4D 9F 0F [FD BRS]
0.0258668 1 DBx Rx d 13 39 0F 00 15 98 8F D3 20 FF FF 7F CF FF [FD BRS]
0.0310310 1 2Dx Rx d 14 D9 BE 89 05 C4 09 00 90 70 97 58 62 70 52 [FD BRS]
0.0315594 1 D4x Rx d 8 39 04 06 04 AD 46 BD 85 [FD BRS]
0.0317187 1 E3x Rx d 9 41 00 05 08 00 80 03 43 D3 [FD BRS]
0.0400678 1 DBx Rx d 15 39 0E 01 0F 0C 36 FF FF FF FF FF FF FF EF D4 [FD BRS]
0.0409940 1 E3x Rx d 10 39 80 00 0C 00 7F B2 8F 0C 30 [FD BRS]
0.0439952 1 EE Rx d 5 D2 49 CB AF 07
0.0443775 1 18E19490x Rx d 15 01 02 00 73 0D 54 01 80 0C 10 01 BC 02 06 06 [FD BRS]
0.0455299 1 D9x Rx d 13 39 13 00 15 42 EB 79 12 A0 7A 8D A0 0F [FD BRS]
0.0459060 1 DBx Rx d 13 39 0F 00 15 36 FD D4 20 FF FF 7F CF FF [FD BRS]
0.0029832 1 DCx Rx d 13 39 10 00 16 13 7D 5E AE 12 0A FA DE CC [FD BRS]
0.0033656 1 18E19490x Rx d 15 00 00 00 A5 55 55 55 55 05 00 00 00 00 00 00 [FD BRS]
0.0046117 1 DBx Rx d 13 39 0F 00 15 20 3E BC 20 FF FF 7F CF FF [FD BRS]
0.0055540 1 D9x Rx d 13 39 13 00 15 6D 4D 61 11 A0 79 CD A0 0F [FD BRS]
0.0101403 1 2Dx Rx d 14 B7 E7 72 05 C4 09 00 90 70 97 58 62 70 52 [FD BRS]
0.0190683 1 DBx Rx d 14 39 0E 00 20 A7 4E BC 30 A8 82 83 1A 3F 36 [FD BRS]
0.0229955 1 DCx Rx d 14 39 10 01 10 15 46 43 30 50 00 66 06 0D 9C [FD BRS]
0.0244387 1 21Cx Rx d 15 11 02 01 09 00 00 00 FA 01 F4 02 EE 03 E8 04 [FD BRS]
0.0250830 1 D9x Rx d 14 39 13 01 0B 5A BA 48 55 95 00 FE 03 BA FF [FD BRS]
0.0255972 1 DBx Rx d 13 39 0F 00 15 C2 2E BD 20 FF FF 7F CF FF [FD BRS]
0.0300544 1 2Dx Rx d 14 A8 EE 73 05 C4 09 00 90 70 97 58 62 70 52 [FD BRS]
0.0305808 1 D4x Rx d 10 39 0C 14 0C FF FF FF F7 FD FF [FD BRS]
0.0332330 1 18E19490x Rx d 15 01 02 00 73 0D 55 01 80 0C 10 01 BC 02 06 06 [FD BRS]
0.0353042 1 E3x Rx d 11 39 06 0B 08 47 41 51 25 55 03 DD [FD BRS]
0.0391314 1 DBx Rx d 14 39 0E 00 20 33 6A BD 30 A8 82 83 1A 3F 36 [FD BRS]
0.0431066 1 DCx Rx d 13 39 10 00 16 33 C9 60 AE 12 0A FA DE CC [FD BRS]
0.0444709 1 D9x Rx d 13 39 13 00 15 7D 55 63 12 A0 7A 8D A2 0F [FD BRS]
0.0448491 1 DBx Rx d 13 39 0F 00 15 E4 1F BE 20 FF FF 7F CF FF [FD BRS]
0.0003878 1 DBx Rx d 13 39 0F 00 15 A9 63 A8 20 FF FF 7F CF FF [FD BRS]
0.0010971 1 D9x Rx d 13 39 13 00 15 1D B3 4D 11 A0 79 CD A2 0F [FD BRS]
0.0059164 1 2Dx Rx d 14 84 A3 5E 05 C4 09 00 90 70 97 58 22 70 52 [FD BRS]
0.0088556 1 18E19490x Rx d 15 02 88 00 64 64 64 01 00 00 00 64 12 97 F6 00 [FD BRS]
0.0148457 1 DBx Rx d 14 39 0E 00 20 0B 94 A8 2F A8 82 83 1A 3F 32 [FD BRS]
0.0187939 1 DCx Rx d 14 39 10 01 10 15 46 43 38 50 00 46 06 0C 9C [FD BRS]
0.0202273 1 D9x Rx d 14 39 13 01 0B 5A BA 48 55 95 00 FE 03 BA FF [FD BRS]
0.0207404 1 DBx Rx d 13 39 0F 00 15 4B 73 A9 20 FF FF 7F CF FF [FD BRS]
0.0258187 1 2Dx Rx d 14 9B AA 5F 05 C4 09 00 90 70 97 58 22 70 52 [FD BRS]
0.0263460 1 D4x Rx d 10 39 0C 14 0C FF FF FF F8 FD FF [FD BRS]
0.0310624 1 E3x Rx d 11 39 06 0B 08 46 41 51 A5 5C 03 DD [FD BRS]
0.0349475 1 DBx Rx d 14 39 0E 00 20 D4 36 A9 2F A8 82 83 1A 3F 33 [FD BRS]
0.0387727 1 DCx Rx d 13 39 10 00 16 70 1E 4C AE 12 0A FA DE CC [FD BRS]
0.0029469 1 DCx Rx d 13 39 10 00 16 A1 DA 38 AE 12 0A FA DE C8 [FD BRS]
0.0044143 1 D9x Rx d 13 39 13 00 15 B9 61 3B 11 A0 79 0D A1 0F [FD BRS]
0.0047885 1 DBx Rx d 13 39 0F 00 15 F6 A4 96 20 FF FF 7F CF FF [FD BRS]
0.0100467 1 2Dx Rx d 14 3C 3B 4C 05 C4 09 00 90 70 97 58 62 70 52 [FD BRS]
0.0105730 1 4Fx Rx d 8 28 20 0E 00 21 EC C4 FC [FD BRS]
0.0130263 1 18E19490x Rx d 15 00 00 00 A5 55 55 55 55 05 00 00 00 00 00 00 [FD BRS]
0.0153215 1 E3x Rx d 9 02 80 00 08 24 2E A2 01 83 [FD BRS]
0.0190606 1 DBx Rx d 14 39 0E 00 20 23 3C 96 2F 98 82 83 1A 3F 2B [FD BRS]
0.0229568 1 DCx Rx d 13 39 10 00 16 B0 DF 39 AE 12 0A FA DE CC [FD BRS]
0.0244162 1 D9x Rx d 13 39 13 00 15 4C 5D 3C 12 A0 79 CD 9F 0F [FD BRS]
0.0247964 1 DBx Rx d 13 39 0F 00 15 14 B4 97 20 FF FF 7F CF FF [FD BRS]
0.0300486 1 2Dx Rx d 14 23 32 4D 05 C4 09 00 90 70 97 58 62 70 52 [FD BRS]
0.0305769 1 D4x Rx d 8 39 04 06 04 9F 09 B1 85 [FD BRS]
0.0307383 1 E3x Rx d 9 41 00 05 08 00 80 03 43 D3 [FD BRS]
0.0390684 1 DBx Rx d 15 39 0E 01 0F FC 35 FF FF FF FF FF FF FF EF D4 [FD BRS]
0.0399986 1 E3x Rx d 13 39 80 00 0C 00 7F B2 8F 0C 30 B0 FE 7D [FD BRS]
0.0429178 1 DCx Rx d 13 39 10 00 16 FD 37 3A AE 12 0A FA DE CC [FD BRS]
0.0009376 1 D4x Rx d 14 39 04 0C 05 0E 0F F6 FF FF 39 15 01 14 46 [FD BRS]
0.0014699 1 DC085B Rx d 8 40 03 08 04 00 00 00 00
0.0048700 1 DBx Rx d 14 39 0E 00 20 3F F2 7F 2F A8 82 83 1A 3F 27 [FD BRS]
0.0085772 1 DCx Rx d 13 39 10 00 16 47 A8 22 AE 12 0A FA DE C8 [FD BRS]
0.0089606 1 18E19490x Rx d 15 00 00 00 A5 55 55 55 55 05 00 00 00 00 00 00 [FD BRS]
0.0103318 1 DBx Rx d 13 39 0F 00 15 BB D8 80 20 FF FF 7F CF FF [FD BRS]
0.0110221 1 D9x Rx d 13 39 13 00 15 B8 E6 25 12 A0 78 CD A1 0F [FD BRS]
0.0158363 1 2Dx Rx d 14 49 A4 36 05 C4 09 00 90 70 97 58 62 70 52 [FD BRS]
0.0247894 1 DBx Rx d 14 39 0E 00 20 41 E1 80 2F A8 82 83 1A 3F 24 [FD BRS]
0.0285866 1 DCx Rx d 14 39 10 01 10 15 46 43 30 50 00 06 06 0D 9C [FD BRS]
0.0301050 1 D9x Rx d 14 39 13 01 0B 5A BA 48 55 95 00 FE 03 BA FF [FD BRS]
0.0306161 1 DBx Rx d 13 39 0F 00 15 59 C8 81 20 FF FF 7F CF FF [FD BRS]
0.0357504 1 2Dx Rx d 14 20 B6 37 05 C4 09 00 90 70 97 58 22 70 52 [FD BRS]
0.0362777 1 D4x Rx d 10 39 0C 14 0C FF FF FF FA FD FF [FD BRS]
0.0388239 1 18E19490x Rx d 15 01 01 00 72 0D 56 01 80 0C 10 01 BC 02 06 06 [FD BRS]
0.0410102 1 E3x Rx d 11 39 06 0B 08 47 41 51 25 41 03 DD [FD BRS]
0.0448373 1 DBx Rx d 14 39 0E 00 20 4D B0 81 2F 98 82 83 1A 3F 22 [FD BRS]
0.0486955 1 DCx Rx d 13 39 10 00 16 FC 68 24 AE 12 0A FA DE C8 [FD BRS]
