date 2025-01-01 00:00:00.000
base hex  timestamps absolute
no internal events logged

0.0013840 1 DBx Rx d 13 39 0F 00 15 CC 9A 5D 20 FF FF 7F CF FF [FD BRS]
0.0032732 1 D4x Rx d 14 39 04 0C 05 0E 0F F4 FF FF 39 15 01 14 48 [FD BRS]
0.0038056 1 DC085B Rx d 8 40 03 08 04 00 00 00 00
0.0071798 1 18E19490x Rx d 15 00 00 00 A5 55 55 55 55 05 00 00 00 00 00 00 [FD BRS]
0.0150936 1 D9x Rx d 13 39 13 00 15 C0 01 05 12 A0 75 4D A0 0F [FD BRS]
0.0158368 1 DBx Rx d 14 39 0E 00 20 DD B4 5D 2B 68 82 83 1A 3F FC [FD BRS]
0.0172910 1 DCx Rx d 13 39 10 00 16 C3 34 03 AE 12 0A FA DE BC [FD BRS]
0.0180612 1 2Dx Rx d 14 C0 9E 14 05 C4 09 00 90 70 97 58 22 70 52 [FD BRS]
0.0212763 1 DBx Rx d 13 39 0F 00 15 EA AB 5E 20 FF FF 7F CF FF [FD BRS]
0.0349925 1 D9x Rx d 13 39 13 00 15 46 85 06 12 A0 75 CD A0 0F [FD BRS]
0.0358027 1 DBx Rx d 14 39 0E 00 20 AC 62 5E 2B 68 82 83 1A 3F FE [FD BRS]
0.0371169 1 DCx Rx d 13 39 10 00 16 5C 5C 04 AE 12 0A FA DE BC [FD BRS]
0.0000012 1 2A6x Rx d 4 89 CD 6D 9B [FD]
0.0028835 1 DBx Rx d 13 39 0F 00 15 63 F6 4A 20 FF FF 7F CF FF [FD BRS]
0.0166687 1 D9x Rx d 13 39 13 00 15 FC 6B F2 11 A0 75 0D A0 0F [FD BRS]
0.0174739 1 DBx Rx d 14 39 0E 00 20 8A 58 4A 2B 68 82 83 1A 3F FE [FD BRS]
0.0186831 1 DCx Rx d 13 39 10 00 16 FC 90 F0 AE 12 0A FA DE B8 [FD BRS]
0.0196003 1 2Dx Rx d 14 53 22 01 05 C4 09 00 90 70 97 58 22 70 52 [FD BRS]
0.0201287 1 D4x Rx d 10 39 0C 14 0C FF FF FF FC FD FF [FD BRS]
0.0228918 1 DBx Rx d 13 39 0F 00 15 81 E6 4B 20 FF FF 7F CF FF [FD BRS]
0.0287191 1 18E19490x Rx d 15 03 00 00 7B 01 7B 01 04 00 04 00 00 00 00 00 [FD BRS]
0.0295323 1 E3x Rx d 11 39 06 0B 08 38 51 51 15 EF 82 D7 [FD BRS]
0.0366690 1 D9x Rx d 13 39 13 00 15 E0 6C F3 12 A0 75 8D 9F 0F [FD BRS]
0.0374242 1 DBx Rx d 14 39 0E 00 20 D3 C7 4B 2B 68 82 83 1A 3F FC [FD BRS]
0.0387714 1 DCx Rx d 13 39 10 00 16 ED 95 F1 AE 12 0A FA DE BC [FD BRS]
0.0395886 1 2Dx Rx d 14 72 39 02 05 C4 09 00 90 70 97 58 22 70 52 [FD BRS]
0.0428818 1 DBx Rx d 13 39 0F 00 15 2F 94 4C 20 FF FF 7F CF FF [FD BRS]
0.0486510 1 DC08E2 Rx d 8 40 02 00 00 00 00 00 00
0.0489413 1 DCx Rx d 9 39 FE 6F 08 94 01 00 80 01 [FD BRS]
0.0010586 1 DBx Rx d 15 39 0E 00 20 D4 81 39 2B 68 82 83 1A 3F FC 7F [FD BRS]
0.0030548 1 D4x Rx d 9 39 04 0C 05 0E 0F F4 FF FF [FD BRS]
0.0032541 1 E3x Rx d 9 39 04 22 08 00 41 86 7E 78 [FD BRS]
0.0106862 1 DBx Rx d 13 39 0E 04 10 5C E3 0B 4C 24 B4 DB FF 5F [FD BRS]
0.0120594 1 44 Rx d 1 04
0.0148418 1 D9x Rx d 13 39 13 00 15 2D 2F E2 11 A0 75 4D A0 0F [FD BRS]
0.0156150 1 DBx Rx d 14 39 0E 00 20 A5 57 3A 2B 68 82 83 1A 3F FE [FD BRS]
0.0169042 1 DCx Rx d 13 39 10 00 16 C3 1E E0 AE 12 0A FA DE BC [FD BRS]
0.0172845 1 18E19490x Rx d 15 02 88 00 64 64 64 01 00 00 00 8E 12 D7 15 00 [FD BRS]
0.0004361 1 DCx Rx d 14 39 10 01 10 15 45 42 00 51 00 EE 46 0C 9C [FD BRS]
0.0009544 1 18E19490x Rx d 15 04 03 00 03 00 03 00 7E 36 EB 0C 75 0D 22 01 [FD BRS]
0.0018031 1 44 Rx d 1 04
0.0046696 1 D9x Rx d 13 39 13 00 15 ED 89 C4 12 A0 75 0D 9F 0F [FD BRS]
0.0052587 1 DBx Rx d 14 39 0F 01 06 4F 85 04 60 88 18 39 0E 00 20 [FD BRS]
0.0065529 1 DCx Rx d 13 39 10 00 16 BE 18 C2 AE 12 0A FA DE BC [FD BRS]
0.0069352 1 18E19490x Rx d 15 02 88 00 64 64 64 01 00 00 00 E1 12 40 DF 00 [FD BRS]
0.0076424 1 2Dx Rx d 14 1B 09 D3 05 C4 09 00 90 70 97 58 22 70 52 [FD BRS]
0.0108676 1 DBx Rx d 13 39 0F 00 15 C8 E2 1D 20 FF FF 7F CF FF [FD BRS]
0.0227249 1 E3x Rx d 8 3A 02 00 04 F4 FF FF FF [FD BRS]
0.0245043 1 D9x Rx d 13 39 13 00 15 CC 89 C5 12 A0 75 4D A0 0F [FD BRS]
0.0253155 1 DBx Rx d 14 39 0E 00 20 80 C1 1D 2B 68 82 83 1A 3F FC [FD BRS]
0.0264806 1 DCx Rx d 13 39 10 00 16 9A B0 C3 AE 12 0A FA DE BC [FD BRS]
0.0274508 1 2Dx Rx d 14 46 36 D4 05 C4 09 00 90 70 97 58 22 70 52 [FD BRS]
0.0279782 1 D4x Rx d 10 39 0C 14 0C FF FF FF FD FD FF [FD BRS]
0.0307893 1 DBx Rx d 13 39 0F 00 15 EE D3 1E 20 FF FF 7F CF FF [FD BRS]
0.0365156 1 18E19490x Rx d 15 03 00 00 81 01 81 01 04 00 04 00 00 00 00 00 [FD BRS]
0.0374028 1 E3x Rx d 11 39 06 0B 08 38 51 51 95 F1 82 D7 [FD BRS]
0.0426382 1 E3x Rx d 10 05 00 00 0C F5 FC FF 00 00 00 [FD BRS]
0.0445016 1 D9x Rx d 13 39 13 00 15 EA B8 C6 12 A0 75 4D A0 0F [FD BRS]
0.0453107 1 DBx Rx d 14 39 0E 00 20 BC A5 1E 2B 68 82 83 1A 3F FB [FD BRS]
0.0465679 1 DCx Rx d 13 39 10 00 16 05 D8 C4 AE 12 0A FA DE BC [FD BRS]
0.0474541 1 2Dx Rx d 14 59 3F D5 05 C4 09 00 90 70 97 58 22 70 52 [FD BRS]
0.0031021 1 E3x Rx d 11 39 06 0B 08 38 51 51 15 ED 82 D7 [FD BRS]
0.0083595 1 E3x Rx d 10 05 00 00 0C F5 FC FF 00 00 00 [FD BRS]
0.0101699 1 D9x Rx d 13 39 13 00 15 67 7F B2 12 A0 74 8D 9F 0F [FD BRS]
0.0110000 1 DBx Rx d 14 39 0E 00 20 82 E3 0A 2B 58 82 83 1A 3F FA [FD BRS]
0.0121562 1 DCx Rx d 13 39 10 00 16 D4 1C B0 AE 12 0A FA DE B8 [FD BRS]
0.0125386 1 18E19490x Rx d 15 00 00 00 A5 55 55 55 55 05 00 00 00 00 00 00 [FD BRS]
0.0132428 1 2Dx Rx d 14 A3 91 C1 05 C4 09 00 90 70 97 58 62 70 52 [FD BRS]
0.0164769 1 DBx Rx d 13 39 0F 00 15 85 9E 0B 20 FF FF 7F CF FF [FD BRS]
0.0307741 1 D9x Rx d 13 39 13 00 15 F0 6C B3 12 A0 74 8D 9E 0F [FD BRS]
0.0311533 1 DBx Rx d 14 39 0E 00 20 16 C7 0B 2B 58 82 83 1A 3F FA [FD BRS]
0.0321465 1 DCx Rx d 14 39 10 01 10 15 45 42 00 51 00 B6 52 0D 9C [FD BRS]
0.0332037 1 2Dx Rx d 14 82 8A C2 05 C4 09 00 90 70 97 58 62 70 52 [FD BRS]
0.0337321 1 D4x Rx d 8 39 04 06 04 40 3A 62 85 [FD BRS]
0.0338924 1 E3x Rx d 12 41 00 05 08 00 80 03 43 D2 96 63 25 [FD BRS]
0.0365956 1 DBx Rx d 13 39 0F 00 15 2B EC 0C 20 FF FF 7F CF FF [FD BRS]
0.0422388 1 18E19490x Rx d 15 01 01 00 6F 0D 62 01 80 0C 0C 01 BC 02 06 06 [FD BRS]
0.0037509 1 E3x Rx d 10 05 00 00 0C F5 FC FF 00 00 00 [FD BRS]
0.0055813 1 D9x Rx d 13 39 13 00 15 9C FC 9E 12 A0 75 8D 9F 0F [FD BRS]
0.0064835 1 DBx Rx d 14 39 0E 00 20 F9 E7 F6 2B 58 82 83 1A 3F FB [FD BRS]
0.0075617 1 DCx Rx d 13 39 10 00 16 A2 66 9C AE 12 0A FA DE BC [FD BRS]
0.0085809 1 2Dx Rx d 14 64 A9 AD 05 C4 09 00 90 70 97 58 62 70 52 [FD BRS]
0.0091062 1 4Fx Rx d 8 28 23 07 00 05 A7 35 F8 [FD BRS]
0.0119174 1 DBx Rx d 13 39 0F 00 15 12 F0 F7 20 FF FF 7F CF FF [FD BRS]
0.0175936 1 18E19490x Rx d 15 02 88 00 64 64 64 01 00 00 00 92 12 40 DF 00 [FD BRS]
0.0261854 1 D9x Rx d 13 39 13 00 15 0B EF 9F 12 A0 75 8D 9E 0F [FD BRS]
0.0265646 1 DBx Rx d 14 39 0E 00 20 03 63 F7 2B 68 82 83 1A 3F FC [FD BRS]
0.0276068 1 DCx Rx d 14 39 10 01 10 15 45 42 00 51 00 96 06 0C 9C [FD BRS]
0.0286340 1 2Dx Rx d 14 45 B2 AE 05 C4 09 00 90 70 97 58 62 70 52 [FD BRS]
0.0291593 1 D4x Rx d 8 39 04 06 04 9B 59 5E 85 [FD BRS]
0.0293187 1 E3x Rx d 9 41 00 05 08 00 80 03 43 D2 [FD BRS]
0.0320248 1 DBx Rx d 13 39 0F 00 15 AC 05 F8 20 FF FF 7F CF FF [FD BRS]
0.0455820 1 D9x Rx d 14 39 13 01 0B 5B BA 78 55 95 00 FE 03 BA FF [FD BRS]
0.0464752 1 DBx Rx d 15 39 0E 01 0F F4 35 FF FF FF FF FF FF FF EF D4 [FD BRS]
0.0475344 1 DCx Rx d 13 39 10 00 16 CB 26 9E AE 12 0A FA DE BC [FD BRS]
0.0479147 1 18E19490x Rx d 15 03 00 00 84 01 84 01 04 00 04 00 00 00 00 00 [FD BRS]
0.0486309 1 2Dx Rx d 14 2C A0 AF 05 C4 09 00 90 70 97 58 22 70 52 [FD BRS]
0.0491602 1 E3x Rx d 12 41 00 05 08 01 6D 89 D3 3E 69 E0 E0 [FD BRS]
0.0000017 1 24Dx Rx d 4 3D 70 90 57 [FD BRS]
0.0010391 1 2Dx Rx d 14 40 3D 98 05 C4 09 00 90 70 97 58 22 70 52 [FD BRS]
0.0015674 1 D4x Rx d 10 39 0C 14 0C FF FF FF FC FD FF [FD BRS]
0.0044786 1 DBx Rx d 13 39 0F 00 15 79 BD E2 20 FF FF 7F CF FF [FD BRS]
0.0099858 1 18E19490x Rx d 15 03 00 00 85 01 85 01 04 00 05 00 00 00 00 00 [FD BRS]
0.0109981 1 E3x Rx d 11 39 06 0B 08 37 51 51 15 F0 82 D7 [FD BRS]
0.0162064 1 E3x Rx d 10 05 00 00 0C F5 FC FF 00 00 00 [FD BRS]
0.0182729 1 D9x Rx d 13 39 13 00 15 85 28 8A 13 A0 75 8D 98 0F [FD BRS]
0.0188290 1 DBx Rx d 14 39 0E 00 20 83 17 E2 2C 68 82 83 1A 3F FC [FD BRS]
0.0200392 1 DCx Rx d 13 39 10 00 16 7A C5 88 AE 12 0A FA DE BC [FD BRS]
0.0210284 1 2Dx Rx d 14 29 2F 99 05 C4 09 00 90 70 97 58 62 70 52 [FD BRS]
0.0244675 1 DBx Rx d 13 39 0F 00 15 9B AD E3 20 FF FF 7F CF FF [FD BRS]
0.0387927 1 DBx Rx d 14 39 0E 00 20 97 3A E3 2C 68 82 83 1A 3F FB [FD BRS]
0.0393120 1 D9x Rx d 13 39 13 00 15 30 67 8B 14 A0 75 8D 93 0F [FD BRS]
0.0399561 1 DCx Rx d 14 39 10 01 10 15 45 42 30 51 00 76 06 0C 9C [FD BRS]
0.0404745 1 18E19490x Rx d 15 04 03 00 02 00 03 00 7E 36 ED 0C 75 0D 22 01 [FD BRS]
0.0411977 1 2Dx Rx d 14 7E 2F 9A 05 C4 09 00 90 70 97 58 22 70 52 [FD BRS]
0.0417251 1 D4x Rx d 8 39 04 06 04 6A 93 5A 85 [FD BRS]
0.0418845 1 E3x Rx d 9 41 00 05 08 00 80 03 43 D2 [FD BRS]
0.0444866 1 DBx Rx d 13 39 0F 00 15 35 DF E4 20 FF FF 7F CF FF [FD BRS]
0.0482861 1 D9x Rx d 9 39 FE 28 08 29 00 00 00 00 [FD BRS]
0.0008215 1 18E19490x Rx d 15 04 03 00 02 00 03 00 7E 36 ED 0C 75 0D 22 01 [FD BRS]
0.0018807 1 E3x Rx d 9 41 00 01 08 03 5F 01 61 92 [FD BRS]
0.0088715 1 D9x Rx d 13 39 13 00 15 6A D5 75 10 A0 75 8D A7 0F [FD BRS]
0.0097677 1 DBx Rx d 14 39 0E 00 20 C7 04 CD 2C 68 82 83 1A 3F 00 [FD BRS]
0.0108618 1 DCx Rx d 13 39 10 00 16 F5 DD 73 AE 12 0A FA DE BC [FD BRS]
0.0119130 1 2Dx Rx d 14 34 C0 84 05 C4 09 00 90 70 97 58 22 70 52 [FD BRS]
0.0124414 1 D4x Rx d 10 39 0C 14 0C FF FF FF FC FD FF [FD BRS]
0.0152725 1 DBx Rx d 13 39 0F 00 15 E3 45 CE 20 FF FF 7F CF FF [FD BRS]
0.0218748 1 E3x Rx d 13 39 06 0B 08 37 51 51 15 F1 82 D7 FF 41 [FD BRS]
0.0271362 1 E3x Rx d 10 05 00 00 0C F5 FC FF 00 00 00 [FD BRS]
0.0288546 1 D9x Rx d 13 39 13 00 15 06 57 76 10 A0 75 0D A5 0F [FD BRS]
0.0297637 1 DBx Rx d 14 39 0E 00 20 7B 69 CE 2C 68 82 83 1A 3F 00 [FD BRS]
0.0308179 1 DCx Rx d 13 39 10 00 16 6A B5 74 AE 12 0A FA DE BC [FD BRS]
0.0311992 1 18E19490x Rx d 15 00 00 00 A5 55 55 55 55 05 00 00 00 00 00 00 [FD BRS]
0.0319295 1 2Dx Rx d 14 5D D2 85 05 C4 09 00 90 70 97 58 62 70 52 [FD BRS]
0.0352626 1 DBx Rx d 13 39 0F 00 15 01 55 CF 20 FF FF 7F CF FF [FD BRS]
0.0011224 1 DBx Rx d 13 39 0F 00 15 7B 81 C2 20 FF FF 7F CF FF [FD BRS]
0.0029226 1 E3x Rx d 9 39 04 22 08 00 41 86 7E 78 [FD BRS]
0.0079510 1 4Fx Rx d 8 20 05 05 A0 00 49 AD 73 [FD BRS]
0.0120404 1 44 Rx d 1 04
0.0050983 1 D9x Rx d 13 39 13 00 15 87 C2 54 12 A0 75 CD A0 0F [FD BRS]
0.0061045 1 DBx Rx d 14 39 0E 00 20 AC 9D AC 2B 68 82 83 1A 3F FE [FD BRS]
0.0071257 1 DCx Rx d 14 39 10 01 10 15 45 42 39 51 00 1E 12 0D 9C [FD BRS]
0.0082909 1 2Dx Rx d 14 2E 64 63 05 C4 09 00 90 70 97 58 22 70 52 [FD BRS]
0.0088172 1 D4x Rx d 8 39 04 06 04 88 34 4F 85 [FD BRS]
0.0089796 1 E3x Rx d 9 41 00 05 08 00 80 03 43 D2 [FD BRS]
0.0116197 1 DBx Rx d 13 39 0F 00 15 C3 30 AD 20 FF FF 7F CF FF [FD BRS]
0.0235210 1 E3x Rx d 14 39 80 00 0C 00 7F B2 8F 17 30 B0 FE A9 3C [FD BRS]
0.0252164 1 D9x Rx d 14 39 13 01 0B 5B BA 78 55 95 00 FE 03 BA FF [FD BRS]
0.0261816 1 DBx Rx d 15 39 0E 01 0F FC 35 FF FF FF FF FF FF FF EF D4 [FD BRS]
0.0271057 1 DCx Rx d 13 39 10 00 16 E1 9B 53 AE 12 0A FA DE BC [FD BRS]
0.0274861 1 18E19490x Rx d 15 03 00 00 81 01 81 01 04 00 05 00 00 00 00 00 [FD BRS]
0.0282743 1 2Dx Rx d 14 73 5B 64 05 C4 09 00 90 70 97 58 22 70 52 [FD BRS]
0.0316014 1 DBx Rx d 13 39 0F 00 15 E5 01 AE 20 FF FF 7F CF FF [FD BRS]
0.0335066 1 D4x Rx d 9 39 04 0C 05 0E 0F F4 FF FF [FD BRS]
0.0337060 1 E3x Rx d 9 39 04 22 08 00 41 C6 7E 78 [FD BRS]
0.0425674 1 44 Rx d 1 04
0.0452099 1 D9x Rx d 13 39 13 00 15 11 44 56 10 20 75 0D A7 0F [FD BRS]
0.0461341 1 DBx Rx d 14 39 0F 01 06 4F 85 04 60 DC 1C 39 0E 00 20 [FD BRS]
0.0471413 1 DCx Rx d 13 39 10 00 16 7E F3 54 AE 12 0A FA DE BC [FD BRS]
0.0483445 1 2Dx Rx d 14 6C 52 65 05 C4 09 00 90 70 97 58 22 70 52 [FD BRS]
0.0000941 1 D9x Rx d 13 39 13 00 15 5A 82 3D 11 A0 75 8D A7 0F [FD BRS]
0.0012183 1 DBx Rx d 14 39 0E 00 20 84 58 95 2B 68 82 83 1A 3F FD [FD BRS]
0.0021755 1 DCx Rx d 13 39 10 00 16 58 40 3B AE 12 0A FA DE BC [FD BRS]
0.0025558 1 18E19490x Rx d 15 02 88 00 64 64 64 01 00 00 00 BE 12 49 CE 00 [FD BRS]
0.0034240 1 2Dx Rx d 14 4A 20 4C 05 C4 09 00 90 70 97 58 22 70 52 [FD BRS]
0.0066921 1 DBx Rx d 13 39 0F 00 15 F6 A4 96 20 FF FF 7F CF FF [FD BRS]
0.0201843 1 D9x Rx d 13 39 13 00 15 88 41 3E 10 A0 75 CD A7 0F [FD BRS]
0.0211955 1 DBx Rx d 14 39 0E 00 20 4E E9 96 2B 68 82 83 1A 3F FB [FD BRS]
0.0220977 1 DCx Rx d 13 39 10 00 16 C7 28 3C AE 12 0A FA DE BC [FD BRS]
0.0233329 1 2Dx Rx d 14 55 29 4D 05 C4 09 00 90 70 97 58 22 70 52 [FD BRS]
0.0238583 1 D4x Rx d 10 39 0C 14 0C FF FF FF FD FD FF [FD BRS]
0.0267014 1 DBx Rx d 13 39 0F 00 15 14 B4 97 20 FF FF 7F CF FF [FD BRS]
0.0321336 1 18E19490x Rx d 15 03 00 00 82 01 82 01 04 00 04 00 00 00 00 00 [FD BRS]
0.0332889 1 E3x Rx d 11 39 06 0B 08 36 51 51 95 F4 82 D7 [FD BRS]
0.0401866 1 D9x Rx d 13 39 13 00 15 A4 FF 3F 11 A0 75 CD A5 0F [FD BRS]
0.0411968 1 DBx Rx d 14 39 0E 00 20 5A C4 97 2B 68 82 83 1A 3F FC [FD BRS]
0.0421880 1 DCx Rx d 13 39 10 00 16 E3 80 3D AE 12 0A FA DE BC [FD BRS]
0.0433392 1 2Dx Rx d 14 74 32 4E 05 C4 09 00 90 70 97 58 22 70 52 [FD BRS]
0.0466913 1 DBx Rx d 13 39 0F 00 15 AA 41 98 20 FF FF 7F CF FF [FD BRS]
0.0088277 1 D9x Rx d 13 39 13 00 15 F7 77 29 10 A0 75 8D A7 0F [FD BRS]
0.0099799 1 DBx Rx d 14 39 0E 00 20 D4 BE 81 2B 68 82 83 1A 3F FB [FD BRS]
0.0109341 1 DCx Rx d 13 39 10 00 16 30 5F 27 AE 12 0A FA DE B8 [FD BRS]
0.0121863 1 2Dx Rx d 14 85 C1 38 05 C4 09 00 90 70 97 58 22 70 52 [FD BRS]
0.0154564 1 DBx Rx d 13 39 0F 00 15 7F F9 82 20 FF FF 7F CF FF [FD BRS]
0.0208486 1 18E19490x Rx d 15 04 03 00 03 00 03 00 7E 36 EB 0C 75 0D 22 01 [FD BRS]
0.0289154 1 D9x Rx d 13 39 13 00 15 D1 46 2A 10 A0 75 8D A7 0F [FD BRS]
0.0299596 1 DBx Rx d 14 39 0E 00 20 9E 06 82 2B 68 82 83 1A 3F FA [FD BRS]
0.0309037 1 DCx Rx d 13 39 10 00 16 1F 8B 28 AE 12 0A FA DE BC [FD BRS]
0.0320929 1 2Dx Rx d 14 9A C8 39 05 C4 09 00 90 70 97 58 22 70 52 [FD BRS]
0.0326213 1 D4x Rx d 10 39 0C 14 0C FF FF FF FD FD FF [FD BRS]
0.0354665 1 DBx Rx d 13 39 0F 00 15 9D E9 83 20 FF FF 7F CF FF [FD BRS]
0.0420497 1 E3x Rx d 11 39 06 0B 08 35 51 51 15 F6 82 D7 [FD BRS]
0.0489174 1 D9x Rx d 13 39 13 00 15 36 BA 2B 10 A0 75 4D A6 0F [FD BRS]
0.0022692 1 D9x Rx d 13 39 13 00 15 10 20 11 11 A0 75 CD A7 0F [FD BRS]
0.0033514 1 DBx Rx d 14 39 0E 00 20 28 86 69 2B 58 82 83 1A 3F F9 [FD BRS]
0.0042266 1 DCx Rx d 13 39 10 00 16 94 A5 0F AE 12 0A FA DE BC [FD BRS]
0.0054818 1 2Dx Rx d 14 FB 03 20 05 C4 09 00 90 70 97 58 62 70 52 [FD BRS]
0.0060102 1 D4x Rx d 10 39 0C 14 0C FF FF FF FD FD FF [FD BRS]
0.0088593 1 DBx Rx d 13 39 0F 00 15 61 CA 6A 20 FF FF 7F CF FF [FD BRS]
0.0142155 1 18E19490x Rx d 15 03 00 00 7B 01 7B 01 04 00 05 00 00 00 00 00 [FD BRS]
0.0154377 1 E3x Rx d 13 39 06 0B 08 34 51 51 95 FC 82 D7 FF 41 [FD BRS]
0.0206481 1 E3x Rx d 10 05 00 00 0C F5 FC FF 00 00 00 [FD BRS]
0.0223095 1 D9x Rx d 13 39 13 00 15 33 FD 12 11 A0 75 0D A6 0F [FD BRS]
0.0233997 1 DBx Rx d 14 39 0E 00 20 62 3E 6A 2B 58 82 83 1A 3F F8 [FD BRS]
0.0243189 1 DCx Rx d 13 39 10 00 16 84 FF 10 AE 12 0A FA DE BC [FD BRS]
0.0254741 1 2Dx Rx d 14 E4 0A 21 05 C4 09 00 90 70 97 58 62 70 52 [FD BRS]
0.0288472 1 DBx Rx d 13 39 0F 00 15 83 DA 6B 20 FF FF 7F CF FF [FD BRS]
0.0432505 1 D9x Rx d 13 39 13 00 15 EE 5D 13 11 A0 75 8D A5 0F [FD BRS]
0.0436257 1 DBx Rx d 14 39 0E 00 20 00 CF 6B 2B 58 82 83 1A 3F F9 [FD BRS]
0.0442198 1 DCx Rx d 14 39 10 01 10 15 45 42 00 51 00 B6 52 0D 9C [FD BRS]
0.0447372 1 18E19490x Rx d 15 04 03 00 03 00 03 00 7E 36 ED 0C 75 0D 22 01 [FD BRS]
0.0455674 1 2Dx Rx d 14 C5 11 22 05 C4 09 00 90 70 97 58 62 70 52 [FD BRS]
0.0460927 1 D4x Rx d 8 39 04 06 04 0E 0D 42 85 [FD BRS]
0.0462541 1 E3x Rx d 9 41 00 05 08 00 80 03 43 D2 [FD BRS]
0.0489562 1 DBx Rx d 13 39 0F 00 15 2D A8 6C 20 FF FF 7F CF FF [FD BRS]
0.0020950 1 44 Rx d 1 04
0.0044435 1 D9x Rx d 13 39 13 00 15 08 18 06 10 A0 75 0D A8 0F [FD BRS]
0.0084338 1 D9x Rx d 13 39 13 00 15 16 82 F0 11 A0 75 CD A5 0F [FD BRS]
0.0095980 1 DBx Rx d 14 39 0E 00 20 56 CA 48 2B 68 82 83 1A 3F F7 [FD BRS]
0.0104392 1 DCx Rx d 14 39 10 01 10 15 45 42 32 51 00 7E 06 0D 9C [FD BRS]
0.0117564 1 2Dx Rx d 14 5E 56 FF 05 C4 09 00 90 70 97 58 22 70 52 [FD BRS]
0.0122837 1 D4x Rx d 8 39 04 06 04 0C BC 3B 85 [FD BRS]
0.0124441 1 E3x Rx d 9 41 00 05 08 00 80 03 43 D2 [FD BRS]
0.0151142 1 DBx Rx d 13 39 0F 00 15 45 C7 49 20 FF FF 7F CF FF [FD BRS]
0.0203734 1 18E19490x Rx d 15 01 01 00 6F 0D 62 01 80 0C 0C 01 BC 02 06 06 [FD BRS]
0.0269797 1 E3x Rx d 14 39 80 00 0C 00 7F A0 8F 17 30 B0 FE E1 D3 [FD BRS]
0.0285501 1 D9x Rx d 14 39 13 01 0B 5B BA 78 55 95 00 FE 03 BA FF [FD BRS]
0.0296353 1 DBx Rx d 15 39 0E 01 0F FC 35 FF FF FF FF FF FF FF EF D4 [FD BRS]
0.0305524 1 DCx Rx d 13 39 10 00 16 D9 67 EF AE 12 0A FA DE BC [FD BRS]
0.0317566 1 2Dx Rx d 14 4C 2B 00 05 C4 09 00 90 70 97 58 22 70 52 [FD BRS]
0.0350927 1 DBx Rx d 13 39 0F 00 15 63 F6 4A 20 FF FF 7F CF FF [FD BRS]
0.0369829 1 D4x Rx d 9 39 04 0C 05 0E 0F F4 FF FF [FD BRS]
0.0371823 1 E3x Rx d 9 39 04 22 08 00 41 C6 7E 78 [FD BRS]
0.0460497 1 44 Rx d 1 04
0.0483762 1 D9x Rx d 13 39 13 00 15 4D A6 F2 11 A0 75 CD A6 0F [FD BRS]
0.0012159 1 DBx Rx d 13 39 0F 00 15 74 2B 19 10 7F FF BF E7 FF [FD BRS]
0.0145381 1 D9x Rx d 13 39 13 00 15 0B 5A DA 10 A0 75 0D A6 0F [FD BRS]
0.0157573 1 DBx Rx d 14 39 0E 00 20 DB B2 32 2C 68 82 83 1A 3F FC [FD BRS]
0.0164835 1 DCx Rx d 13 39 10 00 16 58 6A D8 AE 12 0A FA DE BC [FD BRS]
0.0168628 1 18E19490x Rx d 15 01 01 00 6F 0D 62 01 80 0C 0C 01 BC 02 06 06 [FD BRS]
0.0178150 1 2Dx Rx d 14 EC F1 E9 05 C4 09 00 90 70 97 58 22 70 52 [FD BRS]
0.0183404 1 D4x Rx d 10 39 0C 14 0C FF FF FF FD FD FF [FD BRS]
0.0212135 1 DBx Rx d 13 39 0F 00 15 96 3B 33 20 FF FF 7F CF FF [FD BRS]
0.0277828 1 E3x Rx d 11 39 06 0B 08 2F 51 51 95 27 83 D7 [FD BRS]
0.0345115 1 D9x Rx d 13 39 13 00 15 52 E7 DB 11 A0 75 0D A5 0F [FD BRS]
0.0357077 1 DBx Rx d 14 39 0E 00 20 4F 96 33 2C 68 82 83 1A 3F FC [FD BRS]
0.0364878 1 DCx Rx d 13 39 10 00 16 7C C2 D9 AE 12 0A FA DE BC [FD BRS]
0.0378361 1 2Dx Rx d 14 CD EA EA 05 C4 09 00 90 70 97 58 22 70 52 [FD BRS]
0.0412032 1 DBx Rx d 13 39 0F 00 15 3C 49 34 20 FF FF 7F CF FF [FD BRS]
0.0464085 1 18E19490x Rx d 15 02 88 00 64 64 64 01 00 00 00 AE 12 40 DF 00 [FD BRS]
0.0478247 1 E3x Rx d 9 41 00 01 08 00 0D 07 00 00 [FD BRS]
0.0052863 1 D9x Rx d 14 39 13 01 0B 5B BA 78 55 95 00 FE 03 BA FF [FD BRS]
0.0065065 1 DBx Rx d 15 39 0E 01 0F FC 35 FF FF FF FF FF FF FF EF D4 [FD BRS]
0.0073527 1 DCx Rx d 13 39 10 00 16 41 20 C2 AE 12 0A FA DE C0 [FD BRS]
0.0086259 1 2Dx Rx d 14 6D 12 D3 05 C4 09 00 90 70 97 58 62 70 52 [FD BRS]
0.0091512 1 E3x Rx d 12 41 00 05 08 01 8A 2E F9 C4 E9 20 A1 [FD BRS]
0.0120093 1 DBx Rx d 13 39 0F 00 15 C8 E2 1D 20 FF FF 7F CF FF [FD BRS]
0.0138515 1 D4x Rx d 14 39 04 0C 05 0E 0F F4 FF FF 39 15 01 14 48 [FD BRS]
0.0252006 1 D9x Rx d 13 39 13 00 15 E3 CE C5 11 A0 76 4D A6 0F [FD BRS]
0.0265657 1 DBx Rx d 14 39 0E 00 20 7A 88 1D 2C 78 82 83 1A 3F 06 [FD BRS]
0.0272729 1 DCx Rx d 13 39 10 00 16 65 88 C3 AE 12 0A FA DE C0 [FD BRS]
0.0276542 1 18E19490x Rx d 15 02 88 00 64 64 64 01 00 00 00 54 12 97 F6 00 [FD BRS]
0.0286974 1 2Dx Rx d 14 30 2D D4 05 C4 09 00 90 70 97 58 62 70 52 [FD BRS]
0.0319906 1 DBx Rx d 13 39 0F 00 15 EE D3 1E 20 FF FF 7F CF FF [FD BRS]
0.0452927 1 D9x Rx d 13 39 13 00 15 C5 FF C6 11 A0 76 4D A6 0F [FD BRS]
0.0464929 1 DBx Rx d 14 39 0E 00 20 30 30 1E 2C 78 82 83 1A 3F 07 [FD BRS]
0.0472100 1 DCx Rx d 13 39 10 00 16 FA E0 C2 57 09 05 7D 6F 60 [FD BRS]
0.0486062 1 2Dx Rx d 14 59 3F D5 05 C4 09 00 90 70 97 58 22 70 52 [FD BRS]
0.0491326 1 D4x Rx d 10 39 0C 14 0C FF FF FF FC FD FF [FD BRS]
0.0057462 1 D9x Rx d 13 39 13 00 15 CA BD AD 11 A0 76 CD A5 0F [FD BRS]
0.0069874 1 DBx Rx d 14 39 0E 00 20 F9 D5 05 2C 78 82 83 1A 3F 06 [FD BRS]
0.0076796 1 DCx Rx d 13 39 10 00 16 DC 53 AB AE 12 0A FA DE C0 [FD BRS]
0.0080609 1 18E19490x Rx d 15 01 01 00 70 0D 62 01 80 0C 0C 01 BC 02 06 06 [FD BRS]
0.0090891 1 2Dx Rx d 14 FD 2A BC 05 C4 09 00 90 70 97 58 22 70 52 [FD BRS]
0.0096175 1 D4x Rx d 10 39 0C 14 0C FF FF FF FB FD FF [FD BRS]
0.0124936 1 DBx Rx d 13 39 0F 00 15 FF 4A 06 20 FF FF 7F CF FF [FD BRS]
0.0190458 1 E3x Rx d 13 39 06 0B 08 23 51 51 95 04 84 D7 FF 41 [FD BRS]
0.0242622 1 E3x Rx d 10 05 00 00 0C F5 FC FF 00 00 00 [FD BRS]
0.0257956 1 D9x Rx d 13 39 13 00 15 D2 87 AE 11 A0 76 CD A3 0F [FD BRS]
0.0269828 1 DBx Rx d 14 39 0E 00 20 B3 6D 06 2C 78 82 83 1A 3F 07 [FD BRS]
0.0276760 1 DCx Rx d 13 39 10 00 16 43 3B AC AE 12 0A FA DE C0 [FD BRS]
0.0290922 1 2Dx Rx d 14 E2 23 BD 05 C4 09 00 90 70 97 58 22 70 52 [FD BRS]
0.0324823 1 DBx Rx d 13 39 0F 00 15 1D 5A 07 20 FF FF 7F CF FF [FD BRS]
0.0375866 1 18E19490x Rx d 15 02 88 00 64 64 64 01 00 00 00 70 12 97 F6 00 [FD BRS]
0.0467285 1 D9x Rx d 13 39 13 00 15 E0 CD AF 11 A0 76 8D A3 0F [FD BRS]
0.0471046 1 DBx Rx d 14 39 0E 00 20 27 49 07 2C 78 82 83 1A 3F 07 [FD BRS]
0.0477208 1 DCx Rx d 14 39 10 01 10 15 45 42 30 51 00 16 16 0D 9C [FD BRS]
0.0491200 1 2Dx Rx d 14 C3 38 BE 05 C4 09 00 90 70 97 58 22 70 52 [FD BRS]
0.0496504 1 D4x Rx d 8 39 04 06 04 EE 1B 2E 85 [FD BRS]
0.0498098 1 E3x Rx d 9 41 00 05 08 00 80 03 43 D2 [FD BRS]
0.0019506 1 E3x Rx d 8 3A 02 00 04 F4 FF FF FF [FD BRS]
0.0033700 1 D9x Rx d 13 39 13 00 15 86 1E 99 12 A0 76 CD A4 0F [FD BRS]
0.0045841 1 DBx Rx d 14 39 0E 00 20 F5 30 F1 2C 78 82 83 1A 3F 06 [FD BRS]
0.0051953 1 DCx Rx d 13 39 10 00 16 95 A7 97 AE 12 0A FA DE C0 [FD BRS]
0.0066835 1 2Dx Rx d 14 71 9F A8 05 C4 09 00 90 70 97 58 22 70 52 [FD BRS]
0.0072118 1 D4x Rx d 10 39 0C 14 0C FF FF FF FB FD FF [FD BRS]
0.0100839 1 DBx Rx d 13 39 0F 00 15 78 A3 F2 20 FF FF 7F CF FF [FD BRS]
0.0151152 1 18E19490x Rx d 15 03 00 00 7B 01 7B 01 04 00 05 00 00 00 00 00 [FD BRS]
0.0166394 1 E3x Rx d 11 39 06 0B 08 1E 51 51 15 8C 84 D7 [FD BRS]
0.0218658 1 E3x Rx d 10 05 00 00 0C F5 FC FF 00 00 00 [FD BRS]
0.0233772 1 D9x Rx d 13 39 13 00 15 EB 27 9A 12 A0 76 CD A3 0F [FD BRS]
0.0245794 1 DBx Rx d 14 39 0E 00 20 BF 88 F2 2C 78 82 83 1A 3F 07 [FD BRS]
0.0252805 1 DCx Rx d 13 39 10 00 16 8F DE 98 AE 12 0A FA DE C0 [FD BRS]
0.0266757 1 2Dx Rx d 14 6E 96 A9 05 C4 09 00 90 70 97 58 22 70 52 [FD BRS]
0.0300738 1 DBx Rx d 13 39 0F 00 15 9A B3 F3 20 FF FF 7F CF FF [FD BRS]
0.0442780 1 D9x Rx d 13 39 13 00 15 91 69 9B 11 A0 76 4D A2 0F [FD BRS]
0.0446552 1 DBx Rx d 14 39 0E 00 20 E6 17 F3 2C 78 82 83 1A 3F 05 [FD BRS]
0.0452293 1 DCx Rx d 14 39 10 01 10 15 45 42 00 51 00 F6 42 0C 9C [FD BRS]
0.0457457 1 18E19490x Rx d 15 04 03 00 03 00 03 00 7E 36 ED 0C 76 0D 22 01 [FD BRS]
0.0467569 1 2Dx Rx d 14 4F 8D AA 05 C4 09 00 90 70 97 58 22 70 52 [FD BRS]
0.0472853 1 D4x Rx d 8 39 04 06 04 1F D1 2A 85 [FD BRS]
0.0474466 1 E3x Rx d 13 41 00 05 08 00 80 03 43 D2 94 32 62 32 [FD BRS]
0.0002133 1 2Dx Rx d 14 99 6E 93 05 C4 09 00 90 70 97 58 22 70 52 [FD BRS]
0.0035154 1 DBx Rx d 13 39 0F 00 15 C4 6A DD 20 FF FF 7F CF FF [FD BRS]
0.0079687 1 21Cx Rx d 8 24 00 00 00 00 00 00 00 [FD BRS]
0.0085059 1 18E19490x Rx d 15 04 03 00 03 00 03 00 7E 36 ED 0C 76 0D 22 01 [FD BRS]
0.0167137 1 D9x Rx d 13 39 13 00 15 1B 93 85 12 A0 76 8D A0 0F [FD BRS]
0.0180209 1 DBx Rx d 14 39 0E 00 20 1B 2A DD 2C 78 82 83 1A 3F 05 [FD BRS]
0.0186560 1 DCx Rx d 13 39 10 00 16 B2 3C 83 AE 12 0A FA DE BC [FD BRS]
0.0201162 1 2Dx Rx d 14 C4 51 94 05 C4 09 00 90 70 97 58 22 70 52 [FD BRS]
0.0206416 1 D4x Rx d 10 39 0C 14 0C FF FF FF FB FD FF [FD BRS]
0.0236997 1 DBx Rx d 13 39 0F 00 15 E2 5B DE 20 FF FF 7F CF FF [FD BRS]
0.0300780 1 E3x Rx d 11 39 06 0B 08 15 51 51 95 1D 85 D7 [FD BRS]
0.0353384 1 E3x Rx d 10 05 00 00 0C F5 FC FF 00 00 00 [FD BRS]
0.0367768 1 D9x Rx d 13 39 13 00 15 8E 5D 86 12 A0 76 0D 9F 0F [FD BRS]
0.0380720 1 DBx Rx d 14 39 0E 00 20 51 92 DE 2C 78 82 83 1A 3F 04 [FD BRS]
0.0386521 1 DCx Rx d 13 39 10 00 16 2D 54 84 AE 12 0A FA DE BC [FD BRS]
0.0390325 1 18E19490x Rx d 15 00 00 00 A5 55 55 55 55 05 00 00 00 00 00 00 [FD BRS]
0.0401157 1 2Dx Rx d 14 DB 58 95 05 C4 09 00 90 70 97 58 22 70 52 [FD BRS]
0.0435158 1 DBx Rx d 13 39 0F 00 15 00 4B DF 20 FF FF 7F CF FF [FD BRS]
0.0022373 1 18E19490x Rx d 15 00 00 00 A5 55 55 55 55 05 00 00 00 00 00 00 [FD BRS]
0.0041916 1 4Fx Rx d 8 20 08 0B A0 00 49 AD 6E [FD BRS]
0.0082019 1 44 Rx d 1 04
0.0103604 1 D9x Rx d 13 39 13 00 15 36 82 70 11 A0 77 CD A7 0F [FD BRS]
0.0118205 1 DBx Rx d 14 39 0F 01 06 4F 85 04 60 F8 1C 39 0E 00 20 [FD BRS]
0.0124857 1 DCx Rx d 13 39 10 00 16 46 52 6E AE 12 0A FA DE C4 [FD BRS]
0.0139279 1 2Dx Rx d 14 5A 99 7F 05 C4 09 00 90 70 97 58 22 70 52 [FD BRS]
0.0172870 1 DBx Rx d 13 39 0F 00 15 4D 37 C9 20 FF FF 7F CF FF [FD BRS]
0.0304151 1 D9x Rx d 13 39 13 00 15 74 27 71 11 A0 77 4D A7 0F [FD BRS]
0.0318413 1 DBx Rx d 14 39 0E 00 20 FC FA C9 2D 88 82 83 1A 3F 16 [FD BRS]
0.0323624 1 DCx Rx d 13 39 10 00 16 62 FA 6F AE 12 0A FA DE C4 [FD BRS]
0.0327447 1 18E19490x Rx d 15 01 01 00 71 0D 63 01 80 0C 07 01 BC 02 06 06 [FD BRS]
0.0338910 1 2Dx Rx d 14 48 E4 80 05 C4 09 00 90 70 97 58 22 70 52 [FD BRS]
0.0344193 1 D4x Rx d 10 39 0C 14 0C FF FF FF FA FD FF [FD BRS]
0.0372974 1 DBx Rx d 13 39 0F 00 15 6B 06 CA 20 FF FF 7F CF FF [FD BRS]
0.0438397 1 E3x Rx d 11 39 06 0B 08 00 51 51 15 7B 86 D7 [FD BRS]
0.0490570 1 E3x Rx d 10 05 00 00 0C F5 FC FF 00 00 00 [FD BRS]
0.0118544 1 D9x Rx d 13 39 13 00 15 FA A7 5D 11 A0 76 4D A6 0F [FD BRS]
0.0131496 1 DBx Rx d 14 39 0E 00 20 E6 BA B5 2D 78 82 83 1A 3F 0F [FD BRS]
0.0136688 1 DCx Rx d 13 39 10 00 16 9B B2 5B AE 12 0A FA DE C0 [FD BRS]
0.0152430 1 2Dx Rx d 14 FD 08 6C 05 C4 09 00 90 70 97 58 62 70 52 [FD BRS]
0.0157704 1 D4x Rx d 10 39 0C 14 0C FF FF FF FA FD FF [FD BRS]
0.0186565 1 DBx Rx d 13 39 0F 00 15 F4 98 B6 20 FF FF 7F CF FF [FD BRS]
0.0235567 1 18E19490x Rx d 15 03 00 00 80 01 80 01 04 00 05 00 00 00 00 00 [FD BRS]
0.0251989 1 E3x Rx d 11 39 06 0B 08 00 51 51 15 CB 87 D7 [FD BRS]
0.0304083 1 E3x Rx d 10 05 00 00 0C F5 FC FF 00 00 00 [FD BRS]
0.0318427 1 D9x Rx d 13 39 13 00 15 93 C9 5E 11 A0 76 0D A5 0F [FD BRS]
0.0331499 1 DBx Rx d 14 39 0E 00 20 61 9F B6 2D 78 82 83 1A 3F 10 [FD BRS]
0.0337200 1 DCx Rx d 13 39 10 00 16 04 DA 5C AE 12 0A FA DE C0 [FD BRS]
0.0352333 1 2Dx Rx d 14 E2 01 6D 05 C4 09 00 90 70 97 58 62 70 52 [FD BRS]
0.0386454 1 DBx Rx d 13 39 0F 00 15 16 88 B7 20 FF FF 7F CF FF [FD BRS]
0.0000078 1 DBx Rx d 14 39 0E 00 20 78 48 93 2D 88 82 83 1A 3F 0E [FD BRS]
0.0005249 1 DCx Rx d 13 39 10 00 16 CE 38 39 AE 12 0A FA DE C0 [FD BRS]
0.0009063 1 18E19490x Rx d 15 00 00 00 A5 55 55 55 55 05 00 00 00 00 00 00 [FD BRS]
0.0020955 1 2Dx Rx d 14 7E 0D 4A 05 C4 09 00 90 70 97 58 62 70 52 [FD BRS]
0.0055037 1 DBx Rx d 13 39 0F 00 15 32 85 94 20 FF FF 7F CF FF [FD BRS]
0.0195549 1 D9x Rx d 13 39 13 00 15 4B 8A 3C 13 A0 76 0D 99 0F [FD BRS]
0.0199320 1 DBx Rx d 14 39 0E 00 20 59 0C 94 2D 88 82 83 1A 3F 0C [FD BRS]
0.0204492 1 DCx Rx d 14 39 10 01 10 15 45 42 38 51 00 5E 06 0D 9C [FD BRS]
0.0221294 1 2Dx Rx d 14 17 1F 4B 05 C4 09 00 90 70 97 58 22 70 52 [FD BRS]
0.0226578 1 D4x Rx d 8 39 04 06 04 70 C4 17 85 [FD BRS]
0.0228181 1 E3x Rx d 9 41 00 05 08 00 80 03 43 D2 [FD BRS]
0.0256102 1 DBx Rx d 13 39 0F 00 15 D0 95 95 20 FF FF 7F CF FF [FD BRS]
0.0303875 1 18E19490x Rx d 15 01 01 00 70 0D 62 01 80 0C 0C 01 BC 02 06 06 [FD BRS]
0.0373318 1 E3x Rx d 13 39 80 00 0C 00 7F A6 8F 17 30 B0 FE 79 [FD BRS]
0.0386591 1 D9x Rx d 14 39 13 01 0B 5B BA 78 55 95 00 FE 03 BA FF [FD BRS]
0.0400453 1 DBx Rx d 15 39 0E 01 0F 00 36 FF FF FF FF FF FF FF EF D4 [FD BRS]
0.0407065 1 DCx Rx d 13 39 10 00 16 A7 78 3B AE 12 0A FA DE C0 [FD BRS]
0.0421157 1 2Dx Rx d 14 4A 20 4C 05 C4 09 00 90 70 97 58 22 70 52 [FD BRS]
0.0426420 1 D4x Rx d 12 39 FE 1D 08 59 40 B2 08 4A 02 00 00 [FD BRS]
0.0455092 1 DBx Rx d 13 39 0F 00 15 F6 A4 96 20 FF FF 7F CF FF [FD BRS]
0.0473374 1 D5 Rx d 11 22 24 91 2C CB 7E A7 57
0.0004059 1 DBx Rx d 15 39 0E 01 0F FC 35 FF FF FF FF FF FF FF EF D4 [FD BRS]
0.0010701 1 DCx Rx d 13 39 10 00 16 39 4F 22 AE 12 0A FA DE C4 [FD BRS]
0.0024403 1 2Dx Rx d 14 5C 92 33 05 C4 09 00 90 70 97 58 22 70 52 [FD BRS]
0.0058668 1 DBx Rx d 13 39 0F 00 15 CE A6 7D 20 FF FF 7F CF FF [FD BRS]
0.0076860 1 D4x Rx d 14 39 04 0C 05 0E 0F F4 FF FF 39 15 01 14 48 [FD BRS]
0.0106312 1 18E19490x Rx d 15 00 00 00 A5 55 55 55 55 05 00 00 00 00 00 00 [FD BRS]
0.0126794 1 4Fx Rx d 8 20 2C 08 A0 00 49 AD 6C [FD BRS]
0.0187942 1 D9x Rx d 13 39 13 00 15 02 7C 25 11 A0 77 0D A3 0F [FD BRS]
0.0203623 1 DBx Rx d 14 39 0E 00 20 BE 2F 7D 2E 88 82 83 1A 3F 14 [FD BRS]
0.0208825 1 DCx Rx d 13 39 10 00 16 1D E7 23 AE 12 0A FA DE C4 [FD BRS]
0.0225097 1 2Dx Rx d 14 01 AD 34 05 C4 09 00 90 70 97 58 22 70 52 [FD BRS]
0.0230360 1 E3x Rx d 9 41 00 00 08 02 34 39 37 45 [FD BRS]
0.0258672 1 DBx Rx d 13 39 0F 00 15 E8 97 7E 20 FF FF 7F CF FF [FD BRS]
0.0388863 1 D9x Rx d 13 39 13 00 15 84 F8 26 11 A0 77 8D A3 0F [FD BRS]
0.0403415 1 DBx Rx d 14 39 0E 00 20 02 42 7E 2E 88 82 83 1A 3F 14 [FD BRS]
0.0408616 1 DCx Rx d 13 39 10 00 16 82 8F 24 AE 12 0A FA DE C4 [FD BRS]
0.0412429 1 18E19490x Rx d 15 01 01 00 71 0D 62 01 80 0C 07 01 BC 02 06 06 [FD BRS]
0.0424151 1 2Dx Rx d 14 1E A4 35 05 C4 09 00 90 70 97 58 22 70 52 [FD BRS]
0.0431798 1 E3x Rx d 9 41 00 00 08 03 83 C0 2B 5F [FD BRS]
0.0458630 1 DBx Rx d 13 39 0F 00 15 0A 87 7F 20 FF FF 7F CF FF [FD BRS]
0.0083503 1 D9x Rx d 13 39 13 00 15 62 F5 0F 11 A0 77 4D 9D 0F [FD BRS]
0.0088735 1 DBx Rx d 14 39 0E 00 20 A9 0A 67 2E 88 82 83 1A 3F 1A [FD BRS]
0.0093927 1 DCx Rx d 14 39 10 01 10 15 45 42 30 51 00 16 16 0D 9C [FD BRS]
0.0109849 1 2Dx Rx d 14 70 DF 1E 05 C4 09 00 90 70 97 58 62 70 52 [FD BRS]
0.0115103 1 D4x Rx d 8 39 04 06 04 A0 2C 0E 85 [FD BRS]
0.0116716 1 E3x Rx d 9 41 00 05 08 00 80 03 43 D2 [FD BRS]
0.0144777 1 DBx Rx d 13 39 0F 00 15 A5 EB 68 20 FF FF 7F CF FF [FD BRS]
0.0191540 1 18E19490x Rx d 15 01 01 00 71 0D 62 01 80 0C 0C 01 BC 02 06 06 [FD BRS]
0.0273818 1 D9x Rx d 14 39 13 01 0B 5B BA 78 55 95 00 FE 03 BA FF [FD BRS]
0.0288859 1 DBx Rx d 15 39 0E 01 0F 00 36 FF FF FF FF FF FF FF EF D4 [FD BRS]
0.0295491 1 DCx Rx d 13 39 10 00 16 7A 98 0E AE 12 0A FA DE C4 [FD BRS]
0.0309873 1 2Dx Rx d 14 6F D6 1F 05 C4 09 00 90 70 97 58 62 70 52 [FD BRS]
0.0315157 1 E3x Rx d 12 41 00 05 08 01 29 77 BC A6 90 62 9A [FD BRS]
0.0343888 1 DBx Rx d 13 39 0F 00 15 47 FB 69 20 FF FF 7F CF FF [FD BRS]
0.0361950 1 D4x Rx d 14 39 04 0C 05 0E 0F F4 FF FF 39 15 01 14 48 [FD BRS]
0.0472954 1 D9x Rx d 13 39 13 00 15 69 FE 11 13 A0 77 CD 9E 0F [FD BRS]
0.0488936 1 DBx Rx d 14 39 0E 00 20 9F 54 69 2E 88 82 83 1A 3F 1A [FD BRS]
0.0494127 1 DCx Rx d 13 39 10 00 16 5E 30 0F AE 12 0A FA DE C4 [FD BRS]
0.0041050 1 D9x Rx d 13 39 13 00 15 B1 E3 FB 12 A0 76 0D 9B 0F [FD BRS]
0.0057181 1 DBx Rx d 14 39 0E 00 20 F6 80 53 2C 68 82 83 1A 3F 02 [FD BRS]
0.0062393 1 DCx Rx d 14 39 10 01 10 15 45 42 00 51 00 F6 42 0C 9C [FD BRS]
0.0078075 1 2Dx Rx d 14 FC 6A 0A 05 C4 09 00 90 70 97 58 62 70 52 [FD BRS]
0.0083409 1 D4x Rx d 8 39 04 06 04 51 E6 0A 85 [FD BRS]
0.0085012 1 E3x Rx d 9 41 00 05 08 00 80 03 43 D2 [FD BRS]
0.0112324 1 DBx Rx d 13 39 0F 00 15 3E 0D 54 20 FF FF 7F CF FF [FD BRS]
0.0143708 1 D9x Rx d 9 39 FE 28 08 29 00 00 00 00 [FD BRS]
0.0241929 1 D9x Rx d 14 39 13 01 0B 5B BA 78 55 95 00 FE 03 BA FF [FD BRS]
0.0257291 1 DBx Rx d 15 39 0E 01 0F 08 36 FF FF FF FF FF FF FF EF D4 [FD BRS]
0.0263882 1 DCx Rx d 13 39 10 00 16 DA 54 FA AE 12 0A FA DE C0 [FD BRS]
0.0267725 1 18E19490x Rx d 15 03 00 00 7F 01 7F 01 04 00 05 00 00 00 00 00 [FD BRS]
0.0277957 1 2Dx Rx d 14 E3 63 0B 05 C4 09 00 90 70 97 58 62 70 52 [FD BRS]
0.0283221 1 E3x Rx d 12 41 00 05 08 01 5B 7E 33 26 AD 79 8E [FD BRS]
0.0312312 1 DBx Rx d 13 39 0F 00 15 DC 1D 55 20 FF FF 7F CF FF [FD BRS]
0.0330274 1 D4x Rx d 14 39 04 0C 05 6B 6D F4 FF FF 39 15 01 14 48 [FD BRS]
0.0441084 1 D9x Rx d 13 39 13 00 15 64 64 FD 11 A0 76 0D 9F 0F [FD BRS]
0.0457356 1 DBx Rx d 14 39 0E 00 20 FE 86 55 2C 68 82 83 1A 3F 12 [FD BRS]
0.0462547 1 DCx Rx d 13 39 10 00 16 FE FC FB AE 12 0A FA DE C0 [FD BRS]
0.0478830 1 2Dx Rx d 14 BE 5C 0C 05 C4 09 00 90 70 97 58 62 70 52 [FD BRS]
0.0037925 1 D9x Rx d 13 39 13 00 15 48 75 E7 13 A0 75 4D 9E 0F [FD BRS]
0.0043177 1 DBx Rx d 14 39 0E 00 20 1E CC 3F 2C 68 82 83 1A 3F FF [FD BRS]
0.0048378 1 DCx Rx d 14 39 10 01 10 15 45 42 00 51 00 D6 42 0D 9C [FD BRS]
0.0053532 1 18E19490x Rx d 15 04 03 00 02 00 03 00 7E 36 ED 0C 75 0D 22 01 [FD BRS]
0.0064704 1 2Dx Rx d 14 B9 17 F6 05 C4 09 00 90 70 97 58 22 70 52 [FD BRS]
0.0069988 1 D4x Rx d 8 39 04 06 04 63 A9 06 85 [FD BRS]
0.0071591 1 E3x Rx d 9 41 00 05 08 00 80 03 43 D2 [FD BRS]
0.0099733 1 DBx Rx d 13 39 0F 00 15 B7 50 40 20 FF FF 7F CF FF [FD BRS]
0.0228114 1 D9x Rx d 14 39 13 01 0B 5B BA 78 55 95 00 FE 03 BA FF [FD BRS]
0.0243816 1 DBx Rx d 15 39 0E 01 0F 08 36 FF FF FF FF FF FF FF EF D4 [FD BRS]
0.0250417 1 DCx Rx d 13 39 10 00 16 78 DE E6 AE 12 0A FA DE BC [FD BRS]
0.0264559 1 2Dx Rx d 14 D0 05 F7 05 C4 09 00 90 70 97 58 62 70 52 [FD BRS]
0.0269853 1 E3x Rx d 12 41 00 05 08 01 5A 85 6D 19 50 3C DF [FD BRS]
0.0298854 1 DBx Rx d 13 39 0F 00 15 55 40 41 20 FF FF 7F CF FF [FD BRS]
0.0317556 1 D4x Rx d 14 39 04 0C 05 4C 4F F4 FF FF 39 15 01 14 48 [FD BRS]
0.0345198 1 18E19490x Rx d 15 00 00 00 A5 55 55 55 55 05 00 00 00 00 00 00 [FD BRS]
0.0428576 1 D9x Rx d 13 39 13 00 15 BE C0 E9 11 A0 75 0D A1 0F [FD BRS]
0.0443888 1 DBx Rx d 14 39 0E 00 20 87 83 41 2C 68 82 83 1A 3F FC [FD BRS]
0.0449120 1 DCx Rx d 13 39 10 00 16 5C 76 E7 AE 12 0A FA DE BC [FD BRS]
0.0465252 1 2Dx Rx d 14 75 72 F8 05 C4 09 00 90 70 97 58 62 70 52 [FD BRS]
0.0061605 1 D9x Rx d 14 39 13 01 0B 5B BA 78 55 95 00 FE 03 BA FF [FD BRS]
0.0075827 1 DBx Rx d 15 39 0E 01 0F 14 36 FF FF FF FF FF FF FF EF D4 [FD BRS]
0.0082428 1 DCx Rx d 13 39 10 00 16 7E AE D2 AE 12 0A FA DE C4 [FD BRS]
0.0096131 1 D4x Rx d 14 39 04 0C 05 0E 0F F4 FF FF 39 0C 16 08 FF [FD BRS]
0.0101394 1 2Dx Rx d 14 5C B0 E3 05 C4 09 00 90 70 97 58 62 70 52 [FD BRS]
0.0106638 1 D4x Rx d 15 39 0C 08 3C FE 74 00 80 00 00 08 6C F6 B9 20 [FD BRS]
0.0113181 1 E3x Rx d 12 41 00 05 08 01 FD 74 03 34 DB 0B A6 [FD BRS]
0.0131233 1 DBx Rx d 13 39 0F 00 15 CB C0 2D 20 FF FF 7F CF FF [FD BRS]
0.0258994 1 D9x Rx d 13 39 13 00 15 69 28 D5 12 A0 77 4D 9E 0F [FD BRS]
0.0275906 1 DBx Rx d 14 39 0E 00 20 E1 20 2D 2E 88 82 83 1A 3F 1A [FD BRS]
0.0281108 1 DCx Rx d 13 39 10 00 16 5A 06 D3 AE 12 0A FA DE C4 [FD BRS]
0.0284921 1 18E19490x Rx d 15 02 88 00 64 64 64 01 00 00 00 CA 12 06 E8 00 [FD BRS]
0.0297273 1 2Dx Rx d 14 01 8F E4 05 C4 09 00 90 70 97 58 62 70 52 [FD BRS]
0.0330665 1 DBx Rx d 13 39 0F 00 15 ED F1 2E 20 FF FF 7F CF FF [FD BRS]
0.0459856 1 D9x Rx d 13 39 13 00 15 47 8C EB 09 50 3B A6 CF 07 [FD BRS]
0.0475698 1 DBx Rx d 14 39 0E 00 20 5D 4D 2E 2E 88 82 83 1A 3F 1A [FD BRS]
0.0480870 1 DCx Rx d 13 39 10 00 16 C5 6E D4 AE 12 0A FA DE C4 [FD BRS]
0.0115615 1 D9x Rx d 13 39 13 00 15 79 23 BA 13 A0 75 8D 98 0F [FD BRS]
0.0121648 1 DBx Rx d 14 39 FE 0B 08 61 00 00 00 01 00 00 00 39 0E [FD BRS]
0.0126789 1 DCx Rx d 14 39 10 01 10 15 45 42 2D 51 00 8E 46 0C 9C [FD BRS]
0.0131953 1 18E19490x Rx d 15 04 03 00 02 00 02 00 74 36 ED 0C 75 0D 22 01 [FD BRS]
0.0143025 1 2Dx Rx d 14 5B D9 C9 05 C4 09 00 90 70 97 58 62 70 52 [FD BRS]
0.0148288 1 D4x Rx d 8 39 04 06 04 31 28 FD 85 [FD BRS]
0.0149892 1 E3x Rx d 9 41 00 05 08 00 80 03 43 D2 [FD BRS]
0.0178143 1 DBx Rx d 13 39 0F 00 15 94 07 13 20 FF FF 7F CF FF [FD BRS]
0.0272596 1 DBx Rx d 14 39 0E 02 2A 3E 00 43 00 65 0A 64 82 21 18 [FD BRS]
0.0295078 1 E3x Rx d 13 39 80 00 0C 00 7F 70 8F 19 30 B0 FE 75 [FD BRS]
0.0010643 1 DC085D Rx d 8 40 02 00 00 00 00 00 00
0.0013565 1 18E19490x Rx d 15 00 00 00 A5 55 55 55 55 05 00 00 00 00 00 00 [FD BRS]
0.0075248 1 44 Rx d 1 04
0.0093592 1 D9x Rx d 13 39 13 00 15 A5 AC 9E 12 A0 78 8D 9F 0F [FD BRS]
0.0111493 1 DBx Rx d 14 39 0F 01 06 4F 85 04 60 98 19 39 0E 00 20 [FD BRS]
0.0116595 1 DCx Rx d 13 39 10 00 16 8A 39 9C AE 0A 0A FA DE C8 [FD BRS]
0.0132587 1 2Dx Rx d 14 7B C1 AD 05 C4 09 00 90 70 97 58 E2 6F 52 [FD BRS]
0.0166178 1 DBx Rx d 13 39 0F 00 15 12 F0 F7 20 FF FF 7F CF FF [FD BRS]
0.0284620 1 E3x Rx d 8 3A 02 00 04 F4 FF FF FF [FD BRS]
0.0295154 1 D9x Rx d 13 39 13 00 15 13 FB 9F 13 A0 78 4D 9F 0F [FD BRS]
0.0311166 1 DCx Rx d 13 39 10 00 16 AE 91 9D AE 0A 0A FA DE C8 [FD BRS]
0.0314987 1 DBx Rx d 14 39 0E 00 20 C5 D3 F7 32 C8 82 83 1A 3F 22 [FD BRS]
0.0320189 1 18E19490x Rx d 15 01 01 00 72 0D 62 01 80 0C 07 01 BC 02 06 06 [FD BRS]
0.0331861 1 2Dx Rx d 14 33 A9 AE 05 C4 09 00 90 70 97 58 22 70 52 [FD BRS]
0.0337125 1 D4x Rx d 10 39 0C 14 0C FF FF FF F8 FD FF [FD BRS]
0.0366266 1 DBx Rx d 13 39 0F 00 15 AC 05 F8 20 FF FF 7F CF FF [FD BRS]
0.0431318 1 E3x Rx d 11 39 06 0B 08 3E 51 51 15 41 4B D7 [FD BRS]
0.0483572 1 E3x Rx d 10 05 00 00 0C F5 FC FF 00 00 00 [FD BRS]
0.0495096 1 D9x Rx d 13 39 13 00 15 34 C5 A0 13 A0 78 8D 9D 0F [FD BRS]
0.0022015 1 18E19490x Rx d 15 03 00 00 83 01 83 01 04 00 05 00 00 00 00 00 [FD BRS]
0.0042278 1 E3x Rx d 11 39 06 0B 08 92 51 51 95 72 47 D7 [FD BRS]
0.0094422 1 E3x Rx d 10 05 00 00 0C F5 FC FF 00 00 00 [FD BRS]
0.0105855 1 D9x Rx d 13 39 13 00 15 A0 5E 8C 13 A0 75 8D 98 0F [FD BRS]
0.0122277 1 DBx Rx d 14 39 0E 00 20 99 69 E4 2C 68 82 83 1A 3F 03 [FD BRS]
0.0127469 1 DCx Rx d 13 39 10 00 16 13 85 8A AE 12 0A FA DE BC [FD BRS]
0.0142641 1 2Dx Rx d 14 17 3D 9B 05 C4 09 00 90 70 97 58 62 70 52 [FD BRS]
0.0177222 1 DBx Rx d 13 39 0F 00 15 D7 CF E5 20 FF FF 7F CF FF [FD BRS]
0.0315174 1 D9x Rx d 13 39 13 00 15 32 A1 8D 13 A0 75 4D 98 0F [FD BRS]
0.0321855 1 DCx Rx d 14 39 10 01 10 15 45 42 38 51 00 46 06 0C 9C [FD BRS]
0.0327007 1 DBx Rx d 14 39 0E 00 20 40 FF E5 2C 68 82 83 1A 3F 06 [FD BRS]
0.0332229 1 18E19490x Rx d 15 04 03 00 02 00 02 00 7E 36 ED 0C 76 0D 22 01 [FD BRS]
0.0343201 1 2Dx Rx d 14 4A 02 9C 05 C4 09 00 90 70 97 58 62 70 52 [FD BRS]
0.0348475 1 D4x Rx d 8 39 04 06 04 46 DB F4 85 [FD BRS]
0.0350078 1 E3x Rx d 12 41 00 05 08 00 80 03 43 D2 92 17 82 [FD BRS]
0.0377540 1 DBx Rx d 13 39 0F 00 15 F1 FE E6 20 FF FF 7F CF FF [FD BRS]
0.0005751 1 D9x Rx d 13 39 13 00 15 07 19 77 11 A0 76 4D A2 0F [FD BRS]
0.0022873 1 DCx Rx d 13 39 10 00 16 B1 25 75 AE 12 0A FA DE C0 [FD BRS]
0.0026685 1 DBx Rx d 14 39 0E 00 20 45 D8 CF 2C 78 82 83 1A 3F 0B [FD BRS]
0.0043437 1 2Dx Rx d 14 7C C9 86 05 C4 09 00 90 70 97 58 62 70 52 [FD BRS]
0.0048701 1 D4x Rx d 10 39 0C 14 0C FF FF FF FB FD FF [FD BRS]
0.0078162 1 DBx Rx d 13 39 0F 00 15 BE BE D0 20 FF FF 7F CF FF [FD BRS]
0.0143124 1 E3x Rx d 11 39 06 0B 08 10 51 51 15 21 47 D7 [FD BRS]
0.0195818 1 E3x Rx d 10 05 00 00 0C F5 FC FF 00 00 00 [FD BRS]
0.0206361 1 D9x Rx d 13 39 13 00 15 CE 58 78 12 A0 76 0D A0 0F [FD BRS]
0.0222314 1 DCx Rx d 13 39 10 00 16 FC CD 76 AE 12 0A FA DE C0 [FD BRS]
0.0226125 1 DBx Rx d 14 39 0E 00 20 2A 7A D0 2C 78 82 83 1A 3F 0B [FD BRS]
0.0231347 1 18E19490x Rx d 15 00 00 00 A5 55 55 55 55 05 00 00 00 00 00 00 [FD BRS]
0.0243459 1 2Dx Rx d 14 63 C0 87 05 C4 09 00 90 70 97 58 62 70 52 [FD BRS]
0.0248732 1 4Fx Rx d 8 28 59 01 00 05 AF CA 73 [FD BRS]
0.0278054 1 DBx Rx d 13 39 0F 00 15 5C AE D1 20 FF FF 7F CF FF [FD BRS]
0.0405475 1 D9x Rx d 13 39 13 00 15 3F 02 79 12 A0 76 0D 9F 0F [FD BRS]
0.0422287 1 DCx Rx d 14 39 10 01 10 15 45 42 30 51 00 26 52 0D 9C [FD BRS]
0.0427469 1 DBx Rx d 14 39 0E 00 20 3E 57 D1 2C 78 82 83 1A 3F 0C [FD BRS]
0.0443891 1 2Dx Rx d 14 C6 B7 88 05 C4 09 00 90 70 97 58 62 70 52 [FD BRS]
0.0449154 1 D4x Rx d 8 39 04 06 04 B7 11 F0 85 [FD BRS]
0.0450768 1 E3x Rx d 9 41 00 05 08 00 80 03 43 D2 [FD BRS]
0.0478259 1 DBx Rx d 13 39 0F 00 15 7A 9F D2 20 FF FF 7F CF FF [FD BRS]
0.0046551 1 E3x Rx d 14 39 80 00 0C 00 FF 40 8F 19 30 B0 FE C1 D3 [FD BRS]
0.0058475 1 D9x Rx d 14 39 13 01 0B 5B BA 78 55 95 00 FE 03 BA FF [FD BRS]
0.0072287 1 DCx Rx d 13 39 10 00 16 49 32 5F AE 12 0A FA DE C0 [FD BRS]
0.0076108 1 DBx Rx d 15 39 0E 01 0F FC 35 FF FF FF FF FF FF FF EF D4 [FD BRS]
0.0094340 1 2Dx Rx d 14 89 F5 70 05 C4 09 00 90 70 97 58 62 70 52 [FD BRS]
0.0128552 1 DBx Rx d 13 39 0F 00 15 6C 5C BA 20 FF FF 7F CF FF [FD BRS]
0.0147184 1 D4x Rx d 9 39 04 0C 05 28 2B F4 FF FF [FD BRS]
0.0149177 1 E3x Rx d 9 39 04 22 08 00 41 C6 7E 78 [FD BRS]
0.0172510 1 18E19490x Rx d 15 00 00 00 A5 55 55 55 55 05 00 00 00 00 00 00 [FD BRS]
0.0237192 1 44 Rx d 1 04
0.0254996 1 D9x Rx d 13 39 13 00 15 C9 0D 62 11 A0 76 0D A3 0F [FD BRS]
0.0273628 1 DCx Rx d 13 39 10 00 16 4D 2E 60 AE 12 0A FA DE C0 [FD BRS]
0.0277450 1 DBx Rx d 14 39 0F 01 06 4F 85 04 60 98 19 39 0E 00 20 [FD BRS]
0.0294812 1 2Dx Rx d 14 96 FC 71 05 C4 09 00 90 70 97 58 62 70 52 [FD BRS]
0.0328543 1 DBx Rx d 13 39 0F 00 15 8E 4C BB 20 FF FF 7F CF FF [FD BRS]
0.0456694 1 D9x Rx d 13 39 13 00 15 2B 1D 63 11 A0 76 0D A3 0F [FD BRS]
0.0472227 1 DCx Rx d 13 39 10 00 16 69 86 61 AE 12 0A FA DE C0 [FD BRS]
0.0476048 1 DBx Rx d 14 39 0E 00 20 50 DC BB 2D 78 82 83 1A 3F 10 [FD BRS]
0.0481270 1 18E19490x Rx d 15 01 01 00 70 0D 63 01 80 0C 0C 01 BC 02 06 06 [FD BRS]
0.0493942 1 2Dx Rx d 14 B7 E7 72 05 C4 09 00 90 70 97 58 62 70 52 [FD BRS]
0.0017105 1 DBx Rx d 13 39 0F 00 15 31 A7 A4 20 FF FF 7F CF FF [FD BRS]
0.0082537 1 E3x Rx d 9 41 00 01 08 00 0D 07 00 00 [FD BRS]
0.0157425 1 D9x Rx d 13 39 13 00 15 FA 26 4C 12 A0 78 8D 9F 0F [FD BRS]
0.0161217 1 DBx Rx d 14 39 0E 00 20 B8 1A A4 2F 98 83 41 8D 1F 92 [FD BRS]
0.0166420 1 DCx Rx d 14 39 10 01 10 15 46 42 00 51 00 DE 06 0D 9C [FD BRS]
0.0182752 1 2Dx Rx d 14 91 95 5B 05 C4 09 00 90 70 97 58 62 70 52 [FD BRS]
0.0187996 1 D4x Rx d 8 39 04 06 04 3D 5B E7 85 [FD BRS]
0.0189600 1 E3x Rx d 9 41 00 05 08 00 80 03 43 D2 [FD BRS]
0.0218191 1 DBx Rx d 13 39 0F 00 15 D3 B7 A5 20 FF FF 7F CF FF [FD BRS]
0.0261223 1 18E19490x Rx d 15 01 01 00 72 0D 63 01 80 0C 0C 01 BC 02 06 06 [FD BRS]
0.0281995 1 E3x Rx d 9 41 00 01 08 01 00 00 02 C4 [FD BRS]
0.0344092 1 D9x Rx d 14 39 13 01 0B 5B BA 78 55 95 00 FE 03 BA FF [FD BRS]
0.0360994 1 DCx Rx d 13 39 10 00 16 DA DB 4B AE 12 0A FA DE C8 [FD BRS]
0.0364796 1 DBx Rx d 15 39 0E 01 0F 08 36 FF FF FF FF FF FF FF EF D4 [FD BRS]
0.0382728 1 2Dx Rx d 14 CC AA 5C 05 C4 09 00 90 70 97 58 62 70 52 [FD BRS]
0.0387971 1 E3x Rx d 14 41 00 05 08 01 45 A6 9E 0C 00 75 FE 39 80 [FD BRS]
0.0417403 1 DBx Rx d 13 39 0F 00 15 F5 86 A6 20 FF FF 7F CF FF [FD BRS]
0.0435145 1 D4x Rx d 9 39 04 0C 05 0E 0F F4 FF FF [FD BRS]
0.0482138 1 E3x Rx d 9 41 00 01 08 02 2F 00 00 02 [FD BRS]
0.0029309 1 E3x Rx d 11 39 06 0B 08 97 51 51 95 67 47 D7 [FD BRS]
0.0091106 1 D9x Rx d 13 39 13 00 15 FE 2E 37 13 A0 76 0D 9B 0F [FD BRS]
0.0107308 1 DCx Rx d 13 39 10 00 16 99 A9 35 AE 12 0A FA DE C0 [FD BRS]
0.0111109 1 DBx Rx d 14 39 0E 00 20 6C 6C 8F 36 3C 41 41 8D 1F 85 [FD BRS]
0.0129931 1 2Dx Rx d 14 FA 61 46 05 C4 09 00 90 70 97 58 62 70 52 [FD BRS]
0.0164433 1 DBx Rx d 13 39 0F 00 15 BA C6 90 20 FF FF 7F CF FF [FD BRS]
0.0206615 1 DC08E2 Rx d 8 40 02 00 00 00 00 00 00
0.0209518 1 DCx Rx d 9 39 FE 6F 08 94 01 00 80 01 [FD BRS]
0.0211501 1 18E19498 Rx d 7 3A 4A 48 84 92 14 A6
0.0300810 1 D9x Rx d 13 39 13 00 15 FE 9A 38 12 A0 76 CD 99 0F [FD BRS]
0.0307852 1 DCx Rx d 14 39 10 01 10 15 45 42 00 51 00 BE 12 0D 9C [FD BRS]
0.0313064 1 DBx Rx d 14 39 0E 00 20 03 CE 90 2C 78 82 83 1A 3F 0B [FD BRS]
0.0329976 1 2Dx Rx d 14 E5 68 47 05 C4 09 00 90 70 97 58 62 70 52 [FD BRS]
0.0335230 1 D4x Rx d 8 39 04 06 04 CC 91 E3 85 [FD BRS]
0.0336823 1 E3x Rx d 9 41 00 05 08 00 80 03 43 D2 [FD BRS]
0.0364635 1 DBx Rx d 13 39 0F 00 15 58 D6 91 20 FF FF 7F CF FF [FD BRS]
0.0484027 1 E3x Rx d 13 39 80 00 0C 00 7F 72 8F 18 30 B0 FE 71 [FD BRS]
0.0491850 1 D9x Rx d 14 39 13 01 0B 5B BA 78 55 95 00 FE 03 BA FF [FD BRS]
0.0000689 1 21Cx Rx d 8 24 00 00 00 00 00 00 00 [FD BRS]
0.0082587 1 D9x Rx d 13 39 13 00 15 BF C3 27 14 A0 75 0D 97 0F [FD BRS]
0.0098509 1 DCx Rx d 13 39 10 00 16 6C B2 25 AE 12 0A FA DE BC [FD BRS]
0.0102310 1 DBx Rx d 14 39 0E 00 20 AA 0C 7F 2B 68 82 83 1A 3F 02 [FD BRS]
0.0107512 1 18E19490x Rx d 15 01 01 00 6F 0D 62 01 80 0C 0C 01 BC 02 06 06 [FD BRS]
0.0121484 1 2Dx Rx d 14 3F BF 36 05 C4 09 00 90 70 97 58 22 70 52 [FD BRS]
0.0126778 1 D4x Rx d 10 39 0C 14 0C FF FF FF FB FD FF [FD BRS]
0.0157979 1 DBx Rx d 13 39 0F 00 15 BB D8 80 20 FF FF 7F CF FF [FD BRS]
0.0221001 1 E3x Rx d 11 39 06 0B 08 B5 51 51 15 FA 42 D7 [FD BRS]
0.0273095 1 E3x Rx d 10 05 00 00 0C F5 FC FF 00 00 00 [FD BRS]
0.0283169 1 D9x Rx d 13 39 13 00 15 3B 07 28 13 A0 75 4D 96 0F [FD BRS]
0.0298691 1 DCx Rx d 13 39 10 00 16 21 5A 26 AE 12 0A FA DE BC [FD BRS]
0.0007438 1 DCx Rx d 13 39 10 00 16 4C 06 1B AE 12 0A FA DE BC [FD BRS]
0.0007503 1 2Dx Rx d 14 38 D6 1C 05 C4 09 00 90 70 97 58 22 70 52 [FD BRS]
0.0041314 1 DBx Rx d 13 39 0F 00 15 F9 0E 66 20 FF FF 7F CF FF [FD BRS]
0.0083377 1 18E19490x Rx d 15 04 03 00 03 00 03 00 7E 36 ED 0C 75 0D 22 01 [FD BRS]
0.0167325 1 D9x Rx d 13 39 13 00 15 99 C6 0E 12 A0 75 4D 9D 0F [FD BRS]
0.0183806 1 DCx Rx d 13 39 10 00 16 D9 4D 0C AE 12 0A FA DE BC [FD BRS]
0.0187598 1 DBx Rx d 14 39 0E 00 20 9B 93 66 2C 68 82 83 1A 3F FF [FD BRS]
0.0206500 1 2Dx Rx d 14 27 DF 1D 05 C4 09 00 90 70 97 58 22 70 52 [FD BRS]
0.0211774 1 D4x Rx d 10 39 0C 14 0C FF FF FF FC FD FF [FD BRS]
0.0052950 1 D9x Rx d 13 39 13 00 15 E3 12 03 12 A0 75 4D 9D 0F [FD BRS]
0.0069832 1 DCx Rx d 13 39 10 00 16 AA 74 01 AE 12 0A FA DE BC [FD BRS]
0.0073654 1 DBx Rx d 14 39 0E 00 20 1C 15 5B 2B 68 82 83 1A 3F FE [FD BRS]
0.0000594 1 21Cx Rx d 8 24 00 00 00 00 00 00 00 [FD BRS]
0.0029668 1 DBx Rx d 13 39 0F 00 15 63 F6 4A 20 FF FF 7F CF FF [FD BRS]
0.0164939 1 D9x Rx d 13 39 13 00 15 B1 52 F2 13 A0 75 0D 9A 0F [FD BRS]
0.0170931 1 DCx Rx d 14 39 10 01 10 15 45 42 32 51 00 4E 16 0C 9C [FD BRS]
0.0176083 1 DBx Rx d 14 39 FE 0B 08 61 00 00 00 01 00 00 00 39 0E [FD BRS]
0.0195225 1 2Dx Rx d 14 53 22 01 05 C4 09 00 90 70 97 58 22 70 52 [FD BRS]
0.0200518 1 D4x Rx d 8 39 04 06 04 BC 9A D5 85 [FD BRS]
0.0202112 1 E3x Rx d 9 41 00 05 08 00 80 03 43 D2 [FD BRS]
0.0229864 1 DBx Rx d 13 39 0F 00 15 81 E6 4B 20 FF FF 7F CF FF [FD BRS]
0.0271796 1 18E19490x Rx d 15 01 01 00 6F 0D 63 01 80 0C 0C 01 BC 02 06 06 [FD BRS]
0.0325197 1 DBx Rx d 14 39 0E 02 2A 3E 00 43 00 65 0A 64 82 21 18 [FD BRS]
0.0347279 1 E3x Rx d 13 39 80 00 0C 00 7F B2 8F 19 30 B0 FE E5 [FD BRS]
0.0356073 1 D9x Rx d 14 39 13 01 0B 5B BA 78 55 95 00 FE 03 BA FF [FD BRS]
0.0371585 1 DCx Rx d 13 39 10 00 16 ED 95 F1 AE 12 0A FA DE BC [FD BRS]
0.0375407 1 DBx Rx d 13 39 0E 01 0F FC 35 FF FF FF FF FF FF FF [FD BRS]
0.0395099 1 2Dx Rx d 14 72 39 02 05 C4 09 00 90 70 97 58 22 70 52 [FD BRS]
0.0428770 1 DBx Rx d 15 39 0E 00 20 1E 7C 4B 2B 68 82 83 1A 3F FE 7F [FD BRS]
0.0447972 1 D4x Rx d 9 39 04 0C 05 0E 0F F4 FF FF [FD BRS]
0.0449966 1 E3x Rx d 9 39 04 22 08 00 41 86 7E 78 [FD BRS]
0.0000011 1 0 Rx d 0 
0.0000704 1 DBx Rx d 14 39 0E 00 20 B0 4E 36 2C 68 82 83 1A 3F FF [FD BRS]
0.0019496 1 2Dx Rx d 14 90 D5 ED 05 C4 09 00 90 70 97 58 22 70 52 [FD BRS]
0.0024760 1 D4x Rx d 8 39 04 06 04 4D 50 D1 85 [FD BRS]
0.0026354 1 E3x Rx d 9 41 00 05 08 00 80 03 43 D2 [FD BRS]
0.0054295 1 DBx Rx d 13 39 0F 00 15 1E 78 37 20 FF FF 7F CF FF [FD BRS]
0.0171837 1 E3x Rx d 13 39 80 00 0C 00 7F B2 8F 19 30 B0 FE BD [FD BRS]
0.0181801 1 D9x Rx d 14 39 13 01 0B 5B BA 78 55 95 00 FE 03 BA FF [FD BRS]
0.0194893 1 DCx Rx d 13 39 10 00 16 AE 42 DD AE 12 0A FA DE BC [FD BRS]
0.0198696 1 18E19490x Rx d 15 03 00 00 7E 01 7E 01 04 00 05 00 00 00 00 00 [FD BRS]
0.0205868 1 DBx Rx d 15 39 0E 01 0F FC 35 FF FF FF FF FF FF FF EF D4 [FD BRS]
0.0220390 1 2Dx Rx d 14 B1 CE EE 05 C4 09 00 90 70 97 58 22 70 52 [FD BRS]
0.0225654 1 D4x Rx d 12 39 FE 1D 08 59 40 B2 08 4A 02 00 00 [FD BRS]
0.0254165 1 DBx Rx d 13 39 0F 00 15 A0 8D 38 20 FF FF 7F CF FF [FD BRS]
0.0271667 1 E3x Rx d 9 39 04 22 08 00 41 86 7E 78 [FD BRS]
0.0321611 1 4Fx Rx d 8 20 8D 0B A0 00 49 AD 66 [FD BRS]
0.0362505 1 44 Rx d 1 04
0.0378469 1 D9x Rx d 13 39 13 00 15 BB 78 E0 12 A0 75 8D 9D 0F [FD BRS]
0.0395811 1 DCx Rx d 13 39 10 00 16 E3 AA DE AE 12 0A FA DE BC [FD BRS]
0.0399612 1 DBx Rx d 14 39 0F 01 06 4F 85 04 60 78 19 39 0E 00 20 [FD BRS]
0.0420124 1 2Dx Rx d 14 AE C7 EF 05 C4 09 00 90 70 97 58 22 70 52 [FD BRS]
0.0454096 1 DBx Rx d 13 39 0F 00 15 42 9D 39 20 FF FF 7F CF FF [FD BRS]
0.0034739 1 44 Rx d 1 04
0.0050023 1 D9x Rx d 13 39 13 00 15 1E 30 CC 12 A0 75 0D 9E 0F [FD BRS]
0.0067865 1 DCx Rx d 13 39 10 00 16 3B 09 CA AE 12 0A FA DE BC [FD BRS]
0.0071656 1 DBx Rx d 14 39 0F 01 06 4F 85 04 60 78 19 39 0E 00 20 [FD BRS]
0.0091908 1 2Dx Rx d 14 E3 41 DB 05 C4 09 00 90 70 97 58 22 70 52 [FD BRS]
0.0125959 1 DBx Rx d 13 39 0F 00 15 DB 47 25 20 FF FF 7F CF FF [FD BRS]
0.0251691 1 D9x Rx d 13 39 13 00 15 13 CA CD 12 A0 75 CD 9D 0F [FD BRS]
0.0266332 1 DCx Rx d 13 39 10 00 16 1F A1 CB AE 12 0A FA DE BC [FD BRS]
0.0270156 1 18E19490x Rx d 15 01 01 00 6F 0D 62 01 80 0C 0C 01 BC 02 06 06 [FD BRS]
0.0277178 1 DBx Rx d 14 39 0E 00 20 0E 4A 25 2C 68 82 83 1A 3F FF [FD BRS]
0.0291020 1 2Dx Rx d 14 BE 7E DC 05 C4 09 00 90 70 97 58 22 70 52 [FD BRS]
0.0296303 1 D4x Rx d 10 39 0C 14 0C FF FF FF FC FD FF [FD BRS]
0.0326055 1 DBx Rx d 13 39 0F 00 15 FD 76 26 20 FF FF 7F CF FF [FD BRS]
0.0390587 1 E3x Rx d 11 39 06 0B 08 3A 51 51 95 F2 42 D7 [FD BRS]
0.0442791 1 E3x Rx d 10 05 00 00 0C F5 FC FF 00 00 00 [FD BRS]
0.0451534 1 D9x Rx d 13 39 13 00 15 90 A2 CE 12 A0 75 8D 9C 0F [FD BRS]
0.0466516 1 DCx Rx d 13 39 10 00 16 80 C9 CC AE 12 0A FA DE BC [FD BRS]
0.0471378 1 DBx Rx d 14 39 0E 00 20 6B 10 26 2C 68 82 83 1A 3F 00 [FD BRS]
0.0491150 1 2Dx Rx d 14 A1 77 DD 05 C4 09 00 90 70 97 58 22 70 52 [FD BRS]
0.0005113 1 DCx Rx d 13 39 10 00 16 17 99 B5 AE 12 0A FA DE BC [FD BRS]
0.0010065 1 DBx Rx d 15 39 0E 01 0F 00 36 FF FF FF FF FF FF FF EF D4 [FD BRS]
0.0029916 1 2Dx Rx d 14 88 B5 C6 05 C4 09 00 90 70 97 58 22 70 52 [FD BRS]
0.0035180 1 E3x Rx d 14 41 00 05 08 01 3E 57 C3 8B DC 85 07 39 80 [FD BRS]
0.0064812 1 DBx Rx d 13 39 0F 00 15 B2 36 10 20 FF FF 7F CF FF [FD BRS]
0.0082214 1 D4x Rx d 9 39 04 0C 05 0E 0F F4 FF FF [FD BRS]
0.0129588 1 E3x Rx d 9 41 00 01 08 02 2F 00 00 02 [FD BRS]
0.0173122 1 44 Rx d 1 04
0.0188266 1 D9x Rx d 13 39 13 00 15 0E 2C B8 12 A0 75 0D 9D 0F [FD BRS]
0.0205288 1 DCx Rx d 13 39 10 00 16 5A 71 B6 AE 12 0A FA DE BC [FD BRS]
0.0209091 1 18E19490x Rx d 15 02 88 00 64 64 64 01 00 00 00 93 12 4B 00 00 [FD BRS]
0.0216143 1 DBx Rx d 14 39 0F 01 06 4F 85 04 60 5C 19 39 0E 00 20 [FD BRS]
0.0230575 1 2Dx Rx d 14 97 BC C7 05 C4 09 00 90 70 97 58 22 70 52 [FD BRS]
0.0264496 1 DBx Rx d 13 39 0F 00 15 50 26 11 20 FF FF 7F CF FF [FD BRS]
0.0328979 1 E3x Rx d 9 41 00 01 08 03 F8 3D 0F 3C [FD BRS]
0.0389175 1 D9x Rx d 13 39 13 00 15 3C 66 B9 12 A0 75 4D 9D 0F [FD BRS]
0.0404597 1 DCx Rx d 13 39 10 00 16 7E D9 B7 AE 12 0A FA DE BC [FD BRS]
0.0409939 1 DBx Rx d 14 39 0E 00 20 6A 09 11 2B 68 82 83 1A 3F FF [FD BRS]
0.0429681 1 2Dx Rx d 14 32 CB C8 05 C4 09 00 90 70 97 58 22 70 52 [FD BRS]
0.0434955 1 D4x Rx d 10 39 0C 14 0C FF FF FF FC FD FF [FD BRS]
0.0464606 1 DBx Rx d 13 39 0F 00 15 76 17 12 20 FF FF 7F CF FF [FD BRS]
0.0074269 1 E3x Rx d 13 39 80 00 0C 00 7F 60 8F 19 30 B0 FE 45 [FD BRS]
0.0081732 1 D9x Rx d 14 39 13 01 0B 5B BA 78 55 95 00 FE 03 BA FF [FD BRS]
0.0096144 1 DCx Rx d 13 39 10 00 16 CF 3A A1 AE 12 0A FA DE BC [FD BRS]
0.0099958 1 18E19490x Rx d 15 03 00 00 7B 01 7B 01 04 00 05 00 00 00 00 00 [FD BRS]
0.0107119 1 DBx Rx d 15 39 0E 01 0F FC 35 FF FF FF FF FF FF FF EF D4 [FD BRS]
0.0121841 1 2Dx Rx d 14 47 54 B2 05 C4 09 00 90 70 97 58 22 70 52 [FD BRS]
0.0156693 1 DBx Rx d 13 39 0F 00 15 24 46 FC 20 FF FF 7F CF FF [FD BRS]
0.0174665 1 D4x Rx d 9 39 04 0C 05 0E 0F F4 FF FF [FD BRS]
0.0176658 1 E3x Rx d 9 39 04 22 08 00 41 86 7E 78 [FD BRS]
0.0201120 1 DC085D Rx d 8 40 02 00 00 00 00 00 00
0.0265143 1 44 Rx d 1 04
0.0280106 1 D9x Rx d 13 39 13 00 15 16 07 A4 13 A0 75 4D 9C 0F [FD BRS]
0.0296919 1 DCx Rx d 13 39 10 00 16 82 D2 A2 AE 12 0A FA DE BC [FD BRS]
0.0302400 1 DBx Rx d 14 39 0F 01 06 4F 85 04 60 5C 19 39 0E 00 20 [FD BRS]
0.0322592 1 2Dx Rx d 14 58 5D B3 05 C4 09 00 90 70 97 58 22 70 52 [FD BRS]
0.0356674 1 DBx Rx d 13 39 0F 00 15 C6 56 FD 20 FF FF 7F CF FF [FD BRS]
0.0396596 1 18E19490x Rx d 15 04 03 00 02 00 03 00 7E 36 ED 0C 75 0D 22 01 [FD BRS]
0.0474428 1 E3x Rx d 8 3A 02 00 04 F4 FF FF FF [FD BRS]
0.0481662 1 D9x Rx d 13 39 13 00 15 54 A2 A5 13 A0 75 CD 9C 0F [FD BRS]
0.0000009 1 F9x Rx d 0  [FD]
0.0022432 1 E3x Rx d 11 39 06 0B 08 3A 51 51 15 F3 42 D7 [FD BRS]
0.0082089 1 D9x Rx d 13 39 13 00 15 7D FE 8D 13 A0 75 0D 9B 0F [FD BRS]
0.0097761 1 DCx Rx d 13 39 10 00 16 37 2D 8B AE 12 0A FA DE BC [FD BRS]
0.0103443 1 DBx Rx d 14 39 0E 00 20 AB 57 E5 2B 68 82 83 1A 3F FD [FD BRS]
0.0123065 1 2Dx Rx d 14 3C 19 9C 05 C4 09 00 90 70 97 58 22 70 52 [FD BRS]
0.0158006 1 DBx Rx d 13 39 0F 00 15 F1 FE E6 20 FF FF 7F CF FF [FD BRS]
0.0291768 1 D9x Rx d 13 39 13 00 15 C1 26 8E 13 A0 75 CD 99 0F [FD BRS]
0.0297020 1 DCx Rx d 14 39 10 01 10 15 45 42 00 51 00 AE 42 0C 9C [FD BRS]
0.0302173 1 18E19490x Rx d 15 04 03 00 03 00 03 00 7E 36 ED 0C 75 0D 22 01 [FD BRS]
0.0309395 1 DBx Rx d 14 39 FE 0B 08 61 00 00 00 01 00 00 00 39 0E [FD BRS]
0.0323337 1 2Dx Rx d 14 23 10 9D 05 C4 09 00 90 70 8B AC 11 38 29 [FD BRS]
0.0328600 1 D4x Rx d 8 39 04 06 04 EA 4B C1 85 [FD BRS]
0.0330204 1 E3x Rx d 9 41 00 05 08 00 80 03 43 D2 [FD BRS]
0.0358205 1 DBx Rx d 13 39 0F 00 15 13 EE E7 20 FF FF 7F CF FF [FD BRS]
0.0423017 1 21Dx Rx d 3 30 40 28 [FD BRS]
0.0453452 1 DBx Rx d 14 39 0E 02 2A 3E 00 43 00 65 0A 64 82 21 18 [FD BRS]
0.0475424 1 E3x Rx d 13 39 80 00 0C 00 7F 60 8F 19 30 B0 FE 1D [FD BRS]
0.0482818 1 D9x Rx d 14 39 13 01 0B 5B BA 78 55 95 00 FE 03 BA FF [FD BRS]
0.0003158 1 E3x Rx d 11 39 06 0B 08 39 51 51 95 F0 42 D7 [FD BRS]
0.0062375 1 D9x Rx d 13 39 13 00 15 60 FE 79 13 A0 75 CD 99 0F [FD BRS]
0.0077367 1 DCx Rx d 13 39 10 00 16 27 5D 77 AE 12 0A FA DE BC [FD BRS]
0.0081171 1 18E19490x Rx d 15 00 00 00 A5 55 55 55 55 05 00 00 00 00 00 00 [FD BRS]
0.0088223 1 DBx Rx d 14 39 0E 00 20 7F 6A D1 2B 68 82 83 1A 3F FC [FD BRS]
0.0103425 1 2Dx Rx d 14 B0 AC 88 05 C4 09 00 90 70 97 58 22 70 52 [FD BRS]
0.0137836 1 DBx Rx d 13 39 0F 00 15 7A 9F D2 20 FF FF 7F CF FF [FD BRS]
0.0272088 1 D9x Rx d 13 39 13 00 15 70 6A 7A 13 A0 75 4D 97 0F [FD BRS]
0.0277350 1 DCx Rx d 14 39 10 01 10 15 45 42 2D 51 00 8E 46 0C 9C [FD BRS]
0.0284162 1 DBx Rx d 14 39 0E 00 20 43 0E D2 2B 68 82 83 1A 3F FB [FD BRS]
0.0304014 1 2Dx Rx d 14 AF A5 89 05 C4 09 00 90 70 97 58 22 70 52 [FD BRS]
0.0309307 1 D4x Rx d 8 39 04 06 04 AD 46 BD 85 [FD BRS]
0.0310901 1 E3x Rx d 9 41 00 05 08 00 80 03 43 D2 [FD BRS]
0.0338912 1 DBx Rx d 13 39 0F 00 15 98 8F D3 20 FF FF 7F CF FF [FD BRS]
0.0378204 1 18E19490x Rx d 15 01 01 00 6F 0D 63 01 80 0C 0C 01 BC 02 06 06 [FD BRS]
0.0456106 1 E3x Rx d 13 39 80 00 0C 00 7F 60 8F 19 30 F0 FE F5 [FD BRS]
0.0464920 1 D9x Rx d 14 39 13 01 0B 5B BA 78 55 95 00 FE 03 BA FF [FD BRS]
0.0478002 1 DCx Rx d 13 39 10 00 16 19 8C 79 AE 12 0A FA DE BC [FD BRS]
0.0484524 1 DBx Rx d 15 39 0E 01 0F F4 35 FF FF FF FF FF FF FF EF D4 [FD BRS]
0.0050906 1 D9x Rx d 14 39 13 01 0B 5B BA 78 55 95 00 FE 03 BA FF [FD BRS]
0.0066298 1 DCx Rx d 13 39 10 00 16 B2 16 60 AE 12 0A FA DE BC [FD BRS]
0.0074100 1 DBx Rx d 15 39 0E 01 0F FC 35 FF FF FF FF FF FF FF EF D4 [FD BRS]
0.0093032 1 2Dx Rx d 14 E0 E7 71 05 C4 09 00 90 70 97 58 22 70 52 [FD BRS]
0.0098316 1 E3x Rx d 14 41 00 05 08 01 C1 32 0A F1 88 E0 41 41 00 [FD BRS]
0.0127057 1 DBx Rx d 13 39 0F 00 15 8E 4C BB 20 FF FF 7F CF FF [FD BRS]
0.0146229 1 D4x Rx d 14 39 04 0C 05 0E 0F F4 FF FF 39 15 01 14 48 [FD BRS]
0.0166741 1 18E19490x Rx d 15 00 00 00 A5 55 55 55 55 05 00 00 00 00 00 00 [FD BRS]
0.0195183 1 4Fx Rx d 8 20 F0 06 A0 00 49 AD 63 [FD BRS]
0.0251550 1 D9x Rx d 13 39 13 00 15 B5 46 63 13 A0 75 CD 99 0F [FD BRS]
0.0267192 1 DCx Rx d 13 39 10 00 16 96 BE 61 AE 12 0A FA DE BC [FD BRS]
0.0273273 1 DBx Rx d 14 39 0E 00 20 8F B0 BB 2B 68 82 83 1A 3F FC [FD BRS]
0.0293485 1 2Dx Rx d 14 C1 FC 72 05 C4 09 00 90 70 97 58 22 70 52 [FD BRS]
0.0298799 1 E3x Rx d 9 41 00 00 08 02 34 39 37 C1 [FD BRS]
0.0327790 1 DBx Rx d 13 39 0F 00 15 20 3E BC 20 FF FF 7F CF FF [FD BRS]
0.0450981 1 D9x Rx d 13 39 13 00 15 81 DD 64 13 A0 75 0D 9B 0F [FD BRS]
0.0466043 1 DCx Rx d 13 39 10 00 16 DB 56 62 AE 12 0A FA DE BC [FD BRS]
0.0469847 1 18E19490x Rx d 15 01 01 00 6F 0D 63 01 80 0C 0C 01 BC 02 06 06 [FD BRS]
0.0476848 1 DBx Rx d 14 39 0E 00 20 58 21 BC 2B 68 82 83 1A 3F FF [FD BRS]
0.0492450 1 2Dx Rx d 14 DE F5 73 05 C4 09 00 90 70 97 58 22 70 52 [FD BRS]
0.0497714 1 D4x Rx d 10 39 0C 14 0C FF FF FF FC FD FF [FD BRS]
0.0023081 1 DBx Rx d 13 39 0F 00 15 4B 73 A9 20 FF FF 7F CF FF [FD BRS]
0.0061564 1 18E19490x Rx d 15 03 00 00 85 01 85 01 04 00 05 00 00 00 00 00 [FD BRS]
0.0088466 1 E3x Rx d 11 39 06 0B 08 38 51 51 15 F0 42 D7 [FD BRS]
0.0147083 1 D9 Rx d 11 
0.0163174 1 DCx Rx d 13 39 10 00 16 BC 29 4F AE 12 0A FA DE BC [FD BRS]
0.0169386 1 DBx Rx d 14 39 0E 00 20 72 4A A9 2B 58 82 83 1A 3F F9 [FD BRS]
0.0188788 1 2Dx Rx d 14 79 64 60 05 C4 09 00 90 70 97 58 62 70 52 [FD BRS]
0.0223949 1 DBx Rx d 13 39 0F 00 15 6D 42 AA 20 FF FF 7F CF FF [FD BRS]
0.0288751 1 E3x Rx d 9 41 00 01 08 00 0D 07 00 00 [FD BRS]
0.0356679 1 D9x Rx d 13 39 13 00 15 12 3E 52 13 A0 75 8D 97 0F [FD BRS]
0.0362481 1 DCx Rx d 14 39 10 01 10 15 45 42 32 52 00 4E 16 0C 9C [FD BRS]
0.0367634 1 18E19490x Rx d 15 04 03 00 03 00 02 00 7E 36 ED 0C 75 0D 22 01 [FD BRS]
0.0374866 1 DBx Rx d 14 39 0E 00 20 03 9C AA 2B 58 82 83 1A 3F FB [FD BRS]
0.0389038 1 2Dx Rx d 14 66 6D 61 05 C4 09 00 90 70 97 58 62 70 52 [FD BRS]
0.0394301 1 D4x Rx d 8 39 04 06 04 6E C3 B5 85 [FD BRS]
0.0395895 1 E3x Rx d 9 41 00 05 08 00 80 03 43 D2 [FD BRS]
0.0424146 1 DBx Rx d 13 39 0F 00 15 8F 52 AB 20 FF FF 7F CF FF [FD BRS]
0.0488338 1 E3x Rx d 9 41 00 01 08 01 00 00 02 C4 [FD BRS]
0.0014084 1 DBx Rx d 13 39 0F 00 15 C0 12 9D 20 FF FF 7F CF FF [FD BRS]
0.0051837 1 18E19490x Rx d 15 00 00 00 A5 55 55 55 55 05 00 00 00 00 00 00 [FD BRS]
0.0010817 1 2Dx Rx d 14 36 04 48 05 C4 09 00 90 70 97 58 22 70 52 [FD BRS]
0.0016081 1 D4x Rx d 8 39 04 06 04 2B 7F B0 85 [FD BRS]
0.0017685 1 E3x Rx d 9 41 00 05 08 00 80 03 43 D2 [FD BRS]
0.0045976 1 DBx Rx d 13 39 0F 00 15 7E E7 92 20 FF FF 7F CF FF [FD BRS]
0.0070190 1 D9x Rx d 9 39 FE 28 08 29 00 00 00 00 [FD BRS]
0.0028810 1 D9x Rx d 13 39 13 00 15 73 CE 27 13 A0 75 4D 9B 0F [FD BRS]
0.0045462 1 DCx Rx d 13 39 10 00 16 6C B2 25 AE 12 0A FA DE BC [FD BRS]
0.0053824 1 DBx Rx d 14 39 0E 00 20 85 EE 7F 2B 68 82 83 1A 3F FC [FD BRS]
0.0072986 1 2Dx Rx d 14 3F BF 36 05 C4 09 00 90 70 97 58 22 70 52 [FD BRS]
0.0106437 1 DBx Rx d 13 39 0F 00 15 BB D8 80 20 FF FF 7F CF FF [FD BRS]
0.0229718 1 D9x Rx d 13 39 13 00 15 6D 8E 28 13 A0 75 CD 9B 0F [FD BRS]
0.0244780 1 DCx Rx d 13 39 10 00 16 21 5A 26 AE 12 0A FA DE BC [FD BRS]
0.0248583 1 18E19490x Rx d 15 01 01 00 6F 0D 63 01 80 0C 0C 01 BC 02 06 06 [FD BRS]
0.0255575 1 DBx Rx d 14 39 0E 00 20 B4 52 80 2B 68 82 83 1A 3F FC [FD BRS]
0.0272017 1 2Dx Rx d 14 20 B6 37 05 C4 09 00 90 70 97 58 22 70 52 [FD BRS]
0.0277281 1 D4x Rx d 10 39 0C 14 0C FF FF FF FC FD FF [FD BRS]
0.0304812 1 21Cx Rx d 15 11 02 01 02 05 D8 02 B4 01 A1 00 E7 00 81 00 [FD BRS]
0.0311484 1 21Dx Rx d 3 30 40 28 [FD BRS]
0.0312675 1 DBx Rx d 13 39 0F 00 15 59 C8 81 20 FF FF 7F CF FF [FD BRS]
0.0316659 1 21Cx Rx d 15 21 00 AF 00 69 00 49 00 3D 00 36 00 32 04 DA [FD BRS]
0.0371641 1 E3x Rx d 11 39 06 0B 08 38 51 51 95 F2 42 D7 [FD BRS]
0.0429717 1 D9x Rx d 13 39 13 00 15 FF 71 29 13 A0 75 0D 9B 0F [FD BRS]
0.0445049 1 DCx Rx d 13 39 10 00 16 05 F2 27 AE 12 0A FA DE BC [FD BRS]
0.0453621 1 DBx Rx d 14 39 0E 00 20 D6 A3 81 2B 68 82 83 1A 3F FD [FD BRS]
0.0472273 1 2Dx Rx d 14 85 C1 38 05 C4 09 00 90 70 97 58 22 70 52 [FD BRS]
0.0012584 1 DBx Rx d 13 39 0F 00 15 E9 89 6E 20 FF FF 7F CF FF [FD BRS]
0.0145346 1 D9x Rx d 13 39 13 00 15 4E 5F 16 13 A0 75 CD 97 0F [FD BRS]
0.0150968 1 DCx Rx d 14 39 10 01 10 15 45 42 00 52 00 EE 46 0C 9C [FD BRS]
0.0156142 1 18E19490x Rx d 15 04 03 00 03 00 02 00 7E 36 ED 0C 75 0D 22 01 [FD BRS]
0.0163373 1 DBx Rx d 14 39 0E 00 20 11 BE 6E 2B 68 82 83 1A 3F FA [FD BRS]
0.0178456 1 2Dx Rx d 14 98 2E 25 05 C4 09 00 90 70 97 58 62 70 52 [FD BRS]
0.0183719 1 D4x Rx d 8 39 04 06 04 FB 97 A9 85 [FD BRS]
0.0185323 1 E3x Rx d 9 41 00 05 08 00 80 03 43 D2 [FD BRS]
0.0212784 1 DBx Rx d 13 39 0F 00 15 0B 99 6F 20 FF FF 7F CF FF [FD BRS]
0.0330647 1 E3x Rx d 13 39 80 00 0C 00 FF 41 8F 1A 30 B0 FE 2D [FD BRS]
0.0336290 1 D9x Rx d 14 39 13 01 0B 5B BA 78 55 95 00 FE 03 BA FF [FD BRS]
0.0350722 1 DCx Rx d 13 39 10 00 16 72 D7 15 AE 12 0A FA DE BC [FD BRS]
0.0360594 1 DBx Rx d 15 39 0E 01 0F F0 35 FF FF FF FF FF FF FF EF D4 [FD BRS]
0.0378596 1 2Dx Rx d 14 CF 2E 26 05 C4 09 00 90 70 97 58 22 70 52 [FD BRS]
0.0383870 1 D4x Rx d 12 39 FE 1D 08 59 40 B2 08 4A 02 00 00 [FD BRS]
0.0412641 1 DBx Rx d 13 39 0F 00 15 B4 72 70 20 FF FF 7F CF FF [FD BRS]
0.0431323 1 E3x Rx d 9 39 04 22 08 00 41 86 7E 78 [FD BRS]
0.0449825 1 18E19490x Rx d 15 00 00 00 A5 55 55 55 55 05 00 00 00 00 00 00 [FD BRS]
0.0480607 1 4Fx Rx d 8 20 27 03 A0 00 49 AD 62 [FD BRS]
0.0080617 1 D9x Rx d 13 39 13 00 15 BE F8 02 13 A0 75 0D 9A 0F [FD BRS]
0.0096639 1 DCx Rx d 14 39 10 01 10 15 45 42 00 52 00 CE 02 0D 9C [FD BRS]
0.0105960 1 DBx Rx d 14 39 0E 00 20 C5 83 5A 2B 68 82 83 1A 3F FB [FD BRS]
0.0124202 1 2Dx Rx d 14 A3 B3 11 05 C4 09 00 90 70 97 58 22 70 52 [FD BRS]
0.0129476 1 D4x Rx d 8 39 04 06 04 C9 D8 A5 85 [FD BRS]
0.0131070 1 E3x Rx d 9 41 00 05 08 00 80 03 43 D2 [FD BRS]
0.0158451 1 DBx Rx d 13 39 0F 00 15 80 F8 5B 20 FF FF 7F CF FF [FD BRS]
0.0195553 1 18E19490x Rx d 15 01 01 00 6F 0D 63 01 80 0C 0C 01 BC 02 06 06 [FD BRS]
0.0276396 1 E3x Rx d 14 39 80 00 0C 00 7F 66 8F 1A 30 B0 FE 05 A9 [FD BRS]
0.0281549 1 D9x Rx d 14 39 13 01 0B 5B BA 78 55 95 00 FE 03 BA FF [FD BRS]
0.0296291 1 DCx Rx d 13 39 10 00 16 AA 74 01 AE 12 0A FA DE BC [FD BRS]
0.0305742 1 DBx Rx d 15 39 0E 01 0F F4 35 FF FF FF FF FF FF FF EF D4 [FD BRS]
0.0323984 1 2Dx Rx d 14 82 A8 12 05 C4 09 00 90 70 97 58 22 70 52 [FD BRS]
0.0358236 1 DBx Rx d 13 39 0F 00 15 2E 8A 5C 20 FF FF 7F CF FF [FD BRS]
0.0376778 1 D4x Rx d 9 39 04 0C 05 0E 0F F4 FF FF [FD BRS]
0.0378771 1 E3x Rx d 9 39 04 22 08 00 41 C6 7E 78 [FD BRS]
0.0467125 1 44 Rx d 1 04
0.0480029 1 D9x Rx d 13 39 13 00 15 98 D6 04 12 A0 75 CD 9C 0F [FD BRS]
0.0496161 1 DCx Rx d 13 39 10 00 16 E7 9C 02 AE 12 0A FA DE BC [FD BRS]
0.0000014 1 0 Rx d 0 
0.0000537 1 DBx Rx d 14 39 0E 00 20 8C 66 44 2C 68 82 83 1A 3F FC [FD BRS]
0.0018849 1 2Dx Rx d 14 22 72 FB 05 C4 09 00 90 70 97 58 22 70 52 [FD BRS]
0.0024133 1 D4x Rx d 10 39 0C 14 0C FF FF FF FC FD FF [FD BRS]
0.0053004 1 DBx Rx d 13 39 0F 00 15 DD 03 45 20 FF FF 7F CF FF [FD BRS]
0.0118077 1 E3x Rx d 11 39 06 0B 08 3A 51 51 95 EF 42 D7 [FD BRS]
0.0175033 1 D9x Rx d 13 39 13 00 15 B4 AF ED 12 A0 75 8D 9C 0F [FD BRS]
0.0190005 1 DCx Rx d 13 39 10 00 16 0B E7 EB AE 12 0A FA DE BC [FD BRS]
0.0200307 1 DBx Rx d 14 39 0E 00 20 EE 97 45 2C 68 82 83 1A 3F FD [FD BRS]
0.0218619 1 2Dx Rx d 14 7F 4D FC 05 C4 09 00 90 70 97 58 22 70 52 [FD BRS]
0.0253120 1 DBx Rx d 13 39 0F 00 15 FB 32 46 20 FF FF 7F CF FF [FD BRS]
0.0289472 1 18E19490x Rx d 15 02 88 00 64 64 64 01 00 00 00 7E 12 4B 00 00 [FD BRS]
0.0385101 1 D9x Rx d 13 39 13 00 15 DC 7A EE 12 A0 75 4D 9A 0F [FD BRS]
0.0390673 1 DCx Rx d 14 39 10 01 10 15 45 42 00 51 00 AE 42 0C 9C [FD BRS]
0.0400155 1 DBx Rx d 14 39 0E 00 20 16 4C 46 2B 68 82 83 1A 3F FB [FD BRS]
0.0418827 1 2Dx Rx d 14 60 44 FD 05 C4 09 00 90 70 97 58 22 70 52 [FD BRS]
0.0424120 1 D4x Rx d 8 39 04 06 04 38 12 A1 85 [FD BRS]
0.0425724 1 E3x Rx d 9 41 00 05 08 00 80 03 43 D2 [FD BRS]
0.0453185 1 DBx Rx d 13 39 0F 00 15 19 22 47 20 FF FF 7F CF FF [FD BRS]
0.0090986 1 D9x Rx d 13 39 13 00 15 02 F8 DF 12 A0 75 CD 99 0F [FD BRS]
0.0096588 1 DCx Rx d 14 39 10 01 10 15 45 42 00 52 00 96 06 0C 9C [FD BRS]
0.0106909 1 DBx Rx d 14 39 0E 00 20 1F 04 37 2C 68 82 83 1A 3F FC [FD BRS]
0.0125142 1 2Dx Rx d 14 B1 CE EE 05 C4 09 00 90 70 97 58 22 70 52 [FD BRS]
0.0130405 1 D4x Rx d 8 39 04 06 04 3F EA 9E 85 [FD BRS]
0.0132009 1 E3x Rx d 13 41 00 05 08 00 80 03 43 D2 8E BA 09 32 [FD BRS]
0.0159480 1 DBx Rx d 13 39 0F 00 15 A0 8D 38 20 FF FF 7F CF FF [FD BRS]
0.0281281 1 D9x Rx d 14 39 13 01 0B 5B BA 78 55 95 00 FE 03 BA FF [FD BRS]
0.0115282 1 D9x Rx d 14 39 13 01 0B 5B BA 78 55 95 00 FE 03 BA FF [FD BRS]
0.0129624 1 DCx Rx d 13 39 10 00 16 3B 09 CA AE 12 0A FA DE BC [FD BRS]
0.0140436 1 DBx Rx d 15 39 0E 01 0F FC 35 FF FF FF FF FF FF FF EF D4 [FD BRS]
0.0159438 1 2Dx Rx d 14 95 5A DB 05 C4 09 00 90 70 97 58 62 70 52 [FD BRS]
0.0164691 1 E3x Rx d 14 41 00 05 08 01 15 2D 7A 9E 88 33 AA 41 00 [FD BRS]
0.0193802 1 DBx Rx d 13 39 0F 00 15 DB 47 25 20 FF FF 7F CF FF [FD BRS]
0.0211625 1 D4x Rx d 14 39 04 0C 05 0E 0F F4 FF FF 39 15 01 14 48 [FD BRS]
0.0229217 1 18E19490x Rx d 15 00 00 00 A5 55 55 55 55 05 00 00 00 00 00 00 [FD BRS]
0.0261909 1 4Fx Rx d 8 20 03 00 A0 00 49 AD 60 [FD BRS]
0.0314525 1 D9x Rx d 13 39 13 00 15 63 25 CD 12 A0 75 0D 9D 0F [FD BRS]
0.0331027 1 DCx Rx d 13 39 10 00 16 1F A1 CB AE 12 0A FA DE DE [FD BRS]
0.0340599 1 DBx Rx d 14 39 0E 00 20 0C A2 25 2C 68 82 83 1A 3F FD [FD BRS]
0.0359841 1 2Dx Rx d 14 C8 65 DC 05 C4 09 00 90 70 97 58 62 70 52 [FD BRS]
0.0365105 1 E3x Rx d 9 41 00 00 08 02 34 39 37 95 [FD BRS]
0.0393616 1 DBx Rx d 13 39 0F 00 15 FD 76 26 20 FF FF 7F CF FF [FD BRS]
0.0073743 1 D9x Rx d 13 39 13 00 15 30 93 B7 13 A0 75 CD 99 0F [FD BRS]
0.0078355 1 DCx Rx d 14 39 10 01 10 15 45 42 30 52 00 56 12 0D 9C [FD BRS]
0.0089307 1 DBx Rx d 14 39 0E 00 20 6E 5E 0F 2C 68 82 83 1A 3F FD [FD BRS]
0.0108249 1 2Dx Rx d 14 88 B5 C6 05 C4 09 00 90 70 97 58 22 70 52 [FD BRS]
0.0113522 1 D4x Rx d 8 39 04 06 04 FC 6F 96 85 [FD BRS]
0.0115136 1 E3x Rx d 9 41 00 05 08 00 80 03 43 D2 [FD BRS]
0.0142697 1 DBx Rx d 13 39 0F 00 15 B2 36 10 20 FF FF 7F CF FF [FD BRS]
0.0178090 1 18E19490x Rx d 15 01 01 00 6F 0D 63 01 80 0C 0C 01 BC 02 06 06 [FD BRS]
0.0263928 1 D9x Rx d 14 39 13 01 0B 5B BA 78 55 95 00 FE 03 BA FF [FD BRS]
0.0278780 1 DCx Rx d 13 39 10 00 16 5A 71 B6 AE 12 0A FA DE BC [FD BRS]
0.0289431 1 DBx Rx d 15 39 0E 01 0F FC 35 FF FF FF FF FF FF FF EF D4 [FD BRS]
0.0308294 1 2Dx Rx d 14 97 BC C7 05 C4 09 00 90 70 97 58 22 70 52 [FD BRS]
0.0313557 1 E3x Rx d 12 41 00 05 08 01 3B 4C DA 3F 6B 14 EB [FD BRS]
0.0342669 1 DBx Rx d 13 39 0F 00 15 50 26 11 20 FF FF 7F CF FF [FD BRS]
0.0360321 1 D4x Rx d 14 39 04 0C 05 0E 0F F4 FF FF 39 15 01 14 48 [FD BRS]
0.0365634 1 DC085B Rx d 8 40 03 08 04 00 00 00 00
0.0463084 1 D9x Rx d 13 39 13 00 15 39 8A B9 12 A0 75 8D 9C 0F [FD BRS]
0.0478786 1 DCx Rx d 13 39 10 00 16 7E D9 B7 AE 12 0A FA DE BC [FD BRS]
0.0482589 1 18E19490x Rx d 15 02 88 00 64 64 64 01 00 00 00 AF 12 62 0A 00 [FD BRS]
0.0489631 1 DBx Rx d 14 39 0E 00 20 AE B6 11 2C 68 82 83 1A 3F FE [FD BRS]
0.0000972 1 DBx Rx d 13 39 0F 00 15 C6 56 FD 20 FF FF 7F CF FF [FD BRS]
0.0018554 1 D4x Rx d 14 39 04 0C 05 0E 0F F4 FF FF 39 15 01 14 48 [FD BRS]
0.0121074 1 D9x Rx d 13 39 13 00 15 70 0A A5 12 A0 75 CD 9C 0F [FD BRS]
0.0136806 1 DCx Rx d 13 39 10 00 16 A6 7A A3 AE 12 0A FA DE BC [FD BRS]
0.0147817 1 DBx Rx d 14 39 0E 00 20 21 0E FD 2C 68 82 83 1A 3F FE [FD BRS]
0.0167109 1 2Dx Rx d 14 05 62 B4 05 C4 09 00 90 70 97 58 22 70 52 [FD BRS]
0.0200790 1 DBx Rx d 13 39 0F 00 15 E0 67 FE 20 FF FF 7F CF FF [FD BRS]
0.0235963 1 18E19490x Rx d 15 04 03 00 03 00 03 00 7E 36 ED 0C 75 0D 22 01 [FD BRS]
0.0321971 1 D9x Rx d 13 39 13 00 15 83 8D A6 12 A0 75 4D 9D 0F [FD BRS]
0.0336693 1 DCx Rx d 13 39 10 00 16 39 12 A4 AE 12 0A FA DE BC [FD BRS]
0.0347615 1 DBx Rx d 14 39 0E 00 20 A6 0D FE 2C 68 82 83 1A 3F FD [FD BRS]
0.0366157 1 2Dx Rx d 14 1A 6B B5 05 C4 09 00 90 70 97 58 22 70 52 [FD BRS]
0.0371410 1 D4x Rx d 10 39 0C 14 0C FF FF FF FC FD FF [FD BRS]
0.0400881 1 DBx Rx d 13 39 0F 00 15 02 77 FF 20 FF FF 7F CF FF [FD BRS]
0.0465574 1 E3x Rx d 11 39 06 0B 08 39 51 51 15 F1 42 D7 [FD BRS]
0.0034771 1 D9x Rx d 13 39 13 00 15 CC DC 8F 13 A0 75 0D 9A 0F [FD BRS]
0.0038973 1 DCx Rx d 14 39 10 01 10 15 45 42 30 52 00 16 16 0D 9C [FD BRS]
0.0044136 1 18E19490x Rx d 15 04 03 00 03 00 03 00 7E 36 EB 0C 75 0D 22 01 [FD BRS]
0.0051358 1 DBx Rx d 14 39 0E 00 20 47 A1 E7 2C 68 82 83 1A 3F FC [FD BRS]
0.0069640 1 2Dx Rx d 14 02 0B 9E 05 C4 09 00 90 70 97 58 22 70 52 [FD BRS]
0.0074924 1 D4x Rx d 8 39 04 06 04 98 F1 8E 85 [FD BRS]
0.0076517 1 E3x Rx d 9 41 00 05 08 00 80 03 43 D2 [FD BRS]
0.0104258 1 DBx Rx d 13 39 0F 00 15 AD 1B E8 20 FF FF 7F CF FF [FD BRS]
0.0224859 1 D9x Rx d 14 39 13 01 0B 5B BA 78 55 95 00 FE 03 BA FF [FD BRS]
0.0238831 1 DCx Rx d 13 39 10 00 16 C1 05 8E AE 12 0A FA DE BC [FD BRS]
0.0250992 1 DBx Rx d 15 39 0E 01 0F FC 35 FF FF FF FF FF FF FF EF D4 [FD BRS]
0.0269814 1 2Dx Rx d 14 1D 02 9F 05 C4 09 00 90 70 97 58 22 70 52 [FD BRS]
0.0275098 1 E3x Rx d 12 41 00 05 08 01 1E CD CF FC 66 92 9B [FD BRS]
0.0304219 1 DBx Rx d 13 39 0F 00 15 4F 0B E9 20 FF FF 7F CF FF [FD BRS]
0.0322541 1 D4x Rx d 14 39 04 0C 05 0E 0F F4 FF FF 39 15 01 14 48 [FD BRS]
0.0338373 1 18E19490x Rx d 15 00 00 00 A5 55 55 55 55 05 00 00 00 00 00 00 [FD BRS]
0.0424012 1 D9x Rx d 13 39 13 00 15 C5 60 91 12 A0 75 CD 9A 0F [FD BRS]
0.0440394 1 DCx Rx d 13 39 10 00 16 E5 AD 8F AE 12 0A FA DE BC [FD BRS]
0.0451065 1 DBx Rx d 14 39 0E 00 20 73 F5 E9 2C 68 82 83 1A 3F FE [FD BRS]
0.0470258 1 2Dx Rx d 14 89 D7 A0 05 C4 09 00 90 70 97 58 22 70 52 [FD BRS]
0.0003783 1 DCx Rx d 13 39 10 00 16 03 F5 76 AE 12 0A FA DE BC [FD BRS]
0.0015904 1 DBx Rx d 14 39 0F 01 06 4F 85 04 60 DC 1C 39 0E 00 20 [FD BRS]
0.0034956 1 2Dx Rx d 14 63 C0 87 05 C4 09 00 90 70 97 58 62 70 52 [FD BRS]
0.0068777 1 DBx Rx d 13 39 0F 00 15 5C AE D1 20 FF FF 7F CF FF [FD BRS]
0.0102840 1 18E19490x Rx d 15 04 03 00 02 00 03 00 7E 36 ED 0C 75 0D 22 01 [FD BRS]
0.0186732 1 E3x Rx d 8 3A 02 00 04 F4 FF FF FF [FD BRS]
0.0189905 1 D9x Rx d 13 39 13 00 15 E5 58 79 12 A0 75 CD 9C 0F [FD BRS]
0.0203717 1 DCx Rx d 13 39 10 00 16 27 5D 77 AE 12 0A FA DE BC [FD BRS]
0.0215679 1 DBx Rx d 14 39 0E 00 20 39 C1 D1 2C 68 82 83 1A 3F FC [FD BRS]
0.0234011 1 2Dx Rx d 14 B0 AC 88 05 C4 09 00 90 70 97 58 22 70 52 [FD BRS]
0.0239284 1 D4x Rx d 10 39 0C 14 0C FF FF FF FC FD FF [FD BRS]
0.0268876 1 DBx Rx d 13 39 0F 00 15 7A 9F D2 20 FF FF 7F CF FF [FD BRS]
0.0333738 1 E3x Rx d 11 39 06 0B 08 39 51 51 15 ED 42 D7 [FD BRS]
0.0386392 1 E3x Rx d 10 05 00 00 0C F5 FC FF 00 00 00 [FD BRS]
0.0388795 1 D9x Rx d 13 39 13 00 15 58 3B 7A 12 A0 75 8D 9B 0F [FD BRS]
0.0403217 1 DCx Rx d 13 39 10 00 16 3D 24 78 AE 12 0A FA DE BC [FD BRS]
0.0407011 1 18E19490x Rx d 15 00 00 00 A5 55 55 55 55 05 00 00 00 00 00 00 [FD BRS]
0.0415612 1 DBx Rx d 14 39 0E 00 20 85 AC D2 2C 68 82 83 1B 1F FE [FD BRS]
0.0434004 1 2Dx Rx d 14 AF A5 89 05 C4 09 00 90 70 97 58 22 70 52 [FD BRS]
0.0468776 1 DBx Rx d 13 39 0F 00 15 98 8F D3 20 FF FF 7F CF FF [FD BRS]
