date 2025-01-01 00:00:00.000
base hex  timestamps absolute
no internal events logged

0.0000740 1 E3x Rx d 9 41 00 05 08 01 16 4A 0B 3F [FD BRS]
0.0029384 1 DBx Rx d 13 39 0F 00 15 50 26 11 20 FF FF 7F CF FF [FD BRS]
0.0038396 1 D9x Rx d 14 39 13 00 15 28 42 14 26 A0 42 CD 31 4F 12 [FD BRS]
0.0043496 1 DCx Rx d 13 39 10 00 16 98 51 16 AE 2A 0A FA DC F0 [FD BRS]
0.0047312 1 18E19490x Rx d 15 04 03 00 03 00 03 00 88 36 EE 0C 43 0D 22 01 [FD BRS]
0.0054844 1 2Dx Rx d 14 00 8C 1A 05 C4 09 00 90 70 97 58 62 6F 52 [FD BRS]
0.0174804 1 DBx Rx d 14 39 0E 00 20 5F FF 11 F9 F7 7E 83 1A 3F D0 [FD BRS]
0.0229364 1 DBx Rx d 13 39 0F 00 15 76 17 12 20 FF FF 7F CF FF [FD BRS]
0.0237080 1 D9x Rx d 13 39 13 00 15 1A 08 15 26 A0 42 8D 31 4F [FD BRS]
0.0240880 1 DCx Rx d 13 39 10 00 16 BC F9 17 AE 2A 0A FA DC F0 [FD BRS]
0.0254224 1 2Dx Rx d 14 1F 85 1B 05 C4 09 00 90 70 97 58 62 6F 52 [FD BRS]
0.0340044 1 DCx Rx d 9 39 FE 6F 08 94 01 00 80 01 [FD BRS]
0.0342028 1 18E19490x Rx d 15 00 00 00 A5 00 00 00 50 01 00 00 00 00 00 00 [FD BRS]
0.0374828 1 DBx Rx d 14 39 0E 00 20 15 47 12 F9 F7 7E 83 1A 3F D1 [FD BRS]
0.0429264 1 DBx Rx d 13 39 0F 00 15 94 07 13 20 FF FF 7F CF FF [FD BRS]
0.0436244 1 D9x Rx d 13 39 13 00 15 E9 8F 16 26 A0 42 0D 30 4F [FD BRS]
0.0440888 1 DCx Rx d 14 39 10 01 10 15 3F 41 00 44 00 C6 12 11 9C [FD BRS]
0.0454508 1 2Dx Rx d 14 42 BA 1C 05 C4 09 00 90 70 97 58 62 6F 52 [FD BRS]
0.0554564 1 E3x Rx d 8 00 80 00 04 D1 35 FE 04 [FD BRS]
0.0574972 1 DBx Rx d 14 39 0E 00 20 4C FE 13 F9 F7 7E 83 1A 3F CF [FD BRS]
0.0629868 1 DBx Rx d 13 39 0F 00 15 3A 75 14 20 FF FF 7F CF FF [FD BRS]
0.0640056 1 DCx Rx d 13 39 10 00 16 82 28 19 AE 2A 0A FA DC F0 [FD BRS]
0.0643892 1 D9x Rx d 13 39 13 00 15 AE C6 17 26 A0 42 4D 31 4F [FD BRS]
0.0647644 1 18E19490x Rx d 15 01 02 00 3C 0D F9 00 80 0C 03 01 BC 02 06 06 [FD BRS]
0.0655496 1 2Dx Rx d 14 5D B3 1D 05 C4 09 00 90 70 97 58 62 6F 52 [FD BRS]
0.0660748 1 D4x Rx d 8 39 04 06 04 6D C9 3B 89 [FD BRS]
0.0774920 1 DBx Rx d 15 39 0E 01 0F 24 35 FF FF FF FF FF FF FF EF D2 [FD BRS]
0.0800888 1 E3x Rx d 13 41 00 05 08 00 80 03 43 CB A1 DA C4 05 [FD BRS]
0.0829372 1 DBx Rx d 13 39 0F 00 15 D8 65 15 20 FF FF 7F CF FF [FD BRS]
0.0840084 1 DCx Rx d 13 39 10 00 16 CF C0 1A AE 2A 0A FA DC F0 [FD BRS]
0.0843904 1 D9x Rx d 13 39 13 00 15 FF D9 18 26 A0 42 8D 32 4F [FD BRS]
0.0854396 1 2Dx Rx d 14 7C A8 1E 05 C4 09 00 90 70 97 58 62 6F 52 [FD BRS]
0.0859660 1 D4x Rx d 14 39 04 0C 05 0E 0F F4 FF FF 39 FE 1D 08 59 [FD BRS]
0.0900284 1 E3x Rx d 12 39 06 0B 08 00 51 51 14 00 C0 CF FF [FD BRS]
0.0903440 1 4Fx Rx d 8 20 F0 07 A0 00 49 9B A6 [FD BRS]
0.0941432 1 18E19490x Rx d 15 02 88 00 64 64 64 01 00 00 00 09 12 78 D7 00 [FD BRS]
0.0974992 1 DBx Rx d 14 39 0E 00 20 0F 6D 15 F9 F7 7E 83 1A 3F D0 [FD BRS]
0.0988416 1 D9x Rx d 14 39 FE 28 08 29 00 00 00 00 00 00 00 39 13 [FD BRS]
0.1000916 1 E3x Rx d 13 41 00 05 08 01 62 68 B0 81 43 70 DD 39 [FD BRS]
0.1030480 1 DBx Rx d 13 39 0F 00 15 FE 54 16 20 FF FF 7F CF FF [FD BRS]
0.1040740 1 DCx Rx d 13 39 10 00 16 EB 68 1B AE 2A 0A FA DC F0 [FD BRS]
0.1054292 1 2Dx Rx d 14 63 A1 1F 05 C4 09 00 90 70 97 58 62 6F 52 [FD BRS]
0.1088928 1 D9x Rx d 10 39 13 01 0B 52 BA 48 55 95 00 [FD BRS]
0.1174788 1 DBx Rx d 14 39 0E 00 20 B3 00 16 F9 F7 7E 83 1A 3F D0 [FD BRS]
0.1228900 1 21Cx Rx d 15 11 02 01 03 75 74 79 5C 7C 7C 7F 38 83 20 87 [FD BRS]
0.1235900 1 DBx Rx d 13 39 0F 00 15 1C 44 17 20 FF FF 7F CF FF [FD BRS]
0.1239764 1 D9x Rx d 13 39 13 00 15 20 E0 1A 27 A0 42 0D 31 4F [FD BRS]
0.1243580 1 DCx Rx d 13 39 10 00 16 74 00 1C AE 2A 0A FA DC F0 [FD BRS]
0.1247432 1 21Dx Rx d 3 30 40 28 [FD BRS]
0.1248620 1 18E19490x Rx d 15 03 00 00 98 01 98 01 00 00 00 00 00 00 00 00 [FD BRS]
0.1255844 1 2Dx Rx d 14 F7 74 20 05 C4 09 00 90 70 97 58 62 6F 52 [FD BRS]
0.1261116 1 21Cx Rx d 15 21 00 00 00 00 00 00 00 00 00 00 00 00 00 00 [FD BRS]
0.1375316 1 DBx Rx d 14 39 0E 00 20 D1 F1 17 F9 F7 7E 83 1A 3F D1 [FD BRS]
0.1403260 1 4Fx Rx d 8 28 FA 07 00 27 D1 EE B5 [FD BRS]
0.1429252 1 DBx Rx d 13 39 0F 00 15 A2 B1 18 20 FF FF 7F CF FF [FD BRS]
0.1440372 1 DCx Rx d 14 39 10 01 10 15 3F 41 00 44 00 CE 02 11 9C [FD BRS]
0.1452284 1 D9x Rx d 13 39 13 00 15 67 A9 1B 27 A0 42 4D 30 4F [FD BRS]
0.1456056 1 2Dx Rx d 14 E8 7D 21 05 C4 09 00 90 70 97 58 62 6F 52 [FD BRS]
0.1478988 1 21Cx Rx d 15 22 00 00 00 00 00 00 00 00 00 00 00 00 00 00 [FD BRS]
0.1540632 1 18E19490x Rx d 15 04 03 00 03 00 03 00 88 36 EE 0C 43 0D 22 01 [FD BRS]
0.1554584 1 E3x Rx d 8 00 80 00 04 65 43 FF 04 [FD BRS]
0.1575044 1 DBx Rx d 14 39 FE 0B 08 61 00 00 00 01 00 00 00 39 0E [FD BRS]
0.1594484 1 44 Rx d 1 04
0.1629848 1 DBx Rx d 13 39 0F 00 15 40 A1 19 20 FF FF 7F CF FF [FD BRS]
0.1639192 1 D9x Rx d 13 39 13 00 15 4D C6 1C 26 A0 42 CD 30 4F [FD BRS]
0.1642964 1 DCx Rx d 13 39 10 00 16 1D 40 1E AE 2A 0A FA DC F0 [FD BRS]
0.1654744 1 2Dx Rx d 14 C9 66 22 05 C4 09 00 90 70 97 58 62 6F 52 [FD BRS]
0.1659988 1 D4x Rx d 8 39 04 06 04 40 98 3C 89 [FD BRS]
0.1725588 1 DBx Rx d 14 39 0E 02 2A 3E 00 4A 00 65 0A B4 C1 17 7C [FD BRS]
0.1774880 1 DBx Rx d 13 39 0E 01 0F 24 35 FF FF FF FF FF FF FF [FD BRS]
0.1778792 1 21Cx Rx d 15 23 00 00 00 00 00 00 00 00 00 00 00 00 00 00 [FD BRS]
0.1801076 1 E3x Rx d 9 41 00 05 08 00 80 03 43 CB [FD BRS]
0.1828476 1 DBx Rx d 15 39 0E 00 20 A4 BD 19 F9 F7 7E 83 1A 3F D1 7F [FD BRS]
0.1837052 1 D9x Rx d 13 39 13 00 15 AA 3A 1D 26 A0 42 0D 31 4F [FD BRS]
0.1840812 1 DCx Rx d 13 39 10 00 16 39 E8 1F AE 2A 0A FA DC F0 [FD BRS]
0.1844636 1 18E19490x Rx d 15 00 00 00 A5 00 00 00 50 01 00 00 00 00 00 00 [FD BRS]
0.1854348 1 2Dx Rx d 14 D6 6F 23 05 C4 09 00 90 70 97 58 62 6F 52 [FD BRS]
0.1859580 1 D4x Rx d 15 39 04 0C 05 0E 0F F4 FF FF 39 15 01 14 45 F9 [FD BRS]
0.1900564 1 E3x Rx d 12 39 06 0B 08 00 51 51 14 00 C0 CF FF [FD BRS]
0.1926616 1 DBx Rx d 13 39 0E 04 10 5C E3 0B 4C 24 B4 DB FF EF [FD BRS]
0.1974980 1 DBx Rx d 14 39 0E 00 20 4E 6E 1A F9 07 7F 83 1A 3F D0 [FD BRS]
0.0003360 1 2Dx Rx d 14 3F DE AE 05 C4 09 00 90 70 97 58 22 6F 52 [FD BRS]
0.0123628 1 DBx Rx d 14 39 0E 00 20 6D 2E A5 F9 07 7F 83 1A 3F CF [FD BRS]
0.0149432 1 E3x Rx d 8 00 80 00 04 EF 09 E8 04 [FD BRS]
0.0178872 1 DBx Rx d 13 39 0F 00 15 F5 86 A6 20 FF FF 7F CF FF [FD BRS]
0.0186628 1 D9x Rx d 13 39 13 00 15 9F 63 A9 26 A0 42 CD 2F 4F [FD BRS]
0.0190408 1 DCx Rx d 13 39 10 00 16 84 05 AB AE 2A 0A FA DC F0 [FD BRS]
0.0203032 1 2Dx Rx d 14 20 D7 AF 05 C4 09 00 90 70 97 58 22 6F 52 [FD BRS]
0.0208304 1 D4x Rx d 8 39 04 06 04 90 70 25 89 [FD BRS]
0.0287196 1 18E19490x Rx d 15 03 00 00 97 01 97 01 00 00 00 00 00 00 00 00 [FD BRS]
0.0303300 1 E3x Rx d 13 41 00 05 08 00 80 03 43 CB A0 FE 56 05 [FD BRS]
0.0323868 1 DBx Rx d 15 39 0E 01 0F 2C 35 FF FF FF FF FF FF FF EF D2 [FD BRS]
0.0378112 1 DBx Rx d 13 39 0F 00 15 17 96 A7 20 FF FF 7F CF FF [FD BRS]
0.0384144 1 D9x Rx d 13 39 13 00 15 B9 52 AA 26 A0 42 CD 2F 4F [FD BRS]
0.0387928 1 DCx Rx d 13 39 10 00 16 1B 6D AC AE 2A 0A FA DC F0 [FD BRS]
0.0403028 1 2Dx Rx d 14 75 31 B0 05 C4 09 00 90 70 97 58 22 6F 52 [FD BRS]
0.0408272 1 D4x Rx d 13 39 04 0C 05 0E 0F F4 FF FF 39 0C 14 0C [FD BRS]
0.0449244 1 E3x Rx d 12 39 06 0B 08 00 51 51 14 00 C0 CF FF [FD BRS]
0.0524356 1 DBx Rx d 14 39 0E 00 20 7E 2F A7 F9 07 7F 83 1A 3F D0 [FD BRS]
0.0549228 1 E3x Rx d 13 41 00 05 08 01 FA BE E0 46 B9 6B 09 39 [FD BRS]
0.0578348 1 DBx Rx d 13 39 0F 00 15 A9 63 A8 20 FF FF 7F CF FF [FD BRS]
0.0584344 1 D9x Rx d 14 39 13 00 15 98 89 AB 26 A0 42 0D 30 4F 12 [FD BRS]
0.0589496 1 DCx Rx d 13 39 10 00 16 3F C5 AD AE 2A 0A FA DC F0 [FD BRS]
0.0593320 1 18E19490x Rx d 15 04 03 00 03 00 03 00 88 36 ED 0C 43 0D 22 01 [FD BRS]
0.0602820 1 2Dx Rx d 14 6A 38 B1 05 C4 09 00 90 70 97 58 22 6F 52 [FD BRS]
0.0723640 1 DBx Rx d 14 39 0E 00 20 28 AC A8 F9 07 7F 83 1A 3F CF [FD BRS]
0.0778192 1 DBx Rx d 13 39 0F 00 15 4B 73 A9 20 FF FF 7F CF FF [FD BRS]
0.0784164 1 D9x Rx d 13 39 13 00 15 36 FB AC 26 A0 42 0D 30 4F [FD BRS]
0.0787956 1 DCx Rx d 13 39 10 00 16 72 2D AE AE 2A 0A FA DC F0 [FD BRS]
0.0802820 1 2Dx Rx d 14 4B 23 B2 05 C4 09 00 90 70 97 58 22 6F 52 [FD BRS]
0.0887180 1 18E19490x Rx d 15 00 00 00 A5 00 00 00 50 01 00 00 00 00 00 00 [FD BRS]
0.0923624 1 DBx Rx d 14 39 0E 00 20 0B 63 A9 F9 07 7F 83 1A 3F D0 [FD BRS]
0.0978096 1 DBx Rx d 13 39 0F 00 15 6D 42 AA 20 FF FF 7F CF FF [FD BRS]
0.0987548 1 DCx Rx d 14 39 10 01 10 15 3F 41 39 44 00 1E 12 11 9C [FD BRS]
0.0994172 1 D9x Rx d 13 39 13 00 15 74 5E AD 26 A0 42 8D 30 4F [FD BRS]
0.1002984 1 2Dx Rx d 14 54 2A B3 05 C4 09 00 90 70 97 58 22 6F 52 [FD BRS]
0.1123624 1 DBx Rx d 14 39 0E 00 20 A0 8E AA F9 F7 7E 83 1A 3F CF [FD BRS]
0.1143476 1 44 Rx d 1 04
0.1150196 1 E3x Rx d 8 00 80 00 04 5B 7F E9 04 [FD BRS]
0.1178860 1 DBx Rx d 13 39 0F 00 15 8F 52 AB 20 FF FF 7F CF FF [FD BRS]
0.1186712 1 DCx Rx d 13 39 10 00 16 46 DF B0 AE 2A 0A FA DC F0 [FD BRS]
0.1190532 1 D9x Rx d 13 39 13 00 15 82 35 AE 26 A0 42 CD 30 4F [FD BRS]
0.1194316 1 18E19490x Rx d 15 01 01 00 3C 0D F9 00 80 0C 03 01 BC 02 06 06 [FD BRS]
0.1202976 1 2Dx Rx d 14 09 15 B4 05 C4 09 00 90 70 97 58 22 6F 52 [FD BRS]
0.1208240 1 D4x Rx d 8 39 04 06 04 4C EB 26 89 [FD BRS]
0.1323732 1 DBx Rx d 15 39 0E 01 0F 2C 35 FF FF FF FF FF FF FF EF D2 [FD BRS]
0.1348620 1 D4x Rx d 14 39 04 0C 05 0E 0F F4 FF FF 39 15 01 14 45 [FD BRS]
0.1353944 1 E3x Rx d 9 41 00 05 08 00 80 03 43 CB [FD BRS]
0.1355920 1 D4x Rx d 15 39 0C 08 3C FE 74 00 80 00 00 08 6C 74 3F 25 [FD BRS]
0.1379272 1 DBx Rx d 13 39 0F 00 15 21 20 AC 20 FF FF 7F CF FF [FD BRS]
0.1384832 1 D9x Rx d 13 39 13 00 15 B5 93 AF 26 A0 42 4D 31 4F [FD BRS]
0.1388596 1 DCx Rx d 13 39 10 00 16 62 77 B1 AE 2A 0A FA DC F0 [FD BRS]
0.1402936 1 2Dx Rx d 14 60 07 B5 05 C4 09 00 90 70 97 58 62 6F 52 [FD BRS]
0.1449272 1 D4x Rx d 13 39 0C 14 0C FF FF FF FF FD FF FF FF FF [FD BRS]
0.1453196 1 E3x Rx d 12 39 06 0B 08 00 51 51 14 00 C0 CF FF [FD BRS]
0.1488076 1 18E19490x Rx d 15 02 88 00 64 64 64 01 00 00 00 93 12 DE BB 00 [FD BRS]
0.1523916 1 DBx Rx d 14 39 0F 01 06 4C 85 04 60 20 19 39 0E 00 20 [FD BRS]
0.1549360 1 E3x Rx d 9 41 00 05 08 01 A0 E7 1A 97 [FD BRS]
0.1578200 1 DBx Rx d 13 39 0F 00 15 C3 30 AD 20 FF FF 7F CF FF [FD BRS]
0.1584424 1 D9x Rx d 14 39 13 00 15 BB 59 B0 26 A0 43 0D 31 4F 12 [FD BRS]
0.1589556 1 DCx Rx d 13 39 10 00 16 2F 9F B2 AE 2A 0A FA DC F0 [FD BRS]
0.1603028 1 2Dx Rx d 14 37 07 B6 05 C4 09 00 90 70 97 58 22 6F 52 [FD BRS]
0.1723616 1 DBx Rx d 14 39 0E 00 20 5B F1 AD F9 07 7F 83 1A 3F D0 [FD BRS]
0.1778180 1 DBx Rx d 13 39 0F 00 15 E5 01 AE 20 FF FF 7F CF FF [FD BRS]
0.1784212 1 D9x Rx d 13 39 13 00 15 8C FF B1 26 A0 43 8D 30 4F [FD BRS]
0.1787984 1 DCx Rx d 13 39 10 00 16 0B 37 B3 AE 2A 0A FA DC F0 [FD BRS]
0.1791796 1 18E19490x Rx d 15 03 00 00 9D 01 9D 01 00 00 00 00 00 00 00 00 [FD BRS]
0.1802808 1 2Dx Rx d 14 5E 15 B7 05 C4 09 00 90 70 97 58 62 6F 52 [FD BRS]
0.1886792 1 DCx Rx d 9 39 FE 6F 08 94 01 00 80 01 [FD BRS]
0.1924132 1 DBx Rx d 14 39 0E 00 20 E7 9C AE F9 07 7F 83 1A 3F D0 [FD BRS]
0.1978076 1 DBx Rx d 13 39 0F 00 15 07 11 AF 20 FF FF 7F CF FF [FD BRS]
0.1987008 1 DCx Rx d 14 39 10 01 10 15 3F 41 30 44 00 26 52 11 9C [FD BRS]
0.1994280 1 D9x Rx d 13 39 13 00 15 1B EF B2 26 A0 42 CD 30 4F [FD BRS]
0.0075480 1 DBx Rx d 14 39 0E 00 20 CD 99 39 F9 07 7F 83 1A 3F CF [FD BRS]
0.0100424 1 E3x Rx d 14 41 00 05 08 01 87 4D FC D4 E0 69 F0 39 80 [FD BRS]
0.0128956 1 DBx Rx d 13 39 0F 00 15 64 AC 3A 20 FF FF 7F CF FF [FD BRS]
0.0133660 1 D9x Rx d 14 39 13 00 15 0D 5F 3D 26 A0 42 4D 30 4F 12 [FD BRS]
0.0138780 1 DCx Rx d 13 39 10 00 16 2D AE 3F AE 2A 0A FA DC F0 [FD BRS]
0.0153192 1 2Dx Rx d 14 E3 20 43 05 C4 09 00 90 70 97 58 22 6F 52 [FD BRS]
0.0236244 1 18E19490x Rx d 15 01 02 00 3C 0D F9 00 80 0C 03 01 BC 02 06 06 [FD BRS]
0.0274244 1 DBx Rx d 14 39 0E 00 20 4A BC 3A F9 07 7F 83 1A 3F D0 [FD BRS]
0.0328820 1 DBx Rx d 13 39 0F 00 15 86 BC 3B 20 FF FF 7F CF FF [FD BRS]
0.0332820 1 D9x Rx d 13 39 13 00 15 E8 A5 3E 26 A0 42 8D 2F 4F [FD BRS]
0.0336592 1 DCx Rx d 13 39 10 00 16 01 3E 40 AE 2A 0A FA DC F0 [FD BRS]
0.0353324 1 2Dx Rx d 14 BE 1F 44 05 C4 09 00 90 70 97 58 22 6F 52 [FD BRS]
0.0474236 1 DBx Rx d 14 39 0E 00 20 E5 D0 3B F9 07 7F 83 1A 3F CF [FD BRS]
0.0528708 1 DBx Rx d 13 39 0F 00 15 28 CE 3C 20 FF FF 7F CF FF [FD BRS]
0.0535100 1 DCx Rx d 14 39 10 01 10 15 3F 41 30 44 00 6E 06 10 9C [FD BRS]
0.0540304 1 18E19490x Rx d 15 02 88 00 64 64 64 01 00 00 00 39 13 E6 DF 00 [FD BRS]
0.0547364 1 D9x Rx d 13 39 13 00 15 DA EF 3F 26 A0 42 CD 2F 4F [FD BRS]
0.0553608 1 2Dx Rx d 14 A1 16 45 05 C4 09 00 90 70 97 58 22 6F 52 [FD BRS]
0.0654772 1 E3x Rx d 8 00 80 00 04 19 3B D3 04 [FD BRS]
0.0674424 1 DBx Rx d 14 39 0E 00 20 32 67 3C F9 07 7F 83 1A 3F D0 [FD BRS]
0.0693556 1 44 Rx d 1 04
0.0729296 1 DBx Rx d 13 39 0F 00 15 CA DE 3D 20 FF FF 7F CF FF [FD BRS]
0.0735088 1 DCx Rx d 13 39 10 00 16 68 7E 42 AE 2A 0A FA DC F0 [FD BRS]
0.0738920 1 D9x Rx d 13 39 13 00 15 B1 1F 40 26 A0 43 CD 30 4F [FD BRS]
0.0753352 1 2Dx Rx d 14 80 0D 46 05 C4 09 00 90 70 97 58 22 6F 52 [FD BRS]
0.0758628 1 D4x Rx d 8 39 04 06 04 3C E0 10 89 [FD BRS]
0.0836008 1 18E19490x Rx d 15 03 00 00 99 01 99 01 00 00 00 00 00 00 00 00 [FD BRS]
0.0874340 1 DBx Rx d 15 39 0E 01 0F 2C 35 FF FF FF FF FF FF FF EF D2 [FD BRS]
0.0899932 1 E3x Rx d 9 41 00 05 08 00 80 03 43 CB [FD BRS]
0.0928832 1 DBx Rx d 13 39 0F 00 15 EC EF 3E 20 FF FF 7F CF FF [FD BRS]
0.0933536 1 D9x Rx d 13 39 13 00 15 83 55 41 26 A0 43 8D 30 4F [FD BRS]
0.0937328 1 DCx Rx d 13 39 10 00 16 4C D6 43 AE 2A 0A FA DC F0 [FD BRS]
0.0953348 1 2Dx Rx d 14 9F 04 47 05 C4 09 00 90 70 97 58 22 6F 52 [FD BRS]
0.0958624 1 D4x Rx d 15 39 04 0C 05 0E 0F F4 FF FF 39 15 01 14 45 F9 [FD BRS]
0.0999908 1 E3x Rx d 12 39 06 0B 08 00 51 51 14 00 C0 CF FF [FD BRS]
0.1076088 1 DBx Rx d 14 39 0F 01 06 4C 85 04 60 20 19 39 0E 00 20 [FD BRS]
0.1099488 1 E3x Rx d 9 41 00 05 08 01 67 C3 8E 99 [FD BRS]
0.1128808 1 DBx Rx d 13 39 0F 00 15 0E FF 3F 20 FF FF 7F CF FF [FD BRS]
0.1133592 1 D9x Rx d 14 39 13 00 15 16 40 42 26 A0 43 8D 2F 4F 12 [FD BRS]
0.1138704 1 DCx Rx d 13 39 10 00 16 D3 BE 44 AE 2A 0A FA DC F0 [FD BRS]
0.1142528 1 18E19490x Rx d 15 04 03 00 03 00 03 00 88 36 ED 0C 43 0D 22 01 [FD BRS]
0.1153108 1 2Dx Rx d 14 3A 73 48 05 C4 09 00 90 70 97 58 22 6F 52 [FD BRS]
0.1274240 1 DBx Rx d 14 39 0E 00 20 2E 61 3F F9 F7 7E 83 1A 3F D0 [FD BRS]
0.1328792 1 DBx Rx d 13 39 0F 00 15 B7 50 40 20 FF FF 7F CF FF [FD BRS]
0.1332884 1 D9x Rx d 13 39 13 00 15 95 2B 43 26 A0 42 8D 2F 4F [FD BRS]
0.1336636 1 DCx Rx d 13 39 10 00 16 C2 BB 45 AE 2A 0A FA DC F4 [FD BRS]
0.1353148 1 2Dx Rx d 14 25 7A 49 05 C4 09 00 90 70 97 58 22 6F 52 [FD BRS]
0.1436212 1 18E19490x Rx d 15 00 00 00 A5 00 00 00 50 01 00 00 00 00 00 00 [FD BRS]
0.1474232 1 DBx Rx d 14 39 0E 00 20 57 ED 40 F9 F7 7E 83 1A 3F CF [FD BRS]
0.1528696 1 DBx Rx d 13 39 0F 00 15 55 40 41 20 FF FF 7F CF FF [FD BRS]
0.1535928 1 DCx Rx d 14 39 10 01 10 15 3F 41 30 44 00 76 06 10 9C [FD BRS]
0.1543372 1 D9x Rx d 13 39 13 00 15 88 7D 44 26 A0 42 8D 30 4F [FD BRS]
0.1553844 1 2Dx Rx d 14 72 7A 4A 05 C4 09 00 90 70 97 58 62 6F 52 [FD BRS]
0.1653468 1 E3x Rx d 8 00 80 00 04 34 6A D4 04 [FD BRS]
0.1674408 1 DBx Rx d 14 39 0E 00 20 58 EA 41 F9 07 7F 83 1A 3F D0 [FD BRS]
0.1729300 1 DBx Rx d 13 39 0F 00 15 73 71 42 20 FF FF 7F CF FF [FD BRS]
0.1735412 1 DCx Rx d 13 39 10 00 16 9E 56 47 AE 2A 0A FA DC F0 [FD BRS]
0.1739216 1 D9x Rx d 13 39 13 00 15 CF 34 45 26 A0 42 CD 31 4F [FD BRS]
0.1742976 1 18E19490x Rx d 15 01 02 00 3C 0D F9 00 80 0C 03 01 BC 02 06 06 [FD BRS]
0.1753360 1 2Dx Rx d 14 6D 73 4B 05 C4 09 00 90 70 97 58 62 6F 52 [FD BRS]
0.1758592 1 D4x Rx d 8 39 04 06 04 88 96 11 89 [FD BRS]
0.1853864 1 E3x Rx d 13 41 00 05 08 00 80 03 43 CB A0 36 70 05 [FD BRS]
0.1874456 1 DBx Rx d 15 39 0E 01 0F 2C 35 FF FF FF FF FF FF FF EF D2 [FD BRS]
0.1928680 1 DBx Rx d 13 39 0F 00 15 91 61 43 20 FF FF 7F CF FF [FD BRS]
0.1933532 1 D9x Rx d 13 39 13 00 15 39 5F 46 26 A0 42 8D 31 4F [FD BRS]
0.1937312 1 DCx Rx d 13 39 10 00 16 84 2F 48 AE 2A 0A FA DC F0 [FD BRS]
0.1953236 1 2Dx Rx d 14 46 57 4C 05 C4 09 00 90 70 97 58 22 6F 52 [FD BRS]
0.1958500 1 D4x Rx d 13 39 04 0C 05 0E 0F F4 FF FF 39 0C 14 0C [FD BRS]
0.0059152 1 DBx Rx d 14 39 0E 00 20 F8 60 D2 F9 F7 7E 83 1A 3F CE [FD BRS]
0.0085544 1 4Fx Rx d 8 28 9F 0A 00 0A 09 7B BB [FD BRS]
0.0112576 1 DBx Rx d 13 39 0F 00 15 98 8F D3 20 FF FF 7F CF FF [FD BRS]
0.0116456 1 DCx Rx d 14 39 10 01 10 15 3F 41 00 44 00 C6 12 11 9C [FD BRS]
0.0121680 1 18E19490x Rx d 15 02 88 00 64 64 64 01 00 00 00 95 12 E6 DF 00 [FD BRS]
0.0130744 1 D9x Rx d 13 39 13 00 15 32 B4 D6 26 A0 43 CD 2E 4F [FD BRS]
0.0136956 1 2Dx Rx d 14 C4 12 DC 05 C4 09 00 90 70 97 58 62 6F 52 [FD BRS]
0.0182908 1 E3x Rx d 8 3A 02 00 04 F4 FF FF FF [FD BRS]
0.0237180 1 E3x Rx d 8 00 80 00 04 4D 5B BE 04 [FD BRS]
0.0258272 1 DBx Rx d 14 39 0E 00 20 2D 7A D3 F9 F7 7E 83 1A 3F D0 [FD BRS]
0.0313164 1 DBx Rx d 13 39 0F 00 15 36 FD D4 20 FF FF 7F CF FF [FD BRS]
0.0317016 1 D9x Rx d 13 39 13 00 15 14 86 D7 26 A0 42 8D 2F 4F [FD BRS]
0.0320772 1 DCx Rx d 13 39 10 00 16 DB AC D9 AE 2A 0A FA DC F0 [FD BRS]
0.0337072 1 2Dx Rx d 14 DB 1B DD 05 C4 09 00 90 70 97 58 62 6F 52 [FD BRS]
0.0342304 1 D4x Rx d 8 39 04 06 04 C9 7A FB 89 [FD BRS]
0.0383568 1 E3x Rx d 9 02 80 00 08 F8 68 92 01 83 [FD BRS]
0.0417632 1 18E19490x Rx d 15 03 00 00 96 01 96 01 00 00 00 00 00 00 00 00 [FD BRS]
0.0437272 1 E3x Rx d 13 41 00 05 08 00 80 03 43 CB 9F 5A 1F 05 [FD BRS]
0.0459456 1 DBx Rx d 15 39 0E 01 0F 2C 35 FF FF FF FF FF FF FF EF D2 [FD BRS]
0.0512556 1 DBx Rx d 13 39 0F 00 15 D4 ED D5 20 FF FF 7F CF FF [FD BRS]
0.0517308 1 DCx Rx d 13 39 10 00 16 96 44 DA AE 2A 0A FA DC F0 [FD BRS]
0.0521120 1 D9x Rx d 13 39 13 00 15 69 B8 D8 26 A0 42 4D 30 4F [FD BRS]
0.0537372 1 2Dx Rx d 14 FA 00 DE 05 C4 09 00 90 70 97 58 62 6F 52 [FD BRS]
0.0542628 1 D4x Rx d 13 39 04 0C 05 0E 0F F4 FF FF 39 0C 14 0C [FD BRS]
0.0583120 1 E3x Rx d 12 39 06 0B 08 00 51 51 14 00 C0 CF FF [FD BRS]
0.0659812 1 DBx Rx d 14 39 0E 00 20 E2 4A D5 F9 F7 7E 83 1A 3F CF [FD BRS]
0.0683424 1 E3x Rx d 14 41 00 05 08 01 5E 31 BA 67 17 47 55 39 80 [FD BRS]
0.0712816 1 DBx Rx d 13 39 0F 00 15 F2 DC D6 20 FF FF 7F CF FF [FD BRS]
0.0716688 1 DCx Rx d 13 39 10 00 16 B2 EC DB AE 2A 0A FA DC F0 [FD BRS]
0.0720508 1 D9x Rx d 14 39 13 00 15 FB 47 D9 26 A0 42 8D 30 4F 12 [FD BRS]
0.0725640 1 18E19490x Rx d 15 04 03 00 03 00 03 00 88 36 EE 0C 43 0D 22 01 [FD BRS]
0.0736752 1 2Dx Rx d 14 E5 09 DF 05 C4 09 00 90 70 97 58 62 6F 52 [FD BRS]
0.0859124 1 DBx Rx d 14 39 0E 00 20 5E 27 D6 F9 F7 7E 83 1A 3F CF [FD BRS]
0.0912664 1 DBx Rx d 13 39 0F 00 15 10 CC D7 20 FF FF 7F CF FF [FD BRS]
0.0916516 1 DCx Rx d 13 39 10 00 16 2D 84 DC AE 2A 0A FA DC F0 [FD BRS]
0.0920320 1 D9x Rx d 13 39 13 00 15 AD 99 DA 26 A0 42 4D 30 4F [FD BRS]
0.0936752 1 2Dx Rx d 14 71 DC E0 05 C4 09 00 90 70 97 58 62 6F 52 [FD BRS]
0.1017664 1 18E19490x Rx d 15 00 00 00 A5 00 00 00 50 01 00 00 00 00 00 00 [FD BRS]
0.1059136 1 DBx Rx d 14 39 0E 00 20 3C D6 D7 F9 F7 7E 83 1A 3F CE [FD BRS]
0.1112556 1 DBx Rx d 13 39 0F 00 15 AE 39 D8 20 FF FF 7F CF FF [FD BRS]
0.1117568 1 DCx Rx d 14 39 10 01 10 15 3F 41 00 44 00 CE 02 0D 9C [FD BRS]
0.1132264 1 D9x Rx d 13 39 13 00 15 EF 3C DB 26 A0 42 CD 30 4F [FD BRS]
0.1136936 1 2Dx Rx d 14 6E D5 E1 05 C4 09 00 90 70 97 58 62 6F 52 [FD BRS]
0.1237180 1 E3x Rx d 8 00 80 00 04 F9 2D BF 04 [FD BRS]
0.1258260 1 DBx Rx d 14 39 0E 00 20 3C EB D8 F9 07 7F 83 1A 3F D0 [FD BRS]
0.1277380 1 44 Rx d 1 04
0.1313144 1 DBx Rx d 13 39 0F 00 15 4C 29 D9 20 FF FF 7F CF FF [FD BRS]
0.1316996 1 D9x Rx d 13 39 13 00 15 91 14 DC 26 A0 42 8D 30 4F [FD BRS]
0.1320776 1 DCx Rx d 13 39 10 00 16 44 C4 DE AE 2A 0A FA DC F0 [FD BRS]
0.1324600 1 18E19490x Rx d 15 01 02 00 3C 0D F9 00 80 0C 03 01 BC 02 06 06 [FD BRS]
0.1336984 1 2Dx Rx d 14 4F CE E2 05 C4 09 00 90 70 97 58 62 6F 52 [FD BRS]
0.1342216 1 D4x Rx d 8 39 04 06 04 E4 2B FC 89 [FD BRS]
0.1459216 1 DBx Rx d 15 39 0E 01 0F 2C 35 FF FF FF FF FF FF FF EF D2 [FD BRS]
0.1483548 1 E3x Rx d 9 41 00 05 08 00 80 03 43 CB [FD BRS]
0.1512668 1 DBx Rx d 13 39 0F 00 15 6A 18 DA 20 FF FF 7F CF FF [FD BRS]
0.1516512 1 DCx Rx d 13 39 10 00 16 60 6C DF AE 2A 0A FA DC F0 [FD BRS]
0.1520344 1 D9x Rx d 13 39 13 00 15 10 7A DD 26 A0 42 CD 2F 4F [FD BRS]
0.1536896 1 2Dx Rx d 14 26 DC E3 05 C4 09 00 90 70 97 58 22 6F 52 [FD BRS]
0.1542140 1 D4x Rx d 15 39 04 0C 05 0E 0F F4 FF FF 39 15 01 14 45 F9 [FD BRS]
0.1582824 1 E3x Rx d 12 39 06 0B 08 00 51 51 14 00 C0 CF FF [FD BRS]
0.1618564 1 18E19490x Rx d 15 02 88 00 64 64 64 01 00 00 00 95 12 0E C3 00 [FD BRS]
0.1659396 1 DBx Rx d 14 39 0F 01 06 4C 85 04 60 20 19 39 0E 00 20 [FD BRS]
0.1683160 1 E3x Rx d 9 41 00 05 08 01 9E A3 81 2A [FD BRS]
0.1712668 1 DBx Rx d 13 39 0F 00 15 88 08 DB 20 FF FF 7F CF FF [FD BRS]
0.1717392 1 DCx Rx d 13 39 10 00 16 64 70 E0 AE 2A 0A FA DC F0 [FD BRS]
0.1721204 1 D9x Rx d 14 39 13 00 15 94 FB DE 26 A0 43 0D 30 4F 12 [FD BRS]
0.1737376 1 2Dx Rx d 14 7B E3 E4 05 C4 09 00 90 70 97 58 22 6F 52 [FD BRS]
0.1859108 1 DBx Rx d 14 39 0E 00 20 ED 70 DB F9 F7 7E 83 1A 3F CE [FD BRS]
0.1912628 1 DBx Rx d 13 39 0F 00 15 26 7A DC 20 FF FF 7F CF FF [FD BRS]
0.1916472 1 DCx Rx d 13 39 10 00 16 40 D8 E1 AE 2A 0A FA DC F0 [FD BRS]
0.1920304 1 D9x Rx d 13 39 13 00 15 04 01 DF 26 A0 42 8D 2F 4F [FD BRS]
0.1924096 1 18E19490x Rx d 15 03 00 00 93 01 93 01 00 00 00 00 00 00 00 00 [FD BRS]
0.1936736 1 2Dx Rx d 14 64 EA E5 05 C4 09 00 90 70 97 58 22 6F 52 [FD BRS]
0.0018620 1 DBx Rx d 14 39 0E 00 20 19 87 63 F9 F7 7E 83 1A 3F CE [FD BRS]
0.0069400 1 DBx Rx d 13 39 0F 00 15 3D 2F 64 20 FF FF 7F CF FF [FD BRS]
0.0073252 1 D9x Rx d 13 39 13 00 15 9B 49 67 27 A0 42 0D 2F 4F [FD BRS]
0.0077036 1 DCx Rx d 13 39 10 00 16 B4 C1 69 AE 2A 0A FA DC F0 [FD BRS]
0.0080860 1 18E19490x Rx d 15 03 00 00 99 01 99 01 00 00 00 00 00 00 00 00 [FD BRS]
0.0094552 1 2Dx Rx d 14 EE 76 6D 05 C4 09 00 90 70 97 58 62 6F 52 [FD BRS]
0.0218620 1 DBx Rx d 14 39 0E 00 20 03 AD 64 F9 F7 7E 83 1A 3F CF [FD BRS]
0.0269316 1 DBx Rx d 13 39 0F 00 15 DF 3F 65 20 FF FF 7F CF FF [FD BRS]
0.0273196 1 DCx Rx d 14 39 10 01 10 15 3F 41 30 44 00 16 16 11 9C [FD BRS]
0.0286228 1 D9x Rx d 13 39 13 00 15 20 50 68 27 A0 42 CD 2E 4F [FD BRS]
0.0294660 1 2Dx Rx d 14 CF 6D 6E 05 C4 09 00 90 70 97 58 62 6F 52 [FD BRS]
0.0373404 1 18E19490x Rx d 15 04 03 00 03 00 03 00 7E 36 ED 0C 43 0D 22 01 [FD BRS]
0.0394944 1 E3x Rx d 8 00 80 00 04 73 67 A8 04 [FD BRS]
0.0416908 1 DBx Rx d 14 39 0E 00 20 61 5C 65 F9 F7 7E 83 1A 3F CE [FD BRS]
0.0471280 1 DBx Rx d 13 39 0F 00 15 F9 0E 66 20 FF FF 7F CF FF [FD BRS]
0.0475140 1 D9x Rx d 13 39 13 00 15 17 F6 69 27 A0 42 4D 2F 4F [FD BRS]
0.0478924 1 DCx Rx d 13 39 10 00 16 E8 2C 6B AE 2A 0A FA DC F4 [FD BRS]
0.0494976 1 2Dx Rx d 14 D0 64 6F 05 C4 09 00 90 70 97 58 62 6F 52 [FD BRS]
0.0500228 1 D4x Rx d 8 39 04 06 04 34 C3 E5 89 [FD BRS]
0.0595152 1 E3x Rx d 13 41 00 05 08 00 80 03 43 CB 9E 7D 08 05 [FD BRS]
0.0618856 1 DBx Rx d 15 39 0E 01 0F 2C 35 FF FF FF FF FF FF FF EF D2 [FD BRS]
0.0669288 1 DBx Rx d 13 39 0F 00 15 1B 1E 67 20 FF FF 7F CF FF [FD BRS]
0.0673140 1 D9x Rx d 13 39 13 00 15 F2 0C 6A 27 A0 42 8D 30 4F [FD BRS]
0.0676944 1 DCx Rx d 13 39 10 00 16 42 E9 6C AE 2A 0A FA DC F0 [FD BRS]
0.0680756 1 18E19490x Rx d 15 00 00 00 A5 00 00 00 50 01 00 00 00 00 00 00 [FD BRS]
0.0694696 1 2Dx Rx d 14 85 82 70 05 C4 09 00 90 70 97 58 62 6F 52 [FD BRS]
0.0699940 1 D4x Rx d 13 39 04 0C 05 0E 0F F4 FF FF 39 0C 14 0C [FD BRS]
0.0740656 1 E3x Rx d 12 39 06 0B 08 00 51 51 14 00 C0 CF FF [FD BRS]
0.0818824 1 DBx Rx d 14 39 0E 00 20 1F AB 67 F9 07 7F 83 1A 3F CF [FD BRS]
0.0841116 1 E3x Rx d 13 41 00 05 08 01 E5 93 55 80 BC 62 CF 39 [FD BRS]
0.0869548 1 DBx Rx d 13 39 0F 00 15 A5 EB 68 20 FF FF 7F CF FF [FD BRS]
0.0873428 1 D9x Rx d 14 39 13 00 15 C5 AA 6B 27 A0 42 0D 31 4F 12 [FD BRS]
0.0878564 1 DCx Rx d 13 39 10 00 16 66 41 6D AE 2A 0A FA DC F0 [FD BRS]
0.0894584 1 2Dx Rx d 14 EC 90 71 05 C4 09 00 90 70 97 58 22 6F 52 [FD BRS]
0.0973676 1 18E19490x Rx d 15 01 02 00 3C 0D F9 00 80 0C 03 01 BC 02 06 06 [FD BRS]
0.1018588 1 DBx Rx d 14 39 0E 00 20 84 B5 68 F9 07 7F 83 1A 3F CE [FD BRS]
0.1069392 1 DBx Rx d 13 39 0F 00 15 47 FB 69 20 FF FF 7F CF FF [FD BRS]
0.1073252 1 D9x Rx d 13 39 13 00 15 7F A0 6C 27 A0 43 0D 30 4F [FD BRS]
0.1077044 1 DCx Rx d 13 39 10 00 16 2B A9 6E AE 2A 0A FA DC F0 [FD BRS]
0.1095736 1 2Dx Rx d 14 CD 8B 72 05 C4 09 00 90 70 97 58 22 6F 52 [FD BRS]
0.1218608 1 DBx Rx d 14 39 0E 00 20 46 2F 69 F9 F7 7E 83 1A 3F CF [FD BRS]
0.1269280 1 DBx Rx d 13 39 0F 00 15 61 CA 6A 20 FF FF 7F CF FF [FD BRS]
0.1273152 1 DCx Rx d 14 39 10 01 10 15 3F 41 39 44 00 1E 12 11 9C [FD BRS]
0.1278364 1 18E19490x Rx d 15 02 88 00 64 64 64 01 00 00 00 A2 12 D6 A2 00 [FD BRS]
0.1285396 1 D9x Rx d 13 39 13 00 15 2E 94 6D 27 A0 43 0D 2F 4F [FD BRS]
0.1294660 1 2Dx Rx d 14 D2 82 73 05 C4 09 00 90 70 97 58 22 6F 52 [FD BRS]
0.1395044 1 E3x Rx d 8 00 80 00 04 C7 11 A9 04 [FD BRS]
0.1416364 1 DBx Rx d 14 39 0E 00 20 AC FC 6A F9 07 7F 83 1A 3F CE [FD BRS]
0.1435008 1 44 Rx d 1 04
0.1471268 1 DBx Rx d 13 39 0F 00 15 83 DA 6B 20 FF FF 7F CF FF [FD BRS]
0.1475160 1 D9x Rx d 13 39 13 00 15 69 DE 6E 27 A0 42 0D 2F 4F [FD BRS]
0.1478932 1 DCx Rx d 13 39 10 00 16 1F 5B 70 AE 2A 0A FA DC F0 [FD BRS]
0.1494856 1 2Dx Rx d 14 F9 A6 74 05 C4 09 00 90 70 97 58 62 6F 52 [FD BRS]
0.1500100 1 D4x Rx d 8 39 04 06 04 E8 58 E6 89 [FD BRS]
0.1573512 1 18E19490x Rx d 15 03 00 00 9F 01 9F 01 00 00 00 00 00 00 00 00 [FD BRS]
0.1618680 1 DBx Rx d 15 39 0E 01 0F 2C 35 FF FF FF FF FF FF FF EF D2 [FD BRS]
0.1641252 1 E3x Rx d 9 41 00 05 08 00 80 03 43 CB [FD BRS]
0.1669384 1 DBx Rx d 13 39 0F 00 15 2D A8 6C 20 FF FF 7F CF FF [FD BRS]
0.1673248 1 D9x Rx d 13 39 13 00 15 38 EA 6F 27 A0 42 0D 30 4F [FD BRS]
0.1677028 1 DCx Rx d 13 39 10 00 16 3B F3 71 AE 2A 0A FA DC F0 [FD BRS]
0.1694852 1 2Dx Rx d 14 90 B4 75 05 C4 09 00 90 70 97 58 22 6F 52 [FD BRS]
0.1700084 1 D4x Rx d 15 39 04 0C 05 0E 0F F4 FF FF 39 15 01 14 45 F9 [FD BRS]
0.1740948 1 E3x Rx d 12 39 06 0B 08 00 51 51 14 00 C0 CF FF [FD BRS]
0.1744204 1 4Fx Rx d 8 20 9E 06 A0 00 49 9B 9E [FD BRS]
0.1819404 1 DBx Rx d 14 39 0F 01 06 4C 85 04 60 20 19 39 0E 00 20 [FD BRS]
0.1841096 1 E3x Rx d 9 41 00 05 08 01 7D 36 7F 5B [FD BRS]
0.1869384 1 DBx Rx d 13 39 0F 00 15 CF B8 6D 20 FF FF 7F CF FF [FD BRS]
0.1873276 1 D9x Rx d 14 39 13 00 15 27 B4 70 27 A0 42 8D 30 4F 12 [FD BRS]
0.1878420 1 DCx Rx d 13 39 10 00 16 76 1B 72 AE 2A 0A FA DC F0 [FD BRS]
0.1882224 1 18E19490x Rx d 15 04 03 00 03 00 03 00 7E 36 ED 0C 43 0D 22 01 [FD BRS]
0.1894584 1 2Dx Rx d 14 B1 AF 76 05 C4 09 00 90 70 97 58 22 6F 52 [FD BRS]
0.1899840 1 DC085B Rx d 8 40 03 08 04 00 00 00 00
0.0005968 1 2Dx Rx d 14 99 0F 0B 05 C4 09 00 90 70 97 58 22 6F 52 [FD BRS]
0.0011232 1 D4x Rx d 8 39 04 06 04 2C 25 D1 89 [FD BRS]
0.0082964 1 18E19490x Rx d 15 03 00 00 9F 01 9F 01 00 00 00 00 00 00 00 00 [FD BRS]
0.0106264 1 E3x Rx d 13 41 00 05 08 00 80 03 43 CB 9D B5 B0 05 [FD BRS]
0.0129976 1 DBx Rx d 15 39 0E 01 0F 2C 35 FF FF FF FF FF FF FF EF D2 [FD BRS]
0.0180680 1 DBx Rx d 13 39 0F 00 15 95 19 03 20 FF FF 7F CF FF [FD BRS]
0.0184540 1 D9x Rx d 13 39 13 00 15 AA AB 06 27 A0 42 8D 2E 4F [FD BRS]
0.0188312 1 DCx Rx d 13 39 10 00 16 AC A3 08 AE 2A 0A FA DC F0 [FD BRS]
0.0205964 1 2Dx Rx d 14 C4 30 0C 05 C4 09 00 90 70 97 58 22 6F 52 [FD BRS]
0.0211248 1 D4x Rx d 13 39 04 0C 05 0E 0F F4 FF FF 39 0C 14 0C [FD BRS]
0.0252064 1 E3x Rx d 12 39 06 0B 08 00 51 51 14 00 C0 CF FF [FD BRS]
0.0330292 1 DBx Rx d 14 39 0E 00 20 62 5F 03 F9 07 7F 83 1A 3F CF [FD BRS]
0.0352304 1 E3x Rx d 13 41 00 05 08 01 57 8C B3 EC A6 EB 99 39 [FD BRS]
0.0380936 1 DBx Rx d 13 39 0F 00 15 3B 6B 04 20 FF FF 7F CF FF [FD BRS]
0.0384796 1 D9x Rx d 14 39 13 00 15 29 C0 07 27 A0 43 8D 2E 4F 12 [FD BRS]
0.0389932 1 DCx Rx d 13 39 10 00 16 88 0B 09 AE 2A 0A FA DC F0 [FD BRS]
0.0393744 1 18E19490x Rx d 15 04 03 00 03 00 03 00 88 36 EB 0C 43 0D 22 01 [FD BRS]
0.0405728 1 2Dx Rx d 14 DB 39 0D 05 C4 09 00 90 70 97 58 22 6F 52 [FD BRS]
0.0529716 1 DBx Rx d 14 39 0E 00 20 D8 1E 04 F9 F7 7E 83 1A 3F CE [FD BRS]
0.0580768 1 DBx Rx d 13 39 0F 00 15 D9 7B 05 20 FF FF 7F CF FF [FD BRS]
0.0584640 1 D9x Rx d 13 39 13 00 15 F6 4E 08 27 A0 42 8D 2E 4F [FD BRS]
0.0588432 1 DCx Rx d 13 39 10 00 16 C5 E3 0A AE 2A 0A FA DC F0 [FD BRS]
0.0605776 1 2Dx Rx d 14 FA 22 0E 05 C4 09 00 90 70 97 58 22 6F 52 [FD BRS]
0.0682716 1 18E19490x Rx d 15 00 00 00 A5 00 00 00 50 01 00 00 00 00 00 00 [FD BRS]
0.0729720 1 DBx Rx d 14 39 0E 00 20 4C 3A 05 F9 F7 7E 83 1A 3F CE [FD BRS]
0.0780672 1 DBx Rx d 13 39 0F 00 15 FF 4A 06 20 FF FF 7F CF FF [FD BRS]
0.0784544 1 DCx Rx d 14 39 10 01 10 15 3F 41 32 44 00 7E 06 11 9C [FD BRS]
0.0792928 1 D9x Rx d 13 39 13 00 15 C1 E8 09 27 A0 42 0D 2F 4F [FD BRS]
0.0806720 1 2Dx Rx d 14 93 30 0F 05 C4 09 00 90 70 97 58 62 6F 52 [FD BRS]
0.0906092 1 E3x Rx d 8 00 80 00 04 1C 72 95 04 [FD BRS]
0.0927764 1 DBx Rx d 14 39 0E 00 20 A6 E9 06 F9 07 7F 83 1A 3F CF [FD BRS]
0.0946464 1 44 Rx d 1 04
0.0981548 1 DCx Rx d 13 39 10 00 16 7E 23 0C AE 2A 0A FA DC F0 [FD BRS]
0.0985360 1 DBx Rx d 13 39 0F 00 15 1D 5A 07 20 FF FF 7F CF FF [FD BRS]
0.0989220 1 D9x Rx d 13 39 13 00 15 83 4E 0A 27 A0 43 CD 2E 4F [FD BRS]
0.0992992 1 18E19490x Rx d 15 01 02 00 3C 0D F9 00 80 0C 03 01 BC 02 06 06 [FD BRS]
0.1005976 1 2Dx Rx d 14 C6 D6 10 05 C4 09 00 90 70 97 58 62 6F 52 [FD BRS]
0.1011228 1 D4x Rx d 8 39 04 06 04 F0 BE D2 89 [FD BRS]
0.1129808 1 DBx Rx d 15 39 0E 01 0F 2C 35 FF FF FF FF FF FF FF EF D2 [FD BRS]
0.1152392 1 E3x Rx d 9 41 00 05 08 00 80 03 43 CB [FD BRS]
0.1180780 1 DBx Rx d 13 39 0F 00 15 A3 AF 08 20 FF FF 7F CF FF [FD BRS]
0.1184652 1 D9x Rx d 13 39 13 00 15 A0 90 0B 27 A0 42 4D 2E 4F [FD BRS]
0.1188428 1 DCx Rx d 13 39 10 00 16 5A 8B 0D AE 2A 0A FA DC F0 [FD BRS]
0.1205888 1 2Dx Rx d 14 AF C4 11 05 C4 09 00 90 70 97 58 22 6F 52 [FD BRS]
0.1211172 1 D4x Rx d 15 39 04 0C 05 0E 0F F4 FF FF 39 15 01 14 45 F9 [FD BRS]
0.1252016 1 E3x Rx d 12 39 06 0B 08 00 51 51 14 00 C0 CF FF [FD BRS]
0.1255148 1 4Fx Rx d 8 20 8E 02 A0 00 49 9B 9C [FD BRS]
0.1283632 1 18E19490x Rx d 15 02 88 00 64 64 64 01 00 00 00 94 12 BF D7 00 [FD BRS]
0.1329852 1 DBx Rx d 14 39 0F 01 06 4C 85 04 60 00 19 39 0E 00 20 [FD BRS]
0.1352256 1 E3x Rx d 9 41 00 05 08 01 A6 24 85 A4 [FD BRS]
0.1380764 1 DBx Rx d 13 39 0F 00 15 41 BF 09 20 FF FF 7F CF FF [FD BRS]
0.1384656 1 D9x Rx d 14 39 13 00 15 DE B8 0C 27 A0 42 0D 2E 4F 12 [FD BRS]
0.1389800 1 DCx Rx d 13 39 10 00 16 17 63 0E AE 2A 0A FA DC F0 [FD BRS]
0.1405884 1 2Dx Rx d 14 F8 C4 12 05 C4 09 00 90 70 97 58 62 6F 52 [FD BRS]
0.1411144 1 DC085B Rx d 8 40 03 08 04 00 00 00 00
0.1529704 1 DBx Rx d 14 39 0E 00 20 3D F7 09 F9 07 7F 83 1A 3F CE [FD BRS]
0.1580760 1 DBx Rx d 13 39 0F 00 15 67 8E 0A 20 FF FF 7F CF FF [FD BRS]
0.1584640 1 D9x Rx d 13 39 13 00 15 8D 89 0D 27 A0 43 4D 2E 4F [FD BRS]
0.1588412 1 DCx Rx d 13 39 10 00 16 33 CB 0F AE 2A 0A FA DC F0 [FD BRS]
0.1592248 1 18E19490x Rx d 15 03 00 00 A0 01 A0 01 00 00 00 00 00 00 00 00 [FD BRS]
0.1605728 1 2Dx Rx d 14 E7 CD 13 05 C4 09 00 90 70 97 58 62 6F 52 [FD BRS]
0.1730328 1 DBx Rx d 14 39 0E 00 20 77 4F 0A F9 07 7F 83 1A 3F CF [FD BRS]
0.1754872 1 4Fx Rx d 8 28 D9 02 00 0A 0C 2B CB [FD BRS]
0.1780652 1 DBx Rx d 13 39 0F 00 15 85 9E 0B 20 FF FF 7F CF FF [FD BRS]
0.1784524 1 DCx Rx d 14 39 10 01 10 15 3F 41 82 44 00 86 46 11 9C [FD BRS]
0.1793068 1 D9x Rx d 13 39 13 00 15 6F 9A 0E 27 A0 42 0D 2F 4F [FD BRS]
0.1805708 1 2Dx Rx d 14 CC E9 14 05 C4 09 00 90 70 97 58 22 6F 52 [FD BRS]
0.1810964 1 E3x Rx d 8 3A 02 00 04 F4 FF FF FF [FD BRS]
0.1882876 1 18E19490x Rx d 15 04 03 00 03 00 03 00 88 36 ED 0C 43 0D 22 01 [FD BRS]
0.1906096 1 E3x Rx d 8 00 80 00 04 C0 E9 96 04 [FD BRS]
0.1927728 1 DBx Rx d 14 39 0E 00 20 15 BE 0B F9 07 7F 83 1A 3F CE [FD BRS]
0.1982312 1 DCx Rx d 13 39 10 00 16 07 39 11 AE 2A 0A FA DC F0 [FD BRS]
0.1986144 1 D9x Rx d 13 39 13 00 15 F8 89 0F 27 A0 42 0D 2E 4F [FD BRS]
0.1989916 1 DBx Rx d 13 39 0F 00 15 2B EC 0C 20 FF FF 7F CF FF [FD BRS]
0.0010876 1 2Dx Rx d 14 1A 0A 2D 05 C4 09 00 90 70 97 58 22 6F 52 [FD BRS]
0.0082800 1 DCx Rx d 9 39 FE 6F 08 94 01 00 80 01 [FD BRS]
0.0084780 1 18E19490x Rx d 15 00 00 00 A5 00 00 00 50 01 00 00 00 00 00 00 [FD BRS]
0.0134664 1 DBx Rx d 14 39 0E 00 20 8A 72 24 F9 07 7F 83 1A 3F CF [FD BRS]
0.0183744 1 DCx Rx d 14 39 10 01 10 15 3F 41 30 44 00 16 16 11 9C [FD BRS]
0.0188928 1 DBx Rx d 13 39 0F 00 15 DB 47 25 20 FF FF 7F CF FF [FD BRS]
0.0196060 1 D9x Rx d 13 39 13 00 15 CB C2 28 27 A0 42 0D 2D 4F [FD BRS]
0.0211020 1 2Dx Rx d 14 3B 11 2E 05 C4 09 00 90 70 97 58 22 6F 52 [FD BRS]
0.0311216 1 E3x Rx d 8 00 80 00 04 D7 D4 68 04 [FD BRS]
0.0334608 1 DBx Rx d 14 39 0E 00 20 D3 ED 25 F9 07 7F 83 1A 3F CD [FD BRS]
0.0382920 1 DCx Rx d 13 39 10 00 16 F5 0D 2B AE 2A 0A FA DC F0 [FD BRS]
0.0386744 1 18E19490x Rx d 15 01 02 00 3C 0D F9 00 80 0C 03 01 BC 02 06 06 [FD BRS]
0.0393792 1 D9x Rx d 13 39 13 00 15 59 3D 29 27 A0 42 CD 2D 4F [FD BRS]
0.0397576 1 DBx Rx d 13 39 0F 00 15 FD 76 26 20 FF FF 7F CF FF [FD BRS]
0.0412000 1 2Dx Rx d 14 24 18 2F 05 C4 09 00 90 70 97 58 22 6F 52 [FD BRS]
0.0417292 1 D4x Rx d 8 39 04 06 04 A8 AD A5 89 [FD BRS]
0.0512864 1 E3x Rx d 13 41 00 05 08 00 80 03 43 CB 9B FE E1 05 [FD BRS]
0.0534888 1 DBx Rx d 15 39 0E 01 0F 2C 35 FF FF FF FF FF FF FF EF D2 [FD BRS]
0.0582960 1 DCx Rx d 13 39 10 00 16 6A 65 2C AE 2A 0A FA DC F0 [FD BRS]
0.0586780 1 DBx Rx d 13 39 0F 00 15 1F 66 27 20 FF FF 7F CF FF [FD BRS]
0.0590664 1 D9x Rx d 13 39 13 00 15 30 53 2A 27 A0 42 8D 2E 4F [FD BRS]
0.0611064 1 2Dx Rx d 14 71 FE 30 05 C4 09 00 90 70 97 58 22 6F 52 [FD BRS]
0.0616340 1 D4x Rx d 14 39 04 0C 05 0E 0F F4 FF FF 39 FE 1D 08 59 [FD BRS]
0.0657204 1 E3x Rx d 12 39 06 0B 08 00 51 51 14 00 C0 CF FF [FD BRS]
0.0660256 1 4Fx Rx d 8 20 E7 09 A0 00 49 9B 97 [FD BRS]
0.0684188 1 18E19490x Rx d 15 02 88 00 64 64 64 01 00 00 00 B4 12 09 CB 00 [FD BRS]
0.0734848 1 DBx Rx d 14 39 0E 00 20 FB A4 27 F9 07 7F 83 1A 3F CD [FD BRS]
0.0740060 1 D9x Rx d 14 39 FE 28 08 29 00 00 00 00 00 00 00 39 13 [FD BRS]
0.0757436 1 E3x Rx d 13 41 00 05 08 01 84 C2 6F 46 8D 7D D5 39 [FD BRS]
0.0783756 1 DCx Rx d 13 39 10 00 16 4E CD 2D AE 2A 0A FA DC F0 [FD BRS]
0.0787576 1 DBx Rx d 13 39 0F 00 15 A1 93 28 20 FF FF 7F CF FF [FD BRS]
0.0811028 1 2Dx Rx d 14 6E F7 31 05 C4 09 00 90 70 97 58 22 6F 52 [FD BRS]
0.0838304 1 D9x Rx d 10 39 13 01 0B 51 BA 38 55 95 00 [FD BRS]
0.0936584 1 DBx Rx d 14 39 0E 00 20 5B D4 28 F9 07 7F 83 1A 3F CF [FD BRS]
0.0982824 1 DCx Rx d 13 39 10 00 16 03 25 2E AE 2A 0A FA DC F0 [FD BRS]
0.0986656 1 D9x Rx d 13 39 13 00 15 E3 34 2C 27 A0 42 8D 2D 4F [FD BRS]
0.0990432 1 21Cx Rx d 15 11 02 01 0C 0B B8 0B 54 0A 28 09 C4 07 D0 05 [FD BRS]
0.0997372 1 18E19490x Rx d 15 03 00 00 95 01 95 01 00 00 00 00 00 00 00 00 [FD BRS]
0.1004572 1 DBx Rx d 13 39 0F 00 15 43 83 29 20 FF FF 7F CF FF [FD BRS]
0.1008456 1 21Dx Rx d 3 30 40 28 [FD BRS]
0.1010008 1 21Cx Rx d 15 21 00 00 00 00 00 00 00 00 00 00 00 00 00 00 [FD BRS]
0.1017108 1 2Dx Rx d 14 4F EC 32 05 C4 09 00 90 70 97 58 22 6F 52 [FD BRS]
0.1134648 1 DBx Rx d 14 39 0E 00 20 02 4B 29 F9 07 7F 83 1A 3F CD [FD BRS]
0.1160080 1 4Fx Rx d 8 28 D8 09 00 27 DC DA 2D [FD BRS]
0.1183204 1 DCx Rx d 14 39 10 01 10 15 3F 41 39 44 00 1E 12 11 9C [FD BRS]
0.1188396 1 DBx Rx d 13 39 0F 00 15 65 B2 2A 20 FF FF 7F CF FF [FD BRS]
0.1199436 1 D9x Rx d 13 39 13 00 15 01 24 2D 27 A0 42 8D 2D 4F [FD BRS]
0.1210980 1 2Dx Rx d 14 50 E5 33 05 C4 09 00 90 70 97 58 22 6F 52 [FD BRS]
0.1237540 1 21Cx Rx d 15 22 00 00 00 00 00 00 00 00 00 00 00 00 00 00 [FD BRS]
0.1283464 1 18E19490x Rx d 15 04 03 00 03 00 03 00 88 36 F0 0C 43 0D 22 01 [FD BRS]
0.1311256 1 E3x Rx d 8 00 80 00 04 63 A2 69 04 [FD BRS]
0.1337176 1 DBx Rx d 14 39 FE 0B 08 61 00 00 00 01 00 00 00 39 0E [FD BRS]
0.1351576 1 44 Rx d 1 04
0.1383680 1 DCx Rx d 13 39 10 00 16 37 D7 30 AE 2A 0A FA DC F0 [FD BRS]
0.1387512 1 DBx Rx d 13 39 0F 00 15 87 A2 2B 20 FF FF 7F CF FF [FD BRS]
0.1391396 1 D9x Rx d 13 39 13 00 15 C8 FF 2E 27 A0 42 4D 2E 4F [FD BRS]
0.1411288 1 2Dx Rx d 14 0D DA 34 05 C4 09 00 90 70 97 58 22 6F 52 [FD BRS]
0.1416540 1 D4x Rx d 8 39 04 06 04 74 36 A6 89 [FD BRS]
0.1483292 1 DBx Rx d 14 39 0E 02 2A 3E 00 4A 00 65 0A B8 C1 17 7C [FD BRS]
0.1534724 1 DBx Rx d 13 39 0E 01 0F 24 35 FF FF FF FF FF FF FF [FD BRS]
0.1538636 1 21Cx Rx d 15 23 00 00 00 00 00 00 00 00 00 00 00 00 00 00 [FD BRS]
0.1557576 1 E3x Rx d 9 41 00 05 08 00 80 03 43 CB [FD BRS]
0.1582968 1 DCx Rx d 13 39 10 00 16 13 7F 31 AE 2A 0A FA DC F0 [FD BRS]
0.1586800 1 D9x Rx d 13 39 13 00 15 FA B5 2F 27 A0 42 0D 2E 4F [FD BRS]
0.1590584 1 DBx Rx d 15 39 0E 00 20 2A 02 2B F9 07 7F 83 1A 3F CD 7F [FD BRS]
0.1597168 1 18E19490x Rx d 15 00 00 00 A5 00 00 00 50 01 00 00 00 00 00 00 [FD BRS]
0.1611060 1 2Dx Rx d 14 12 D3 35 05 C4 09 00 90 70 97 58 22 6F 52 [FD BRS]
0.1616304 1 D4x Rx d 15 39 04 0C 05 0E 0F F4 FF FF 39 15 01 14 45 F9 [FD BRS]
0.1657224 1 E3x Rx d 12 39 06 0B 08 00 51 51 14 00 C0 CF FF [FD BRS]
0.1684316 1 DBx Rx d 13 39 0E 04 10 5C E3 0B 4C 24 B4 DB FF EF [FD BRS]
0.1734840 1 DBx Rx d 14 39 0E 00 20 0B 46 2C F9 07 7F 83 1A 3F CF [FD BRS]
0.1758260 1 E3x Rx d 9 41 00 05 08 01 33 48 28 AE [FD BRS]
0.1783244 1 DCx Rx d 13 39 10 00 16 5E 97 32 AE 2A 0A FA DC F0 [FD BRS]
0.1787096 1 D9x Rx d 14 39 13 00 15 0A 01 30 27 A0 42 4D 2D 4F 12 [FD BRS]
0.1792236 1 DBx Rx d 13 39 0F 00 15 CB C0 2D 20 FF FF 7F CF FF [FD BRS]
0.1810900 1 2Dx Rx d 14 33 C8 36 05 C4 09 00 90 70 97 58 22 6F 52 [FD BRS]
0.1837372 1 21Cx Rx d 8 24 00 00 00 00 00 00 00 [FD BRS]
0.1883444 1 18E19490x Rx d 15 01 02 00 3C 0D FA 00 80 0C 03 01 BC 02 06 06 [FD BRS]
0.1934636 1 DBx Rx d 14 39 0E 00 20 69 B7 2D F9 07 7F 83 1A 3F CE [FD BRS]
0.1983596 1 DCx Rx d 13 39 10 00 16 7A 3F 33 AE 2A 0A FA DC F0 [FD BRS]
0.1987428 1 D9x Rx d 13 39 13 00 15 98 FE 31 27 A0 42 8D 2D 4F [FD BRS]
0.1991200 1 DBx Rx d 13 39 0F 00 15 ED F1 2E 20 FF FF 7F CF FF [FD BRS]
